! Sonnet Data File
! From: emgraph Version : 16.52.1
! From Emgraph Data: Waveguide
! Data File Written: 09/24/2017 11:13:27
!< HDATE 09/24/2017 10:17:04
!< MDATE 09/24/2017 10:17:04
# GHZ S MA R 50.00000
0.00000000 1.0e-100 -90.00 0.999965 0.0000 0.999965 0.0000 1.0e-100 -90.00
0.05000000 3.787e-6 89.881 1.000000 -0.302 1.000000 -0.302 3.787e-6 89.881
!< P1 F=0.05 Eeff=(6.41541166 -2.8654e-5) Z0=(50.3502242 1.1465e-4) R=2.3731701 C=0.00406472 
!< P2 F=0.05 Eeff=(6.41541166 -2.8654e-5) Z0=(50.3502242 1.1465e-4) R=2.3731701 C=0.00406472 
0.10000000 5.945e-5 90.256 1.000001 -0.607 1.000001 -0.607 5.945e-5 90.257
0.15000000 1.148e-4 89.887 1.000001 -0.913 1.000001 -0.913 1.148e-4 89.888
0.20000000 1.699e-4 89.508 1.000002 -1.218 1.000002 -1.218 1.699e-4 89.508
0.25000000 2.247e-4 89.129 1.000002 -1.523 1.000002 -1.523 2.247e-4 89.129
0.30000000 2.792e-4 88.754 1.000002 -1.828 1.000002 -1.828 2.792e-4 88.754
0.35000000 3.334e-4 88.383 1.000003 -2.133 1.000003 -2.133 3.334e-4 88.383
0.40000000 3.874e-4 88.016 1.000003 -2.439 1.000003 -2.439 3.874e-4 88.016
0.45000000 4.412e-4 87.654 1.000003 -2.744 1.000003 -2.744 4.412e-4 87.654
0.50000000 4.947e-4 87.296 1.000002 -3.049 1.000002 -3.049 4.947e-4 87.296
0.55000000 5.480e-4 86.942 1.000002 -3.354 1.000002 -3.354 5.480e-4 86.942
0.60000000 6.011e-4 86.592 1.000002 -3.659 1.000002 -3.659 6.011e-4 86.592
0.65000000 6.540e-4 86.246 1.000002 -3.964 1.000002 -3.964 6.540e-4 86.246
0.70000000 7.066e-4 85.903 1.000001 -4.269 1.000001 -4.269 7.066e-4 85.903
0.75000000 7.591e-4 85.564 1.000001 -4.574 1.000001 -4.574 7.591e-4 85.564
0.80000000 8.114e-4 85.229 1.000001 -4.879 1.000001 -4.879 8.114e-4 85.229
0.85000000 8.636e-4 84.896 1.000000 -5.184 1.000000 -5.184 8.636e-4 84.896
0.90000000 9.155e-4 84.566 1.000000 -5.489 1.000000 -5.489 9.155e-4 84.566
0.95000000 9.674e-4 84.239 1.000000 -5.794 1.000000 -5.794 9.674e-4 84.239
1.00000000 0.001019 83.914 0.999999 -6.099 0.999999 -6.099 0.001019 83.914
!< P1 F=1.0 Eeff=(6.44918769 -2.9731e-5) Z0=(50.4825583 1.16392e-4) R=0.18210064 C=0.00406471 
!< P2 F=1.0 Eeff=(6.44918769 -2.9731e-5) Z0=(50.4825583 1.16392e-4) R=0.18210064 C=0.00406471 
1.05000000 0.001071 83.592 0.999999 -6.404 0.999999 -6.404 0.001071 83.592
1.10000000 0.001122 83.272 0.999999 -6.709 0.999999 -6.709 0.001122 83.272
1.15000000 0.001173 82.954 0.999998 -7.014 0.999998 -7.014 0.001173 82.954
1.20000000 0.001224 82.638 0.999998 -7.319 0.999998 -7.319 0.001224 82.638
1.25000000 0.001275 82.324 0.999998 -7.624 0.999998 -7.624 0.001275 82.324
1.30000000 0.001326 82.012 0.999997 -7.929 0.999997 -7.929 0.001326 82.012
1.35000000 0.001377 81.701 0.999997 -8.234 0.999997 -8.234 0.001377 81.701
1.40000000 0.001428 81.391 0.999997 -8.539 0.999997 -8.539 0.001428 81.391
1.45000000 0.001479 81.082 0.999997 -8.844 0.999997 -8.844 0.001479 81.082
1.50000000 0.001529 80.775 0.999996 -9.149 0.999996 -9.149 0.001529 80.775
1.55000000 0.001580 80.469 0.999996 -9.454 0.999996 -9.454 0.001580 80.469
1.60000000 0.001630 80.163 0.999996 -9.759 0.999996 -9.759 0.001630 80.163
1.65000000 0.001680 79.859 0.999996 -10.06 0.999996 -10.06 0.001680 79.859
1.70000000 0.001731 79.555 0.999996 -10.37 0.999996 -10.37 0.001731 79.555
1.75000000 0.001781 79.251 0.999996 -10.67 0.999996 -10.67 0.001781 79.251
1.80000000 0.001831 78.948 0.999996 -10.98 0.999996 -10.98 0.001831 78.948
1.85000000 0.001881 78.646 0.999995 -11.28 0.999995 -11.28 0.001881 78.646
1.90000000 0.001931 78.344 0.999995 -11.59 0.999995 -11.59 0.001931 78.344
1.95000000 0.001981 78.042 0.999995 -11.89 0.999995 -11.89 0.001981 78.042
2.00000000 0.002031 77.741 0.999995 -12.20 0.999995 -12.20 0.002031 77.741
2.05000000 0.002081 77.439 0.999995 -12.50 0.999995 -12.50 0.002081 77.439
2.10000000 0.002131 77.138 0.999995 -12.81 0.999995 -12.81 0.002131 77.138
2.15000000 0.002180 76.837 0.999995 -13.11 0.999995 -13.11 0.002180 76.837
2.20000000 0.002230 76.536 0.999995 -13.42 0.999995 -13.42 0.002230 76.536
2.25000000 0.002279 76.235 0.999995 -13.72 0.999995 -13.72 0.002279 76.235
2.30000000 0.002329 75.934 0.999995 -14.03 0.999995 -14.03 0.002329 75.934
2.35000000 0.002378 75.633 0.999995 -14.33 0.999995 -14.33 0.002378 75.633
2.40000000 0.002428 75.332 0.999995 -14.64 0.999995 -14.64 0.002428 75.332
2.45000000 0.002477 75.031 0.999995 -14.94 0.999995 -14.94 0.002477 75.031
2.50000000 0.002527 74.729 0.999995 -15.25 0.999995 -15.25 0.002527 74.729
2.55000000 0.002576 74.428 0.999995 -15.55 0.999995 -15.55 0.002576 74.428
2.60000000 0.002625 74.126 0.999995 -15.86 0.999995 -15.86 0.002625 74.126
2.65000000 0.002674 73.824 0.999995 -16.16 0.999995 -16.16 0.002674 73.824
2.70000000 0.002723 73.522 0.999995 -16.47 0.999995 -16.47 0.002723 73.522
2.75000000 0.002772 73.220 0.999995 -16.77 0.999995 -16.77 0.002772 73.220
2.80000000 0.002821 72.918 0.999995 -17.08 0.999995 -17.08 0.002821 72.918
2.85000000 0.002870 72.615 0.999995 -17.38 0.999995 -17.38 0.002870 72.615
2.90000000 0.002918 72.313 0.999995 -17.69 0.999995 -17.69 0.002918 72.313
2.95000000 0.002967 72.010 0.999994 -17.99 0.999994 -17.99 0.002967 72.010
3.00000000 0.003016 71.707 0.999994 -18.30 0.999994 -18.30 0.003016 71.707
3.05000000 0.003064 71.403 0.999994 -18.60 0.999994 -18.60 0.003064 71.403
3.10000000 0.003113 71.100 0.999994 -18.91 0.999994 -18.91 0.003113 71.100
3.15000000 0.003161 70.796 0.999994 -19.21 0.999994 -19.21 0.003161 70.796
3.20000000 0.003209 70.493 0.999994 -19.52 0.999994 -19.52 0.003209 70.493
3.25000000 0.003257 70.189 0.999994 -19.82 0.999994 -19.82 0.003257 70.189
3.30000000 0.003306 69.884 0.999994 -20.13 0.999994 -20.13 0.003306 69.884
3.35000000 0.003354 69.580 0.999994 -20.43 0.999994 -20.43 0.003354 69.580
3.40000000 0.003401 69.276 0.999993 -20.74 0.999993 -20.74 0.003401 69.276
!< P1 F=3.4 Eeff=(6.44928735 -2.9745e-5) Z0=(50.4828117 1.16423e-4) R=0.05309988 C=0.00406474 
!< P2 F=3.4 Eeff=(6.44928735 -2.9745e-5) Z0=(50.4828117 1.16423e-4) R=0.05309988 C=0.00406474 
3.45000000 0.003449 68.971 0.999993 -21.04 0.999993 -21.04 0.003449 68.971
3.50000000 0.003497 68.667 0.999993 -21.35 0.999993 -21.35 0.003497 68.667
3.55000000 0.003545 68.362 0.999993 -21.65 0.999993 -21.65 0.003545 68.362
3.60000000 0.003592 68.057 0.999993 -21.96 0.999993 -21.96 0.003592 68.057
3.65000000 0.003640 67.752 0.999993 -22.26 0.999993 -22.26 0.003640 67.752
3.70000000 0.003687 67.447 0.999992 -22.57 0.999992 -22.57 0.003687 67.447
3.75000000 0.003734 67.142 0.999992 -22.87 0.999992 -22.87 0.003734 67.142
3.80000000 0.003781 66.837 0.999992 -23.18 0.999992 -23.18 0.003781 66.837
3.85000000 0.003828 66.531 0.999992 -23.48 0.999992 -23.48 0.003828 66.531
3.90000000 0.003875 66.226 0.999992 -23.79 0.999992 -23.79 0.003875 66.226
!< P1 F=3.9 Eeff=(6.44929291 -2.9745e-5) Z0=(50.4827804 1.16419e-4) R=0.04635672 C=0.00406474 
!< P2 F=3.9 Eeff=(6.44929291 -2.9745e-5) Z0=(50.4827804 1.16419e-4) R=0.04635672 C=0.00406474 
3.95000000 0.003922 65.921 0.999991 -24.09 0.999991 -24.09 0.003922 65.921
4.00000000 0.003968 65.615 0.999991 -24.40 0.999991 -24.40 0.003968 65.615
4.05000000 0.004015 65.310 0.999991 -24.70 0.999991 -24.70 0.004015 65.310
4.10000000 0.004061 65.004 0.999991 -25.01 0.999991 -25.01 0.004061 65.004
4.15000000 0.004108 64.699 0.999990 -25.31 0.999990 -25.31 0.004108 64.699
4.20000000 0.004154 64.393 0.999990 -25.62 0.999990 -25.62 0.004154 64.393
4.25000000 0.004200 64.088 0.999990 -25.92 0.999990 -25.92 0.004200 64.088
4.30000000 0.004246 63.783 0.999990 -26.23 0.999990 -26.23 0.004246 63.783
4.35000000 0.004292 63.477 0.999990 -26.53 0.999990 -26.53 0.004292 63.477
4.40000000 0.004337 63.172 0.999989 -26.84 0.999989 -26.84 0.004337 63.172
4.45000000 0.004383 62.866 0.999989 -27.14 0.999989 -27.14 0.004383 62.866
4.50000000 0.004428 62.561 0.999989 -27.45 0.999989 -27.45 0.004428 62.561
4.55000000 0.004473 62.255 0.999989 -27.75 0.999989 -27.75 0.004473 62.255
4.60000000 0.004519 61.950 0.999988 -28.06 0.999988 -28.06 0.004519 61.950
4.65000000 0.004564 61.644 0.999988 -28.36 0.999988 -28.36 0.004564 61.644
4.70000000 0.004608 61.339 0.999988 -28.67 0.999988 -28.67 0.004608 61.339
4.75000000 0.004653 61.034 0.999988 -28.97 0.999988 -28.97 0.004653 61.034
4.80000000 0.004698 60.728 0.999987 -29.28 0.999987 -29.28 0.004698 60.728
4.85000000 0.004742 60.423 0.999987 -29.58 0.999987 -29.58 0.004742 60.423
4.90000000 0.004787 60.118 0.999987 -29.89 0.999987 -29.89 0.004787 60.118
4.95000000 0.004831 59.813 0.999987 -30.19 0.999987 -30.19 0.004831 59.813
5.00000000 0.004875 59.508 0.999986 -30.50 0.999986 -30.50 0.004875 59.508
5.05000000 0.004919 59.202 0.999986 -30.80 0.999986 -30.80 0.004919 59.202
5.10000000 0.004963 58.897 0.999986 -31.11 0.999986 -31.11 0.004963 58.897
5.15000000 0.005006 58.592 0.999986 -31.41 0.999986 -31.41 0.005006 58.592
5.20000000 0.005050 58.287 0.999985 -31.72 0.999985 -31.72 0.005050 58.287
5.25000000 0.005093 57.982 0.999985 -32.02 0.999985 -32.02 0.005093 57.982
5.30000000 0.005136 57.677 0.999985 -32.33 0.999985 -32.33 0.005136 57.677
5.35000000 0.005179 57.372 0.999985 -32.63 0.999985 -32.63 0.005179 57.372
5.40000000 0.005222 57.067 0.999984 -32.94 0.999984 -32.94 0.005222 57.068
5.45000000 0.005265 56.763 0.999984 -33.24 0.999984 -33.24 0.005265 56.763
5.50000000 0.005307 56.458 0.999984 -33.55 0.999984 -33.55 0.005307 56.458
5.55000000 0.005350 56.153 0.999984 -33.85 0.999984 -33.85 0.005350 56.153
5.60000000 0.005392 55.848 0.999984 -34.16 0.999984 -34.16 0.005392 55.848
5.65000000 0.005434 55.544 0.999983 -34.46 0.999983 -34.46 0.005434 55.544
5.70000000 0.005476 55.239 0.999983 -34.77 0.999983 -34.77 0.005476 55.239
5.75000000 0.005518 54.934 0.999983 -35.07 0.999983 -35.07 0.005518 54.934
5.80000000 0.005559 54.629 0.999983 -35.38 0.999983 -35.38 0.005559 54.629
5.85000000 0.005601 54.325 0.999982 -35.68 0.999982 -35.68 0.005601 54.325
5.90000000 0.005642 54.020 0.999982 -35.99 0.999982 -35.99 0.005642 54.020
5.95000000 0.005683 53.715 0.999982 -36.29 0.999982 -36.29 0.005683 53.715
6.00000000 0.005724 53.411 0.999982 -36.60 0.999982 -36.60 0.005724 53.411
6.05000000 0.005765 53.106 0.999981 -36.90 0.999981 -36.90 0.005765 53.106
6.10000000 0.005806 52.802 0.999981 -37.21 0.999981 -37.21 0.005806 52.802
6.15000000 0.005846 52.497 0.999981 -37.51 0.999981 -37.51 0.005846 52.497
6.20000000 0.005887 52.192 0.999981 -37.82 0.999981 -37.82 0.005887 52.192
6.25000000 0.005927 51.888 0.999981 -38.12 0.999981 -38.12 0.005927 51.888
6.30000000 0.005967 51.583 0.999980 -38.43 0.999980 -38.43 0.005967 51.583
6.35000000 0.006007 51.279 0.999980 -38.73 0.999980 -38.73 0.006007 51.279
6.40000000 0.006046 50.974 0.999980 -39.04 0.999980 -39.04 0.006046 50.974
6.45000000 0.006086 50.669 0.999980 -39.34 0.999980 -39.34 0.006086 50.669
6.50000000 0.006125 50.365 0.999979 -39.65 0.999979 -39.65 0.006125 50.365
6.55000000 0.006164 50.060 0.999979 -39.95 0.999979 -39.95 0.006164 50.060
6.60000000 0.006203 49.755 0.999979 -40.26 0.999979 -40.26 0.006203 49.756
6.65000000 0.006242 49.451 0.999979 -40.56 0.999979 -40.56 0.006242 49.451
6.70000000 0.006281 49.146 0.999978 -40.87 0.999978 -40.87 0.006281 49.146
6.75000000 0.006319 48.842 0.999978 -41.17 0.999978 -41.17 0.006319 48.842
6.80000000 0.006357 48.537 0.999978 -41.48 0.999978 -41.48 0.006357 48.537
6.85000000 0.006395 48.232 0.999978 -41.78 0.999978 -41.78 0.006395 48.232
6.90000000 0.006433 47.927 0.999978 -42.09 0.999978 -42.09 0.006433 47.927
6.95000000 0.006471 47.623 0.999977 -42.39 0.999977 -42.39 0.006471 47.623
7.00000000 0.006508 47.318 0.999977 -42.70 0.999977 -42.70 0.006508 47.318
7.05000000 0.006546 47.013 0.999977 -43.00 0.999977 -43.00 0.006546 47.013
7.10000000 0.006583 46.708 0.999977 -43.31 0.999977 -43.31 0.006583 46.708
7.15000000 0.006620 46.404 0.999976 -43.61 0.999976 -43.61 0.006620 46.404
7.20000000 0.006656 46.099 0.999976 -43.91 0.999976 -43.91 0.006656 46.099
!< P1 F=7.2 Eeff=(6.44928245 -2.9745e-5) Z0=(50.4822475 1.16421e-4) R=0.02509939 C=0.00406483 
!< P2 F=7.2 Eeff=(6.44928245 -2.9745e-5) Z0=(50.4822475 1.16421e-4) R=0.02509939 C=0.00406483 
7.25000000 0.006693 45.794 0.999976 -44.22 0.999976 -44.22 0.006693 45.794
7.30000000 0.006729 45.489 0.999976 -44.52 0.999976 -44.52 0.006729 45.489
7.35000000 0.006766 45.184 0.999975 -44.83 0.999975 -44.83 0.006766 45.184
7.40000000 0.006802 44.879 0.999975 -45.13 0.999975 -45.13 0.006802 44.879
7.45000000 0.006837 44.574 0.999975 -45.44 0.999975 -45.44 0.006837 44.574
7.50000000 0.006873 44.269 0.999975 -45.74 0.999975 -45.74 0.006873 44.269
7.55000000 0.006908 43.964 0.999974 -46.05 0.999974 -46.05 0.006908 43.964
7.60000000 0.006944 43.659 0.999974 -46.35 0.999974 -46.35 0.006944 43.659
7.65000000 0.006979 43.354 0.999974 -46.66 0.999974 -46.66 0.006979 43.354
7.70000000 0.007013 43.049 0.999974 -46.96 0.999974 -46.96 0.007013 43.049
7.75000000 0.007048 42.744 0.999973 -47.27 0.999973 -47.27 0.007048 42.744
7.80000000 0.007082 42.439 0.999973 -47.57 0.999973 -47.57 0.007082 42.439
7.85000000 0.007116 42.134 0.999973 -47.88 0.999973 -47.88 0.007116 42.134
7.90000000 0.007150 41.829 0.999973 -48.18 0.999973 -48.18 0.007150 41.829
7.95000000 0.007184 41.524 0.999972 -48.49 0.999972 -48.49 0.007184 41.524
8.00000000 0.007218 41.219 0.999972 -48.79 0.999972 -48.79 0.007218 41.219
8.05000000 0.007251 40.913 0.999972 -49.10 0.999972 -49.10 0.007251 40.913
8.10000000 0.007284 40.608 0.999972 -49.40 0.999972 -49.40 0.007284 40.608
8.15000000 0.007317 40.303 0.999971 -49.71 0.999971 -49.71 0.007317 40.303
8.20000000 0.007350 39.998 0.999971 -50.01 0.999971 -50.01 0.007350 39.998
8.25000000 0.007383 39.693 0.999971 -50.32 0.999971 -50.32 0.007383 39.693
8.30000000 0.007415 39.387 0.999970 -50.62 0.999970 -50.62 0.007415 39.387
8.35000000 0.007447 39.082 0.999970 -50.93 0.999970 -50.93 0.007447 39.082
8.40000000 0.007479 38.777 0.999970 -51.23 0.999970 -51.23 0.007479 38.777
8.45000000 0.007510 38.472 0.999970 -51.54 0.999970 -51.54 0.007510 38.472
8.50000000 0.007542 38.167 0.999969 -51.84 0.999969 -51.84 0.007542 38.167
8.55000000 0.007573 37.861 0.999969 -52.15 0.999969 -52.15 0.007573 37.861
8.60000000 0.007604 37.556 0.999969 -52.45 0.999969 -52.45 0.007604 37.556
8.65000000 0.007635 37.251 0.999969 -52.76 0.999969 -52.76 0.007635 37.251
8.70000000 0.007666 36.946 0.999968 -53.06 0.999968 -53.06 0.007666 36.946
8.75000000 0.007696 36.640 0.999968 -53.37 0.999968 -53.37 0.007696 36.641
8.80000000 0.007726 36.335 0.999968 -53.67 0.999968 -53.67 0.007726 36.335
8.85000000 0.007756 36.030 0.999968 -53.98 0.999968 -53.98 0.007756 36.030
8.90000000 0.007786 35.725 0.999967 -54.28 0.999967 -54.28 0.007786 35.725
8.95000000 0.007815 35.420 0.999967 -54.59 0.999967 -54.59 0.007815 35.420
9.00000000 0.007844 35.115 0.999967 -54.89 0.999967 -54.89 0.007844 35.115
9.05000000 0.007873 34.809 0.999967 -55.20 0.999967 -55.20 0.007873 34.810
9.10000000 0.007902 34.504 0.999966 -55.50 0.999966 -55.50 0.007902 34.504
9.15000000 0.007931 34.199 0.999966 -55.81 0.999966 -55.81 0.007931 34.199
9.20000000 0.007959 33.894 0.999966 -56.11 0.999966 -56.11 0.007959 33.894
9.25000000 0.007987 33.589 0.999966 -56.42 0.999966 -56.42 0.007987 33.589
9.30000000 0.008015 33.284 0.999966 -56.72 0.999966 -56.72 0.008015 33.284
9.35000000 0.008043 32.979 0.999965 -57.03 0.999965 -57.03 0.008043 32.979
9.40000000 0.008070 32.674 0.999965 -57.33 0.999965 -57.33 0.008070 32.674
9.45000000 0.008097 32.369 0.999965 -57.64 0.999965 -57.64 0.008097 32.369
9.50000000 0.008124 32.064 0.999965 -57.94 0.999965 -57.94 0.008124 32.064
9.55000000 0.008151 31.759 0.999964 -58.25 0.999964 -58.25 0.008151 31.760
9.60000000 0.008177 31.455 0.999964 -58.55 0.999964 -58.55 0.008177 31.455
9.65000000 0.008204 31.150 0.999964 -58.86 0.999964 -58.86 0.008204 31.150
9.70000000 0.008230 30.845 0.999964 -59.16 0.999964 -59.16 0.008230 30.845
9.75000000 0.008255 30.540 0.999963 -59.47 0.999963 -59.47 0.008255 30.540
9.80000000 0.008281 30.235 0.999963 -59.77 0.999963 -59.77 0.008281 30.236
9.85000000 0.008306 29.931 0.999963 -60.08 0.999963 -60.08 0.008306 29.931
9.90000000 0.008331 29.626 0.999963 -60.38 0.999963 -60.38 0.008331 29.626
9.95000000 0.008356 29.321 0.999963 -60.69 0.999963 -60.69 0.008356 29.322
10.0000000 0.008381 29.017 0.999962 -60.99 0.999962 -60.99 0.008381 29.017
10.0500000 0.008405 28.712 0.999962 -61.30 0.999962 -61.30 0.008405 28.712
10.1000000 0.008429 28.408 0.999962 -61.60 0.999962 -61.60 0.008429 28.408
10.1500000 0.008453 28.103 0.999962 -61.91 0.999962 -61.91 0.008453 28.103
10.2000000 0.008477 27.799 0.999962 -62.21 0.999962 -62.21 0.008477 27.799
10.2500000 0.008500 27.494 0.999961 -62.52 0.999961 -62.52 0.008500 27.494
10.3000000 0.008523 27.190 0.999961 -62.82 0.999961 -62.82 0.008523 27.190
10.3500000 0.008546 26.886 0.999961 -63.13 0.999961 -63.13 0.008546 26.886
10.4000000 0.008569 26.581 0.999961 -63.43 0.999961 -63.43 0.008569 26.581
10.4500000 0.008591 26.277 0.999961 -63.74 0.999961 -63.74 0.008591 26.277
!< P1 F=10.45 Eeff=(6.44926198 -2.9744e-5) Z0=(50.4814314 1.16423e-4) R=0.01729065 C=0.00406503 
!< P2 F=10.45 Eeff=(6.44926198 -2.9744e-5) Z0=(50.4814314 1.16423e-4) R=0.01729065 C=0.00406503 
10.5000000 0.008614 25.973 0.999960 -64.04 0.999960 -64.04 0.008614 25.973
10.5500000 0.008635 25.668 0.999960 -64.35 0.999960 -64.35 0.008635 25.669
10.6000000 0.008657 25.364 0.999960 -64.65 0.999960 -64.65 0.008657 25.364
10.6500000 0.008679 25.060 0.999960 -64.96 0.999960 -64.96 0.008679 25.060
10.7000000 0.008700 24.755 0.999960 -65.26 0.999960 -65.26 0.008700 24.756
10.7500000 0.008721 24.451 0.999959 -65.57 0.999959 -65.57 0.008721 24.451
10.8000000 0.008741 24.146 0.999959 -65.87 0.999959 -65.87 0.008741 24.147
10.8500000 0.008762 23.842 0.999959 -66.18 0.999959 -66.18 0.008762 23.842
10.9000000 0.008782 23.538 0.999959 -66.48 0.999959 -66.48 0.008782 23.538
10.9500000 0.008802 23.233 0.999959 -66.79 0.999959 -66.79 0.008802 23.233
11.0000000 0.008822 22.929 0.999958 -67.09 0.999958 -67.09 0.008822 22.929
11.0500000 0.008841 22.624 0.999958 -67.40 0.999958 -67.40 0.008841 22.624
11.1000000 0.008860 22.319 0.999958 -67.70 0.999958 -67.70 0.008860 22.320
11.1500000 0.008879 22.015 0.999958 -68.01 0.999958 -68.01 0.008879 22.015
11.2000000 0.008898 21.710 0.999958 -68.31 0.999958 -68.31 0.008898 21.710
11.2500000 0.008916 21.405 0.999958 -68.62 0.999958 -68.62 0.008916 21.406
11.3000000 0.008934 21.101 0.999957 -68.92 0.999957 -68.92 0.008934 21.101
11.3500000 0.008952 20.796 0.999957 -69.23 0.999957 -69.23 0.008952 20.796
11.4000000 0.008970 20.491 0.999957 -69.53 0.999957 -69.53 0.008970 20.491
11.4500000 0.008987 20.186 0.999957 -69.84 0.999957 -69.84 0.008987 20.186
11.5000000 0.009004 19.881 0.999957 -70.14 0.999957 -70.14 0.009004 19.881
11.5500000 0.009021 19.576 0.999957 -70.45 0.999957 -70.45 0.009021 19.577
11.6000000 0.009037 19.271 0.999956 -70.75 0.999956 -70.75 0.009037 19.272
11.6500000 0.009054 18.966 0.999956 -71.06 0.999956 -71.06 0.009054 18.967
11.7000000 0.009070 18.661 0.999956 -71.36 0.999956 -71.36 0.009070 18.662
11.7500000 0.009085 18.356 0.999956 -71.67 0.999956 -71.67 0.009085 18.356
11.8000000 0.009101 18.051 0.999956 -71.97 0.999956 -71.97 0.009101 18.051
11.8500000 0.009116 17.746 0.999956 -72.28 0.999956 -72.28 0.009116 17.746
11.9000000 0.009131 17.441 0.999956 -72.58 0.999956 -72.58 0.009131 17.441
11.9500000 0.009146 17.136 0.999955 -72.88 0.999955 -72.88 0.009146 17.136
12.0000000 0.009160 16.830 0.999955 -73.19 0.999955 -73.19 0.009160 16.831
12.0500000 0.009174 16.525 0.999955 -73.49 0.999955 -73.49 0.009174 16.525
12.1000000 0.009188 16.220 0.999955 -73.80 0.999955 -73.80 0.009188 16.220
12.1500000 0.009202 15.915 0.999955 -74.10 0.999955 -74.10 0.009202 15.915
12.2000000 0.009215 15.609 0.999955 -74.41 0.999955 -74.41 0.009215 15.610
12.2500000 0.009229 15.304 0.999955 -74.71 0.999955 -74.71 0.009229 15.304
12.3000000 0.009241 14.999 0.999955 -75.02 0.999955 -75.02 0.009241 14.999
12.3500000 0.009254 14.693 0.999955 -75.32 0.999955 -75.32 0.009254 14.694
