! Sonnet Data File
! From: emgraph Version : 16.52
! From Emgraph Data: Waveguide
! Data File Written: 09/24/2017 09:58:34
!< HDATE 09/24/2017 00:41:10
!< MDATE 09/24/2017 00:41:10
# GHZ S MA R 50.00000
0.00000000 1.0e-100 -90.00 0.999973 0.0000 0.999973 0.0000 1.0e-100 -90.00
0.05000000 6.117e-6 89.805 1.000000 -0.302 1.000000 -0.302 6.117e-6 89.805
!< P1 F=0.05 Eeff=(6.41842955 -2.9295e-5) Z0=(50.3985689 1.18663e-4) R=0.0 C=0.0 
!< P2 F=0.05 Eeff=(6.41842955 -2.9295e-5) Z0=(50.3985689 1.18663e-4) R=0.0 C=0.0 
0.10000000 6.567e-5 90.063 1.000001 -0.607 1.000001 -0.607 6.566e-5 90.063
0.15000000 1.249e-4 89.721 1.000001 -0.913 1.000001 -0.913 1.249e-4 89.721
0.20000000 1.839e-4 89.364 1.000002 -1.218 1.000002 -1.218 1.839e-4 89.364
0.25000000 2.426e-4 89.005 1.000002 -1.523 1.000002 -1.523 2.426e-4 89.005
0.30000000 3.011e-4 88.649 1.000002 -1.828 1.000002 -1.828 3.011e-4 88.649
0.35000000 3.593e-4 88.296 1.000002 -2.133 1.000002 -2.133 3.593e-4 88.296
0.40000000 4.173e-4 87.946 1.000002 -2.438 1.000002 -2.438 4.173e-4 87.946
0.45000000 4.751e-4 87.599 1.000002 -2.744 1.000002 -2.744 4.751e-4 87.599
0.50000000 5.327e-4 87.256 1.000002 -3.049 1.000002 -3.049 5.327e-4 87.256
0.55000000 5.900e-4 86.915 1.000002 -3.354 1.000002 -3.354 5.900e-4 86.915
0.60000000 6.472e-4 86.578 1.000002 -3.659 1.000002 -3.659 6.472e-4 86.578
0.65000000 7.041e-4 86.243 1.000002 -3.964 1.000002 -3.964 7.041e-4 86.243
0.70000000 7.609e-4 85.911 1.000002 -4.269 1.000002 -4.269 7.609e-4 85.911
0.75000000 8.175e-4 85.582 1.000001 -4.574 1.000001 -4.574 8.175e-4 85.582
0.80000000 8.740e-4 85.255 1.000001 -4.879 1.000001 -4.879 8.740e-4 85.255
0.85000000 9.303e-4 84.930 1.000001 -5.184 1.000001 -5.184 9.303e-4 84.930
0.90000000 9.864e-4 84.607 1.000001 -5.489 1.000001 -5.489 9.864e-4 84.607
0.95000000 0.001042 84.286 1.000000 -5.794 1.000000 -5.794 0.001042 84.286
1.00000000 0.001098 83.967 1.000000 -6.099 1.000000 -6.099 0.001098 83.967
1.05000000 0.001154 83.650 1.000000 -6.404 1.000000 -6.404 0.001154 83.650
1.10000000 0.001210 83.334 1.000000 -6.710 1.000000 -6.710 0.001210 83.334
1.15000000 0.001265 83.019 0.999999 -7.015 0.999999 -7.015 0.001265 83.019
1.20000000 0.001321 82.706 0.999999 -7.320 0.999999 -7.320 0.001321 82.706
1.25000000 0.001376 82.394 0.999999 -7.625 0.999999 -7.625 0.001376 82.394
1.30000000 0.001431 82.083 0.999999 -7.930 0.999999 -7.930 0.001431 82.083
!< P1 F=1.3 Eeff=(6.44989789 -2.9755e-5) Z0=(50.5219597 1.16515e-4) R=0.0 C=0.0 
!< P2 F=1.3 Eeff=(6.44989789 -2.9755e-5) Z0=(50.5219597 1.16515e-4) R=0.0 C=0.0 
1.35000000 0.001486 81.773 0.999998 -8.235 0.999998 -8.235 0.001486 81.773
1.40000000 0.001541 81.464 0.999998 -8.540 0.999998 -8.540 0.001541 81.464
1.45000000 0.001596 81.156 0.999998 -8.845 0.999998 -8.845 0.001596 81.156
1.50000000 0.001651 80.848 0.999998 -9.150 0.999998 -9.150 0.001651 80.848
1.55000000 0.001706 80.541 0.999998 -9.455 0.999998 -9.455 0.001706 80.541
1.60000000 0.001760 80.235 0.999998 -9.760 0.999998 -9.760 0.001760 80.235
1.65000000 0.001815 79.929 0.999997 -10.06 0.999997 -10.06 0.001815 79.929
1.70000000 0.001869 79.624 0.999997 -10.37 0.999997 -10.37 0.001869 79.624
1.75000000 0.001924 79.318 0.999997 -10.67 0.999997 -10.67 0.001924 79.318
1.80000000 0.001978 79.014 0.999997 -10.98 0.999997 -10.98 0.001978 79.014
1.85000000 0.002032 78.709 0.999997 -11.28 0.999997 -11.28 0.002032 78.709
1.90000000 0.002087 78.405 0.999997 -11.59 0.999997 -11.59 0.002087 78.405
1.95000000 0.002141 78.101 0.999997 -11.89 0.999997 -11.89 0.002141 78.101
2.00000000 0.002195 77.797 0.999997 -12.20 0.999997 -12.20 0.002195 77.797
2.05000000 0.002249 77.493 0.999996 -12.50 0.999996 -12.50 0.002249 77.493
2.10000000 0.002303 77.189 0.999996 -12.81 0.999996 -12.81 0.002303 77.189
2.15000000 0.002357 76.886 0.999996 -13.11 0.999996 -13.11 0.002357 76.886
2.20000000 0.002410 76.582 0.999996 -13.42 0.999996 -13.42 0.002410 76.582
2.25000000 0.002464 76.279 0.999996 -13.72 0.999996 -13.72 0.002464 76.279
2.30000000 0.002518 75.975 0.999996 -14.03 0.999996 -14.03 0.002518 75.975
2.35000000 0.002571 75.671 0.999996 -14.33 0.999996 -14.33 0.002571 75.671
2.40000000 0.002625 75.368 0.999996 -14.64 0.999996 -14.64 0.002625 75.368
2.45000000 0.002678 75.064 0.999996 -14.94 0.999996 -14.94 0.002678 75.064
2.50000000 0.002732 74.760 0.999996 -15.25 0.999996 -15.25 0.002732 74.760
2.55000000 0.002785 74.456 0.999995 -15.55 0.999995 -15.55 0.002785 74.456
2.60000000 0.002838 74.152 0.999995 -15.86 0.999995 -15.86 0.002838 74.152
2.65000000 0.002891 73.848 0.999995 -16.16 0.999995 -16.16 0.002891 73.848
!< P1 F=2.65 Eeff=(6.44996352 -2.975e-5) Z0=(50.5221843 1.16515e-4) R=0.0 C=0.0 
!< P2 F=2.65 Eeff=(6.44996352 -2.975e-5) Z0=(50.5221843 1.16515e-4) R=0.0 C=0.0 
2.70000000 0.002944 73.544 0.999995 -16.47 0.999995 -16.47 0.002944 73.544
2.75000000 0.002997 73.240 0.999995 -16.77 0.999995 -16.77 0.002997 73.240
2.80000000 0.003050 72.936 0.999995 -17.08 0.999995 -17.08 0.003050 72.936
2.85000000 0.003103 72.631 0.999995 -17.38 0.999995 -17.38 0.003103 72.631
2.90000000 0.003156 72.327 0.999995 -17.69 0.999995 -17.69 0.003156 72.327
2.95000000 0.003208 72.023 0.999994 -17.99 0.999994 -17.99 0.003208 72.023
3.00000000 0.003261 71.718 0.999994 -18.30 0.999994 -18.30 0.003261 71.718
3.05000000 0.003313 71.413 0.999994 -18.60 0.999994 -18.60 0.003313 71.413
3.10000000 0.003366 71.109 0.999994 -18.91 0.999994 -18.91 0.003366 71.109
3.15000000 0.003418 70.804 0.999994 -19.21 0.999994 -19.21 0.003418 70.804
3.20000000 0.003470 70.499 0.999994 -19.52 0.999994 -19.52 0.003470 70.499
3.25000000 0.003522 70.194 0.999993 -19.82 0.999993 -19.82 0.003522 70.194
3.30000000 0.003574 69.889 0.999993 -20.13 0.999993 -20.13 0.003574 69.889
3.35000000 0.003626 69.584 0.999993 -20.43 0.999993 -20.43 0.003626 69.584
3.40000000 0.003678 69.279 0.999993 -20.74 0.999993 -20.74 0.003678 69.279
3.45000000 0.003729 68.974 0.999993 -21.04 0.999993 -21.04 0.003729 68.974
3.50000000 0.003781 68.669 0.999992 -21.35 0.999992 -21.35 0.003781 68.669
3.55000000 0.003832 68.363 0.999992 -21.65 0.999992 -21.65 0.003832 68.363
3.60000000 0.003884 68.058 0.999992 -21.96 0.999992 -21.96 0.003884 68.058
3.65000000 0.003935 67.753 0.999992 -22.26 0.999992 -22.26 0.003935 67.753
3.70000000 0.003986 67.448 0.999991 -22.57 0.999991 -22.57 0.003986 67.448
3.75000000 0.004037 67.142 0.999991 -22.87 0.999991 -22.87 0.004037 67.142
3.80000000 0.004088 66.837 0.999991 -23.18 0.999991 -23.18 0.004088 66.837
3.85000000 0.004139 66.532 0.999991 -23.48 0.999991 -23.48 0.004139 66.532
3.90000000 0.004189 66.226 0.999990 -23.79 0.999990 -23.79 0.004189 66.226
3.95000000 0.004240 65.921 0.999990 -24.09 0.999990 -24.09 0.004240 65.921
4.00000000 0.004290 65.616 0.999990 -24.40 0.999990 -24.40 0.004290 65.616
4.05000000 0.004341 65.310 0.999990 -24.70 0.999990 -24.70 0.004341 65.310
4.10000000 0.004391 65.005 0.999989 -25.01 0.999989 -25.01 0.004391 65.005
4.15000000 0.004441 64.700 0.999989 -25.31 0.999989 -25.31 0.004441 64.700
4.20000000 0.004491 64.394 0.999989 -25.62 0.999989 -25.62 0.004491 64.394
4.25000000 0.004540 64.089 0.999989 -25.92 0.999989 -25.92 0.004540 64.089
4.30000000 0.004590 63.784 0.999988 -26.23 0.999988 -26.23 0.004590 63.784
!< P1 F=4.3 Eeff=(6.4499591 -2.975e-5) Z0=(50.5220752 1.16513e-4) R=0.0 C=0.0 
!< P2 F=4.3 Eeff=(6.4499591 -2.975e-5) Z0=(50.5220752 1.16513e-4) R=0.0 C=0.0 
4.35000000 0.004639 63.479 0.999988 -26.53 0.999988 -26.53 0.004639 63.479
4.40000000 0.004689 63.173 0.999988 -26.84 0.999988 -26.84 0.004689 63.173
4.45000000 0.004738 62.868 0.999988 -27.14 0.999988 -27.14 0.004738 62.868
4.50000000 0.004787 62.563 0.999987 -27.45 0.999987 -27.45 0.004787 62.563
4.55000000 0.004836 62.257 0.999987 -27.75 0.999987 -27.75 0.004836 62.258
4.60000000 0.004885 61.952 0.999987 -28.06 0.999987 -28.06 0.004885 61.952
4.65000000 0.004934 61.647 0.999987 -28.36 0.999987 -28.36 0.004934 61.647
4.70000000 0.004982 61.342 0.999986 -28.67 0.999986 -28.67 0.004982 61.342
4.75000000 0.005030 61.037 0.999986 -28.97 0.999986 -28.97 0.005030 61.037
4.80000000 0.005079 60.732 0.999986 -29.28 0.999986 -29.28 0.005079 60.732
4.85000000 0.005127 60.427 0.999985 -29.58 0.999985 -29.58 0.005127 60.427
4.90000000 0.005175 60.121 0.999985 -29.89 0.999985 -29.89 0.005175 60.121
4.95000000 0.005223 59.816 0.999985 -30.19 0.999985 -30.19 0.005223 59.816
5.00000000 0.005270 59.511 0.999985 -30.50 0.999985 -30.50 0.005270 59.511
5.05000000 0.005318 59.206 0.999984 -30.80 0.999984 -30.80 0.005318 59.206
5.10000000 0.005365 58.901 0.999984 -31.11 0.999984 -31.11 0.005365 58.901
5.15000000 0.005412 58.596 0.999984 -31.41 0.999984 -31.41 0.005412 58.596
5.20000000 0.005459 58.291 0.999984 -31.72 0.999984 -31.72 0.005459 58.291
5.25000000 0.005506 57.986 0.999983 -32.02 0.999983 -32.02 0.005506 57.986
5.30000000 0.005553 57.681 0.999983 -32.33 0.999983 -32.33 0.005553 57.681
5.35000000 0.005599 57.376 0.999983 -32.63 0.999983 -32.63 0.005599 57.376
5.40000000 0.005646 57.072 0.999982 -32.94 0.999982 -32.94 0.005646 57.072
5.45000000 0.005692 56.767 0.999982 -33.24 0.999982 -33.24 0.005692 56.767
5.50000000 0.005738 56.462 0.999982 -33.55 0.999982 -33.55 0.005738 56.462
5.55000000 0.005784 56.157 0.999982 -33.85 0.999982 -33.85 0.005784 56.157
5.60000000 0.005830 55.852 0.999981 -34.16 0.999981 -34.16 0.005830 55.852
5.65000000 0.005875 55.547 0.999981 -34.46 0.999981 -34.46 0.005875 55.547
5.70000000 0.005921 55.242 0.999981 -34.77 0.999981 -34.77 0.005921 55.242
5.75000000 0.005966 54.937 0.999981 -35.07 0.999981 -35.07 0.005966 54.937
5.80000000 0.006011 54.633 0.999980 -35.38 0.999980 -35.38 0.006011 54.633
5.85000000 0.006056 54.328 0.999980 -35.68 0.999980 -35.68 0.006056 54.328
5.90000000 0.006101 54.023 0.999980 -35.99 0.999980 -35.99 0.006101 54.023
5.95000000 0.006145 53.718 0.999980 -36.29 0.999980 -36.29 0.006145 53.718
6.00000000 0.006190 53.413 0.999979 -36.60 0.999979 -36.60 0.006190 53.413
6.05000000 0.006234 53.109 0.999979 -36.90 0.999979 -36.90 0.006234 53.109
6.10000000 0.006278 52.804 0.999979 -37.21 0.999979 -37.21 0.006278 52.804
6.15000000 0.006322 52.499 0.999978 -37.51 0.999978 -37.51 0.006322 52.499
6.20000000 0.006365 52.194 0.999978 -37.82 0.999978 -37.82 0.006365 52.194
6.25000000 0.006409 51.889 0.999978 -38.12 0.999978 -38.12 0.006409 51.890
6.30000000 0.006452 51.585 0.999978 -38.43 0.999978 -38.43 0.006452 51.585
!< P1 F=6.3 Eeff=(6.44993891 -2.9749e-5) Z0=(50.5218287 1.16515e-4) R=0.0 C=0.0 
!< P2 F=6.3 Eeff=(6.44993891 -2.9749e-5) Z0=(50.5218287 1.16515e-4) R=0.0 C=0.0 
6.35000000 0.006495 51.280 0.999977 -38.73 0.999977 -38.73 0.006495 51.280
6.40000000 0.006538 50.975 0.999977 -39.04 0.999977 -39.04 0.006538 50.975
6.45000000 0.006581 50.670 0.999977 -39.34 0.999977 -39.34 0.006581 50.670
6.50000000 0.006624 50.366 0.999977 -39.65 0.999977 -39.65 0.006624 50.366
6.55000000 0.006666 50.061 0.999976 -39.95 0.999976 -39.95 0.006666 50.061
6.60000000 0.006708 49.756 0.999976 -40.26 0.999976 -40.26 0.006708 49.756
6.65000000 0.006750 49.451 0.999976 -40.56 0.999976 -40.56 0.006750 49.451
6.70000000 0.006792 49.146 0.999975 -40.87 0.999975 -40.87 0.006792 49.146
6.75000000 0.006833 48.842 0.999975 -41.17 0.999975 -41.17 0.006833 48.842
6.80000000 0.006875 48.537 0.999975 -41.48 0.999975 -41.48 0.006875 48.537
6.85000000 0.006916 48.232 0.999975 -41.78 0.999975 -41.78 0.006916 48.232
6.90000000 0.006957 47.927 0.999974 -42.09 0.999974 -42.09 0.006957 47.927
6.95000000 0.006998 47.622 0.999974 -42.39 0.999974 -42.39 0.006998 47.622
7.00000000 0.007038 47.318 0.999974 -42.70 0.999974 -42.70 0.007038 47.318
7.05000000 0.007079 47.013 0.999974 -43.00 0.999974 -43.00 0.007079 47.013
7.10000000 0.007119 46.708 0.999973 -43.31 0.999973 -43.31 0.007119 46.708
7.15000000 0.007159 46.403 0.999973 -43.61 0.999973 -43.61 0.007159 46.403
7.20000000 0.007199 46.098 0.999973 -43.92 0.999973 -43.92 0.007199 46.098
7.25000000 0.007238 45.793 0.999972 -44.22 0.999972 -44.22 0.007238 45.793
7.30000000 0.007278 45.489 0.999972 -44.53 0.999972 -44.53 0.007278 45.489
7.35000000 0.007317 45.184 0.999972 -44.83 0.999972 -44.83 0.007317 45.184
7.40000000 0.007356 44.879 0.999972 -45.14 0.999972 -45.14 0.007356 44.879
7.45000000 0.007394 44.574 0.999971 -45.44 0.999971 -45.44 0.007394 44.574
7.50000000 0.007433 44.269 0.999971 -45.75 0.999971 -45.75 0.007433 44.269
7.55000000 0.007471 43.964 0.999971 -46.05 0.999971 -46.05 0.007471 43.964
7.60000000 0.007509 43.659 0.999970 -46.36 0.999970 -46.36 0.007509 43.659
7.65000000 0.007547 43.354 0.999970 -46.66 0.999970 -46.66 0.007547 43.354
7.70000000 0.007585 43.049 0.999970 -46.97 0.999970 -46.97 0.007585 43.049
7.75000000 0.007622 42.744 0.999970 -47.27 0.999970 -47.27 0.007622 42.745
7.80000000 0.007660 42.440 0.999969 -47.58 0.999969 -47.58 0.007660 42.440
7.85000000 0.007697 42.135 0.999969 -47.88 0.999969 -47.88 0.007697 42.135
7.90000000 0.007733 41.830 0.999969 -48.19 0.999969 -48.19 0.007733 41.830
7.95000000 0.007770 41.525 0.999968 -48.49 0.999968 -48.49 0.007770 41.525
8.00000000 0.007806 41.220 0.999968 -48.80 0.999968 -48.80 0.007806 41.220
8.05000000 0.007842 40.915 0.999968 -49.10 0.999968 -49.10 0.007842 40.915
8.10000000 0.007878 40.610 0.999968 -49.41 0.999968 -49.41 0.007878 40.610
8.15000000 0.007914 40.305 0.999967 -49.71 0.999967 -49.71 0.007914 40.305
8.20000000 0.007949 40.000 0.999967 -50.02 0.999967 -50.02 0.007949 40.000
8.25000000 0.007985 39.695 0.999967 -50.32 0.999967 -50.32 0.007985 39.695
8.30000000 0.008020 39.390 0.999966 -50.63 0.999966 -50.63 0.008020 39.390
8.35000000 0.008054 39.085 0.999966 -50.93 0.999966 -50.93 0.008054 39.085
8.40000000 0.008089 38.780 0.999966 -51.24 0.999966 -51.24 0.008089 38.780
8.45000000 0.008123 38.475 0.999965 -51.54 0.999965 -51.54 0.008123 38.475
8.50000000 0.008157 38.170 0.999965 -51.85 0.999965 -51.85 0.008157 38.170
8.55000000 0.008191 37.865 0.999965 -52.15 0.999965 -52.15 0.008191 37.865
8.60000000 0.008225 37.560 0.999965 -52.46 0.999965 -52.46 0.008225 37.560
8.65000000 0.008258 37.255 0.999964 -52.76 0.999964 -52.76 0.008258 37.255
8.70000000 0.008291 36.949 0.999964 -53.07 0.999964 -53.07 0.008291 36.950
8.75000000 0.008324 36.644 0.999964 -53.37 0.999964 -53.37 0.008324 36.645
8.80000000 0.008357 36.339 0.999963 -53.68 0.999963 -53.68 0.008357 36.339
8.85000000 0.008389 36.034 0.999963 -53.98 0.999963 -53.98 0.008389 36.034
8.90000000 0.008421 35.729 0.999963 -54.29 0.999963 -54.29 0.008421 35.729
8.95000000 0.008453 35.424 0.999962 -54.59 0.999962 -54.59 0.008453 35.424
9.00000000 0.008485 35.119 0.999962 -54.90 0.999962 -54.90 0.008485 35.119
9.05000000 0.008516 34.814 0.999962 -55.20 0.999962 -55.20 0.008516 34.814
9.10000000 0.008548 34.509 0.999962 -55.51 0.999962 -55.51 0.008548 34.509
9.15000000 0.008579 34.204 0.999961 -55.81 0.999961 -55.81 0.008579 34.204
9.20000000 0.008609 33.899 0.999961 -56.12 0.999961 -56.12 0.008609 33.899
9.25000000 0.008640 33.594 0.999961 -56.42 0.999961 -56.42 0.008640 33.594
9.30000000 0.008670 33.289 0.999960 -56.73 0.999960 -56.73 0.008670 33.289
9.35000000 0.008700 32.983 0.999960 -57.03 0.999960 -57.03 0.008700 32.984
9.40000000 0.008730 32.678 0.999960 -57.34 0.999960 -57.34 0.008730 32.678
9.45000000 0.008759 32.373 0.999960 -57.64 0.999960 -57.64 0.008759 32.373
9.50000000 0.008788 32.068 0.999959 -57.95 0.999959 -57.95 0.008788 32.068
9.55000000 0.008817 31.763 0.999959 -58.25 0.999959 -58.25 0.008817 31.763
9.60000000 0.008846 31.458 0.999959 -58.56 0.999959 -58.56 0.008846 31.458
9.65000000 0.008874 31.153 0.999958 -58.86 0.999958 -58.86 0.008874 31.153
9.70000000 0.008903 30.848 0.999958 -59.17 0.999958 -59.17 0.008903 30.848
9.75000000 0.008931 30.543 0.999958 -59.47 0.999958 -59.47 0.008931 30.543
9.80000000 0.008958 30.238 0.999958 -59.78 0.999958 -59.78 0.008958 30.238
9.85000000 0.008986 29.933 0.999957 -60.08 0.999957 -60.08 0.008986 29.933
9.90000000 0.009013 29.627 0.999957 -60.39 0.999957 -60.39 0.009013 29.628
9.95000000 0.009040 29.322 0.999957 -60.69 0.999957 -60.69 0.009040 29.323
10.0000000 0.009067 29.017 0.999956 -61.00 0.999956 -61.00 0.009067 29.017
!< P1 F=10.0 Eeff=(6.44988321 -2.9748e-5) Z0=(50.5211391 1.16517e-4) R=0.0 C=0.0 
!< P2 F=10.0 Eeff=(6.44988321 -2.9748e-5) Z0=(50.5211391 1.16517e-4) R=0.0 C=0.0 
10.0500000 0.009093 28.712 0.999956 -61.30 0.999956 -61.30 0.009093 28.712
10.1000000 0.009119 28.407 0.999956 -61.61 0.999956 -61.61 0.009119 28.407
10.1500000 0.009145 28.102 0.999956 -61.91 0.999956 -61.91 0.009145 28.102
10.2000000 0.009171 27.797 0.999955 -62.22 0.999955 -62.22 0.009171 27.797
10.2500000 0.009196 27.492 0.999955 -62.52 0.999955 -62.52 0.009196 27.492
10.3000000 0.009221 27.187 0.999955 -62.83 0.999955 -62.83 0.009221 27.187
10.3500000 0.009246 26.882 0.999955 -63.13 0.999955 -63.13 0.009246 26.882
10.4000000 0.009271 26.577 0.999954 -63.43 0.999954 -63.43 0.009271 26.577
10.4500000 0.009295 26.272 0.999954 -63.74 0.999954 -63.74 0.009295 26.272
10.5000000 0.009319 25.967 0.999954 -64.04 0.999954 -64.04 0.009319 25.967
10.5500000 0.009343 25.662 0.999954 -64.35 0.999954 -64.35 0.009343 25.662
10.6000000 0.009366 25.357 0.999953 -64.65 0.999953 -64.65 0.009366 25.357
10.6500000 0.009389 25.052 0.999953 -64.96 0.999953 -64.96 0.009389 25.052
10.7000000 0.009412 24.747 0.999953 -65.26 0.999953 -65.26 0.009412 24.747
10.7500000 0.009435 24.442 0.999953 -65.57 0.999953 -65.57 0.009435 24.442
10.8000000 0.009457 24.137 0.999952 -65.87 0.999952 -65.87 0.009457 24.137
10.8500000 0.009480 23.832 0.999952 -66.18 0.999952 -66.18 0.009480 23.832
10.9000000 0.009502 23.527 0.999952 -66.48 0.999952 -66.48 0.009502 23.527
10.9500000 0.009523 23.222 0.999952 -66.79 0.999952 -66.79 0.009523 23.222
11.0000000 0.009544 22.917 0.999952 -67.09 0.999952 -67.09 0.009544 22.917
11.0500000 0.009566 22.612 0.999951 -67.40 0.999951 -67.40 0.009566 22.612
11.1000000 0.009586 22.307 0.999951 -67.70 0.999951 -67.70 0.009586 22.307
11.1500000 0.009607 22.002 0.999951 -68.01 0.999951 -68.01 0.009607 22.002
11.2000000 0.009627 21.697 0.999951 -68.31 0.999951 -68.31 0.009627 21.697
11.2500000 0.009647 21.392 0.999951 -68.62 0.999951 -68.62 0.009647 21.393
11.3000000 0.009667 21.087 0.999950 -68.92 0.999950 -68.92 0.009667 21.088
11.3500000 0.009686 20.783 0.999950 -69.23 0.999950 -69.23 0.009686 20.783
11.4000000 0.009705 20.478 0.999950 -69.53 0.999950 -69.53 0.009705 20.478
11.4500000 0.009724 20.173 0.999950 -69.84 0.999950 -69.84 0.009724 20.173
11.5000000 0.009743 19.868 0.999950 -70.14 0.999950 -70.14 0.009743 19.868
11.5500000 0.009761 19.563 0.999949 -70.45 0.999949 -70.45 0.009761 19.564
11.6000000 0.009779 19.258 0.999949 -70.75 0.999949 -70.75 0.009779 19.259
11.6500000 0.009797 18.954 0.999949 -71.06 0.999949 -71.06 0.009797 18.954
11.7000000 0.009814 18.649 0.999949 -71.36 0.999949 -71.36 0.009814 18.649
!< P1 F=11.7 Eeff=(6.44984477 -2.9747e-5) Z0=(50.5207122 1.16517e-4) R=0.0 C=0.0 
!< P2 F=11.7 Eeff=(6.44984477 -2.9747e-5) Z0=(50.5207122 1.16517e-4) R=0.0 C=0.0 
11.7500000 0.009832 18.344 0.999949 -71.67 0.999949 -71.67 0.009832 18.344
11.8000000 0.009849 18.039 0.999949 -71.97 0.999949 -71.97 0.009849 18.040
11.8500000 0.009865 17.735 0.999949 -72.28 0.999949 -72.28 0.009865 17.735
11.9000000 0.009882 17.430 0.999948 -72.58 0.999948 -72.58 0.009882 17.430
11.9500000 0.009898 17.125 0.999948 -72.89 0.999948 -72.89 0.009898 17.125
12.0000000 0.009914 16.820 0.999948 -73.19 0.999948 -73.19 0.009914 16.820
12.0500000 0.009929 16.515 0.999948 -73.50 0.999948 -73.50 0.009929 16.515
12.1000000 0.009944 16.210 0.999948 -73.80 0.999948 -73.80 0.009944 16.211
12.1500000 0.009959 15.905 0.999948 -74.11 0.999948 -74.11 0.009959 15.906
12.2000000 0.009974 15.601 0.999947 -74.41 0.999947 -74.41 0.009974 15.601
12.2500000 0.009988 15.296 0.999947 -74.72 0.999947 -74.72 0.009988 15.296
12.3000000 0.010002 14.991 0.999947 -75.02 0.999947 -75.02 0.010002 14.991
12.3500000 0.010016 14.686 0.999947 -75.33 0.999947 -75.33 0.010016 14.686
