! Sonnet Data File
! From: emgraph Version : 16.52
! From Emgraph Data: Waveguide
! Data File Written: 09/22/2017 15:03:04
!< HDATE 09/22/2017 14:36:31
!< MDATE 09/22/2017 14:36:31
# GHZ S MA R 50.00000
4.00000000 0.188194 -106.7 0.982131 -16.67 0.982131 -16.67 0.188194 -106.7
!< P1 F=4.0 Eeff=(7.03022575 -3.2119e-5) Z0=(22.7879598 5.19441e-5) R=4.98395e-4 C=0.36917133 
!< P2 F=4.0 Eeff=(7.03022575 -3.2119e-5) Z0=(22.7879598 5.19441e-5) R=4.98395e-4 C=0.36917133 
4.02000000 0.189085 -106.8 0.981961 -16.75 0.981961 -16.75 0.189085 -106.8
4.04000000 0.189976 -106.8 0.981790 -16.83 0.981790 -16.83 0.189976 -106.8
4.06000000 0.190866 -106.9 0.981618 -16.91 0.981618 -16.91 0.190866 -106.9
4.08000000 0.191755 -107.0 0.981446 -17.00 0.981446 -17.00 0.191755 -107.0
4.10000000 0.192644 -107.1 0.981273 -17.08 0.981273 -17.08 0.192644 -107.1
4.12000000 0.193531 -107.2 0.981099 -17.16 0.981099 -17.16 0.193532 -107.2
4.14000000 0.194418 -107.2 0.980924 -17.24 0.980924 -17.24 0.194419 -107.2
4.16000000 0.195305 -107.3 0.980748 -17.32 0.980748 -17.32 0.195305 -107.3
4.18000000 0.196190 -107.4 0.980572 -17.40 0.980572 -17.40 0.196190 -107.4
4.20000000 0.197075 -107.5 0.980395 -17.48 0.980395 -17.48 0.197075 -107.5
4.22000000 0.197959 -107.6 0.980217 -17.56 0.980217 -17.56 0.197959 -107.6
4.24000000 0.198842 -107.6 0.980039 -17.65 0.980039 -17.65 0.198842 -107.6
4.26000000 0.199724 -107.7 0.979860 -17.73 0.979860 -17.73 0.199724 -107.7
4.28000000 0.200605 -107.8 0.979680 -17.81 0.979680 -17.81 0.200606 -107.8
4.30000000 0.201486 -107.9 0.979499 -17.89 0.979499 -17.89 0.201486 -107.9
4.32000000 0.202366 -108.0 0.979318 -17.97 0.979318 -17.97 0.202366 -108.0
4.34000000 0.203245 -108.1 0.979135 -18.05 0.979135 -18.05 0.203246 -108.1
4.36000000 0.204124 -108.1 0.978953 -18.13 0.978953 -18.13 0.204124 -108.1
4.38000000 0.205002 -108.2 0.978769 -18.21 0.978769 -18.21 0.205002 -108.2
4.40000000 0.205879 -108.3 0.978585 -18.29 0.978585 -18.29 0.205879 -108.3
4.42000000 0.206755 -108.4 0.978400 -18.37 0.978400 -18.37 0.206755 -108.4
4.44000000 0.207630 -108.5 0.978214 -18.45 0.978214 -18.45 0.207630 -108.5
4.46000000 0.208505 -108.5 0.978028 -18.53 0.978028 -18.53 0.208505 -108.5
4.48000000 0.209378 -108.6 0.977841 -18.62 0.977841 -18.62 0.209378 -108.6
4.50000000 0.210251 -108.7 0.977653 -18.70 0.977653 -18.70 0.210251 -108.7
4.52000000 0.211124 -108.8 0.977465 -18.78 0.977465 -18.78 0.211124 -108.8
4.54000000 0.211995 -108.9 0.977276 -18.86 0.977276 -18.86 0.211995 -108.9
4.56000000 0.212866 -108.9 0.977086 -18.94 0.977086 -18.94 0.212866 -108.9
4.58000000 0.213736 -109.0 0.976896 -19.02 0.976896 -19.02 0.213736 -109.0
4.60000000 0.214605 -109.1 0.976705 -19.10 0.976705 -19.10 0.214605 -109.1
4.62000000 0.215473 -109.2 0.976513 -19.18 0.976513 -19.18 0.215473 -109.2
4.64000000 0.216341 -109.3 0.976321 -19.26 0.976321 -19.26 0.216341 -109.3
4.66000000 0.217207 -109.3 0.976128 -19.34 0.976128 -19.34 0.217207 -109.3
4.68000000 0.218073 -109.4 0.975934 -19.42 0.975934 -19.42 0.218073 -109.4
4.70000000 0.218938 -109.5 0.975740 -19.50 0.975740 -19.50 0.218938 -109.5
4.72000000 0.219803 -109.6 0.975545 -19.58 0.975545 -19.58 0.219803 -109.6
4.74000000 0.220666 -109.7 0.975349 -19.66 0.975349 -19.66 0.220666 -109.7
4.76000000 0.221529 -109.7 0.975153 -19.74 0.975153 -19.74 0.221529 -109.7
4.78000000 0.222391 -109.8 0.974956 -19.82 0.974956 -19.82 0.222391 -109.8
!< P1 F=4.78 Eeff=(7.03257341 -3.211e-5) Z0=(22.7950216 5.18849e-5) R=4.17302e-4 C=0.36920858 
!< P2 F=4.78 Eeff=(7.03257341 -3.211e-5) Z0=(22.7950216 5.18849e-5) R=4.17302e-4 C=0.36920858 
4.80000000 0.223252 -109.9 0.974759 -19.90 0.974759 -19.90 0.223252 -109.9
4.82000000 0.224112 -110.0 0.974561 -19.98 0.974561 -19.98 0.224112 -110.0
4.84000000 0.224972 -110.1 0.974362 -20.06 0.974362 -20.06 0.224972 -110.1
4.86000000 0.225831 -110.1 0.974163 -20.14 0.974163 -20.14 0.225831 -110.1
4.88000000 0.226689 -110.2 0.973963 -20.22 0.973963 -20.22 0.226689 -110.2
4.90000000 0.227546 -110.3 0.973763 -20.30 0.973763 -20.30 0.227546 -110.3
4.92000000 0.228402 -110.4 0.973562 -20.38 0.973562 -20.38 0.228402 -110.4
4.94000000 0.229258 -110.5 0.973360 -20.46 0.973360 -20.46 0.229258 -110.5
4.96000000 0.230112 -110.5 0.973158 -20.54 0.973158 -20.54 0.230112 -110.5
4.98000000 0.230966 -110.6 0.972955 -20.62 0.972955 -20.62 0.230966 -110.6
5.00000000 0.231819 -110.7 0.972752 -20.70 0.972752 -20.70 0.231819 -110.7
5.02000000 0.232671 -110.8 0.972548 -20.78 0.972548 -20.78 0.232671 -110.8
5.04000000 0.233523 -110.9 0.972343 -20.86 0.972343 -20.86 0.233523 -110.9
5.06000000 0.234373 -110.9 0.972138 -20.94 0.972138 -20.94 0.234373 -110.9
5.08000000 0.235223 -111.0 0.971932 -21.02 0.971932 -21.02 0.235223 -111.0
5.10000000 0.236072 -111.1 0.971726 -21.10 0.971726 -21.10 0.236072 -111.1
5.12000000 0.236920 -111.2 0.971519 -21.18 0.971519 -21.18 0.236920 -111.2
5.14000000 0.237767 -111.3 0.971312 -21.26 0.971312 -21.26 0.237767 -111.3
5.16000000 0.238614 -111.3 0.971104 -21.34 0.971104 -21.34 0.238614 -111.3
5.18000000 0.239459 -111.4 0.970896 -21.42 0.970896 -21.42 0.239459 -111.4
5.20000000 0.240304 -111.5 0.970687 -21.50 0.970687 -21.50 0.240304 -111.5
5.22000000 0.241148 -111.6 0.970477 -21.58 0.970477 -21.58 0.241148 -111.6
5.24000000 0.241991 -111.7 0.970267 -21.66 0.970267 -21.66 0.241991 -111.7
5.26000000 0.242833 -111.7 0.970056 -21.74 0.970056 -21.74 0.242833 -111.7
5.28000000 0.243675 -111.8 0.969845 -21.82 0.969845 -21.82 0.243674 -111.8
5.30000000 0.244515 -111.9 0.969633 -21.90 0.969633 -21.90 0.244515 -111.9
5.32000000 0.245355 -112.0 0.969421 -21.97 0.969421 -21.97 0.245355 -112.0
5.34000000 0.246194 -112.0 0.969208 -22.05 0.969208 -22.05 0.246193 -112.0
5.36000000 0.247031 -112.1 0.968995 -22.13 0.968995 -22.13 0.247031 -112.1
5.38000000 0.247868 -112.2 0.968781 -22.21 0.968781 -22.21 0.247868 -112.2
5.40000000 0.248705 -112.3 0.968567 -22.29 0.968567 -22.29 0.248705 -112.3
5.42000000 0.249540 -112.4 0.968352 -22.37 0.968352 -22.37 0.249540 -112.4
5.44000000 0.250375 -112.4 0.968136 -22.45 0.968136 -22.45 0.250374 -112.4
5.46000000 0.251208 -112.5 0.967921 -22.53 0.967921 -22.53 0.251208 -112.5
5.48000000 0.252041 -112.6 0.967704 -22.61 0.967704 -22.61 0.252041 -112.6
5.50000000 0.252873 -112.7 0.967487 -22.69 0.967487 -22.69 0.252873 -112.7
5.52000000 0.253704 -112.8 0.967270 -22.77 0.967270 -22.77 0.253704 -112.8
5.54000000 0.254534 -112.8 0.967052 -22.84 0.967052 -22.84 0.254534 -112.8
5.56000000 0.255363 -112.9 0.966833 -22.92 0.966833 -22.92 0.255363 -112.9
5.58000000 0.256191 -113.0 0.966615 -23.00 0.966615 -23.00 0.256191 -113.0
5.60000000 0.257019 -113.1 0.966395 -23.08 0.966395 -23.08 0.257019 -113.1
5.62000000 0.257845 -113.2 0.966175 -23.16 0.966175 -23.16 0.257845 -113.2
5.64000000 0.258671 -113.2 0.965955 -23.24 0.965955 -23.24 0.258671 -113.2
5.66000000 0.259496 -113.3 0.965734 -23.32 0.965734 -23.32 0.259496 -113.3
5.68000000 0.260320 -113.4 0.965513 -23.40 0.965513 -23.40 0.260320 -113.4
5.70000000 0.261143 -113.5 0.965291 -23.47 0.965291 -23.47 0.261143 -113.5
5.72000000 0.261965 -113.6 0.965068 -23.55 0.965068 -23.55 0.261965 -113.6
5.74000000 0.262786 -113.6 0.964846 -23.63 0.964846 -23.63 0.262786 -113.6
5.76000000 0.263606 -113.7 0.964622 -23.71 0.964622 -23.71 0.263606 -113.7
5.78000000 0.264426 -113.8 0.964399 -23.79 0.964399 -23.79 0.264426 -113.8
5.80000000 0.265244 -113.9 0.964174 -23.87 0.964174 -23.87 0.265244 -113.9
5.82000000 0.266062 -113.9 0.963950 -23.94 0.963950 -23.94 0.266062 -113.9
5.84000000 0.266878 -114.0 0.963724 -24.02 0.963724 -24.02 0.266878 -114.0
5.86000000 0.267694 -114.1 0.963499 -24.10 0.963499 -24.10 0.267694 -114.1
5.88000000 0.268509 -114.2 0.963273 -24.18 0.963273 -24.18 0.268509 -114.2
5.90000000 0.269323 -114.3 0.963046 -24.26 0.963046 -24.26 0.269323 -114.3
5.92000000 0.270136 -114.3 0.962819 -24.34 0.962819 -24.34 0.270136 -114.3
5.94000000 0.270948 -114.4 0.962592 -24.41 0.962592 -24.41 0.270948 -114.4
5.96000000 0.271759 -114.5 0.962364 -24.49 0.962364 -24.49 0.271759 -114.5
!< P1 F=5.96 Eeff=(7.03692095 -3.2174e-5) Z0=(22.8082264 5.18981e-5) R=3.34552e-4 C=0.3692781 
!< P2 F=5.96 Eeff=(7.03692095 -3.2174e-5) Z0=(22.8082264 5.18981e-5) R=3.34552e-4 C=0.3692781 
5.98000000 0.272570 -114.6 0.962135 -24.57 0.962135 -24.57 0.272570 -114.6
6.00000000 0.273379 -114.6 0.961906 -24.65 0.961906 -24.65 0.273379 -114.6
6.02000000 0.274187 -114.7 0.961677 -24.73 0.961677 -24.73 0.274187 -114.7
6.04000000 0.274995 -114.8 0.961447 -24.80 0.961447 -24.80 0.274995 -114.8
6.06000000 0.275801 -114.9 0.961217 -24.88 0.961217 -24.88 0.275801 -114.9
6.08000000 0.276607 -115.0 0.960987 -24.96 0.960987 -24.96 0.276607 -115.0
6.10000000 0.277412 -115.0 0.960756 -25.04 0.960756 -25.04 0.277412 -115.0
6.12000000 0.278215 -115.1 0.960524 -25.12 0.960524 -25.12 0.278215 -115.1
6.14000000 0.279018 -115.2 0.960292 -25.19 0.960292 -25.19 0.279018 -115.2
6.16000000 0.279820 -115.3 0.960060 -25.27 0.960060 -25.27 0.279820 -115.3
6.18000000 0.280621 -115.4 0.959827 -25.35 0.959827 -25.35 0.280621 -115.4
6.20000000 0.281421 -115.4 0.959593 -25.43 0.959593 -25.43 0.281421 -115.4
6.22000000 0.282220 -115.5 0.959360 -25.50 0.959360 -25.50 0.282220 -115.5
6.24000000 0.283018 -115.6 0.959126 -25.58 0.959126 -25.58 0.283018 -115.6
6.26000000 0.283815 -115.7 0.958891 -25.66 0.958891 -25.66 0.283815 -115.7
6.28000000 0.284611 -115.7 0.958656 -25.74 0.958656 -25.74 0.284612 -115.7
6.30000000 0.285407 -115.8 0.958421 -25.82 0.958421 -25.82 0.285407 -115.8
6.32000000 0.286201 -115.9 0.958185 -25.89 0.958185 -25.89 0.286201 -115.9
6.34000000 0.286994 -116.0 0.957948 -25.97 0.957948 -25.97 0.286994 -116.0
6.36000000 0.287787 -116.1 0.957712 -26.05 0.957712 -26.05 0.287787 -116.1
6.38000000 0.288578 -116.1 0.957475 -26.12 0.957475 -26.12 0.288578 -116.1
6.40000000 0.289369 -116.2 0.957237 -26.20 0.957237 -26.20 0.289369 -116.2
6.42000000 0.290158 -116.3 0.956999 -26.28 0.956999 -26.28 0.290158 -116.3
6.44000000 0.290947 -116.4 0.956761 -26.36 0.956761 -26.36 0.290947 -116.4
6.46000000 0.291734 -116.4 0.956522 -26.43 0.956522 -26.43 0.291735 -116.4
6.48000000 0.292521 -116.5 0.956283 -26.51 0.956283 -26.51 0.292521 -116.5
6.50000000 0.293307 -116.6 0.956043 -26.59 0.956043 -26.59 0.293307 -116.6
6.52000000 0.294091 -116.7 0.955803 -26.66 0.955803 -26.66 0.294092 -116.7
6.54000000 0.294875 -116.8 0.955563 -26.74 0.955563 -26.74 0.294875 -116.8
6.56000000 0.295658 -116.8 0.955322 -26.82 0.955322 -26.82 0.295658 -116.8
6.58000000 0.296440 -116.9 0.955080 -26.90 0.955080 -26.90 0.296440 -116.9
6.60000000 0.297221 -117.0 0.954839 -26.97 0.954839 -26.97 0.297221 -117.0
6.62000000 0.298001 -117.1 0.954597 -27.05 0.954597 -27.05 0.298001 -117.1
6.64000000 0.298779 -117.1 0.954354 -27.13 0.954354 -27.13 0.298780 -117.1
6.66000000 0.299557 -117.2 0.954111 -27.20 0.954111 -27.20 0.299558 -117.2
6.68000000 0.300334 -117.3 0.953868 -27.28 0.953868 -27.28 0.300335 -117.3
6.70000000 0.301110 -117.4 0.953624 -27.36 0.953624 -27.36 0.301111 -117.4
6.72000000 0.301885 -117.4 0.953380 -27.43 0.953380 -27.43 0.301886 -117.4
6.74000000 0.302659 -117.5 0.953135 -27.51 0.953135 -27.51 0.302660 -117.5
6.76000000 0.303432 -117.6 0.952890 -27.59 0.952890 -27.59 0.303433 -117.6
6.78000000 0.304205 -117.7 0.952645 -27.66 0.952645 -27.66 0.304205 -117.7
6.80000000 0.304976 -117.8 0.952399 -27.74 0.952399 -27.74 0.304976 -117.8
6.82000000 0.305746 -117.8 0.952153 -27.82 0.952153 -27.82 0.305746 -117.8
6.84000000 0.306515 -117.9 0.951907 -27.89 0.951907 -27.89 0.306515 -117.9
6.86000000 0.307283 -118.0 0.951660 -27.97 0.951660 -27.97 0.307283 -118.0
6.88000000 0.308050 -118.1 0.951413 -28.05 0.951413 -28.05 0.308051 -118.1
6.90000000 0.308817 -118.1 0.951165 -28.12 0.951165 -28.12 0.308817 -118.1
6.92000000 0.309582 -118.2 0.950917 -28.20 0.950917 -28.20 0.309582 -118.2
6.94000000 0.310346 -118.3 0.950668 -28.27 0.950668 -28.27 0.310346 -118.3
6.96000000 0.311109 -118.4 0.950419 -28.35 0.950419 -28.35 0.311109 -118.4
6.98000000 0.311872 -118.4 0.950170 -28.43 0.950170 -28.43 0.311872 -118.4
7.00000000 0.312633 -118.5 0.949920 -28.50 0.949920 -28.50 0.312633 -118.5
7.02000000 0.313393 -118.6 0.949670 -28.58 0.949670 -28.58 0.313393 -118.6
7.04000000 0.314153 -118.7 0.949420 -28.65 0.949420 -28.65 0.314153 -118.7
7.06000000 0.314911 -118.7 0.949169 -28.73 0.949169 -28.73 0.314911 -118.7
7.08000000 0.315668 -118.8 0.948918 -28.81 0.948918 -28.81 0.315668 -118.8
7.10000000 0.316425 -118.9 0.948666 -28.88 0.948666 -28.88 0.316425 -118.9
7.12000000 0.317180 -119.0 0.948414 -28.96 0.948414 -28.96 0.317180 -119.0
7.14000000 0.317934 -119.1 0.948162 -29.03 0.948162 -29.03 0.317934 -119.1
7.16000000 0.318688 -119.1 0.947909 -29.11 0.947909 -29.11 0.318688 -119.1
7.18000000 0.319440 -119.2 0.947656 -29.19 0.947656 -29.19 0.319440 -119.2
7.20000000 0.320192 -119.3 0.947403 -29.26 0.947403 -29.26 0.320192 -119.3
7.22000000 0.320942 -119.4 0.947149 -29.34 0.947149 -29.34 0.320942 -119.4
7.24000000 0.321691 -119.4 0.946894 -29.41 0.946894 -29.41 0.321692 -119.4
7.26000000 0.322440 -119.5 0.946640 -29.49 0.946640 -29.49 0.322440 -119.5
7.28000000 0.323187 -119.6 0.946385 -29.56 0.946385 -29.56 0.323187 -119.6
7.30000000 0.323934 -119.7 0.946129 -29.64 0.946129 -29.64 0.323934 -119.7
7.32000000 0.324679 -119.7 0.945874 -29.72 0.945874 -29.72 0.324679 -119.7
7.34000000 0.325424 -119.8 0.945617 -29.79 0.945617 -29.79 0.325424 -119.8
7.36000000 0.326167 -119.9 0.945361 -29.87 0.945361 -29.87 0.326167 -119.9
7.38000000 0.326910 -120.0 0.945104 -29.94 0.945104 -29.94 0.326910 -120.0
7.40000000 0.327652 -120.0 0.944847 -30.02 0.944847 -30.02 0.327651 -120.0
7.42000000 0.328392 -120.1 0.944589 -30.09 0.944589 -30.09 0.328392 -120.1
7.44000000 0.329132 -120.2 0.944331 -30.17 0.944331 -30.17 0.329132 -120.2
7.46000000 0.329870 -120.3 0.944073 -30.24 0.944073 -30.24 0.329870 -120.3
7.48000000 0.330608 -120.3 0.943814 -30.32 0.943814 -30.32 0.330608 -120.3
7.50000000 0.331344 -120.4 0.943555 -30.39 0.943555 -30.39 0.331344 -120.4
7.52000000 0.332080 -120.5 0.943295 -30.47 0.943295 -30.47 0.332080 -120.5
7.54000000 0.332815 -120.6 0.943035 -30.54 0.943035 -30.54 0.332814 -120.6
7.56000000 0.333548 -120.6 0.942775 -30.62 0.942775 -30.62 0.333548 -120.6
7.58000000 0.334281 -120.7 0.942514 -30.69 0.942514 -30.69 0.334281 -120.7
7.60000000 0.335013 -120.8 0.942253 -30.77 0.942253 -30.77 0.335012 -120.8
7.62000000 0.335743 -120.9 0.941992 -30.84 0.941992 -30.84 0.335743 -120.9
7.64000000 0.336473 -120.9 0.941730 -30.92 0.941730 -30.92 0.336473 -120.9
7.66000000 0.337202 -121.0 0.941468 -30.99 0.941468 -30.99 0.337201 -121.0
7.68000000 0.337929 -121.1 0.941206 -31.07 0.941206 -31.07 0.337929 -121.1
7.70000000 0.338656 -121.2 0.940943 -31.14 0.940943 -31.14 0.338656 -121.2
7.72000000 0.339382 -121.2 0.940680 -31.22 0.940680 -31.22 0.339382 -121.2
7.74000000 0.340107 -121.3 0.940416 -31.29 0.940416 -31.29 0.340106 -121.3
7.76000000 0.340830 -121.4 0.940152 -31.36 0.940152 -31.36 0.340830 -121.4
7.78000000 0.341553 -121.4 0.939888 -31.44 0.939888 -31.44 0.341553 -121.4
7.80000000 0.342275 -121.5 0.939623 -31.51 0.939623 -31.51 0.342275 -121.5
7.82000000 0.342996 -121.6 0.939358 -31.59 0.939358 -31.59 0.342996 -121.6
7.84000000 0.343716 -121.7 0.939093 -31.66 0.939093 -31.66 0.343715 -121.7
7.86000000 0.344434 -121.7 0.938827 -31.74 0.938827 -31.74 0.344434 -121.7
7.88000000 0.345152 -121.8 0.938561 -31.81 0.938561 -31.81 0.345152 -121.8
7.90000000 0.345869 -121.9 0.938295 -31.89 0.938295 -31.89 0.345869 -121.9
7.92000000 0.346585 -122.0 0.938028 -31.96 0.938028 -31.96 0.346585 -122.0
7.94000000 0.347300 -122.0 0.937761 -32.03 0.937761 -32.03 0.347300 -122.0
7.96000000 0.348014 -122.1 0.937493 -32.11 0.937493 -32.11 0.348014 -122.1
7.98000000 0.348727 -122.2 0.937225 -32.18 0.937225 -32.18 0.348727 -122.2
8.00000000 0.349439 -122.3 0.936957 -32.26 0.936957 -32.26 0.349439 -122.3
!< P1 F=8.0 Eeff=(7.04670459 -3.2282e-5) Z0=(22.8385572 5.1863e-5) R=2.49226e-4 C=0.3694371 
!< P2 F=8.0 Eeff=(7.04670459 -3.2282e-5) Z0=(22.8385572 5.1863e-5) R=2.49226e-4 C=0.3694371 
