! Sonnet Data File
! From: emgraph Version : 16.52
! From Emgraph Data: Waveguide
! Data File Written: 09/24/2017 00:39:19
!< HDATE 09/24/2017 00:25:08
!< MDATE 09/24/2017 00:25:08
# GHZ S MA R 50.00000
0.00000000 1.0e-100 -90.00 0.999976 0.0000 0.999976 0.0000 1.0e-100 -90.00
0.05000000 0.003075 -90.35 0.999995 -0.345 0.999995 -0.345 0.003075 -90.35
!< P1 F=0.05 Eeff=(6.15975582 -3.1355e-5) Z0=(28.574879 6.48222e-5) R=0.07407996 C=0.19539898 
!< P2 F=0.05 Eeff=(6.15975582 -3.1355e-5) Z0=(28.574879 6.48222e-5) R=0.07407996 C=0.19539898 
0.10000000 0.006130 -90.63 0.999975 -0.692 0.999975 -0.692 0.006130 -90.63
0.15000000 0.009186 -90.96 0.999946 -1.038 0.999946 -1.038 0.009186 -90.96
0.20000000 0.012242 -91.31 0.999910 -1.384 0.999910 -1.384 0.012242 -91.31
0.25000000 0.015299 -91.66 0.999865 -1.730 0.999865 -1.730 0.015299 -91.66
0.30000000 0.018356 -92.01 0.999812 -2.077 0.999812 -2.077 0.018356 -92.01
0.35000000 0.021412 -92.36 0.999750 -2.423 0.999750 -2.423 0.021412 -92.36
0.40000000 0.024468 -92.72 0.999680 -2.769 0.999680 -2.769 0.024468 -92.72
0.45000000 0.027523 -93.07 0.999601 -3.114 0.999601 -3.114 0.027523 -93.07
0.50000000 0.030576 -93.42 0.999513 -3.460 0.999513 -3.460 0.030576 -93.42
0.55000000 0.033628 -93.78 0.999417 -3.806 0.999417 -3.806 0.033628 -93.78
0.60000000 0.036679 -94.13 0.999312 -4.152 0.999312 -4.152 0.036679 -94.13
0.65000000 0.039727 -94.48 0.999198 -4.497 0.999198 -4.497 0.039727 -94.48
0.70000000 0.042774 -94.83 0.999075 -4.843 0.999075 -4.843 0.042774 -94.83
0.75000000 0.045818 -95.18 0.998943 -5.188 0.998943 -5.188 0.045818 -95.18
0.80000000 0.048860 -95.53 0.998802 -5.534 0.998802 -5.534 0.048860 -95.53
0.85000000 0.051899 -95.88 0.998652 -5.879 0.998652 -5.879 0.051899 -95.88
!< P1 F=0.85 Eeff=(6.17534636 -2.8055e-5) Z0=(28.6102304 6.49781e-5) R=0.00445807 C=0.19540089 
!< P2 F=0.85 Eeff=(6.17534636 -2.8055e-5) Z0=(28.6102304 6.49781e-5) R=0.00445807 C=0.19540089 
0.90000000 0.054935 -96.23 0.998493 -6.224 0.998493 -6.224 0.054935 -96.23
0.95000000 0.057968 -96.58 0.998324 -6.569 0.998324 -6.569 0.057968 -96.58
1.00000000 0.060997 -96.92 0.998146 -6.914 0.998146 -6.914 0.060997 -96.92
1.05000000 0.064024 -97.27 0.997959 -7.259 0.997959 -7.259 0.064024 -97.27
1.10000000 0.067047 -97.62 0.997763 -7.603 0.997763 -7.603 0.067047 -97.62
1.15000000 0.070066 -97.96 0.997557 -7.948 0.997557 -7.948 0.070066 -97.96
1.20000000 0.073081 -98.31 0.997342 -8.292 0.997342 -8.292 0.073081 -98.31
1.25000000 0.076092 -98.65 0.997118 -8.637 0.997118 -8.637 0.076092 -98.65
1.30000000 0.079099 -99.00 0.996884 -8.981 0.996884 -8.981 0.079099 -99.00
1.35000000 0.082102 -99.34 0.996641 -9.325 0.996641 -9.325 0.082102 -99.34
1.40000000 0.085100 -99.68 0.996389 -9.668 0.996389 -9.668 0.085100 -99.68
1.45000000 0.088094 -100.0 0.996128 -10.01 0.996128 -10.01 0.088094 -100.0
1.50000000 0.091083 -100.4 0.995858 -10.36 0.995858 -10.36 0.091083 -100.4
1.55000000 0.094068 -100.7 0.995578 -10.70 0.995578 -10.70 0.094068 -100.7
1.60000000 0.097047 -101.0 0.995290 -11.04 0.995290 -11.04 0.097047 -101.0
1.65000000 0.100021 -101.4 0.994992 -11.38 0.994992 -11.38 0.100021 -101.4
1.70000000 0.102991 -101.7 0.994686 -11.73 0.994686 -11.73 0.102991 -101.7
1.75000000 0.105955 -102.1 0.994370 -12.07 0.994370 -12.07 0.105955 -102.1
!< P1 F=1.75 Eeff=(6.17592411 -2.8045e-5) Z0=(28.6090425 6.49611e-5) R=0.00216532 C=0.19540726 
!< P2 F=1.75 Eeff=(6.17592411 -2.8045e-5) Z0=(28.6090425 6.49611e-5) R=0.00216532 C=0.19540726 
1.80000000 0.108912 -102.4 0.994046 -12.41 0.994046 -12.41 0.108912 -102.4
1.85000000 0.111862 -102.7 0.993713 -12.75 0.993713 -12.75 0.111862 -102.7
1.90000000 0.114805 -103.1 0.993371 -13.10 0.993371 -13.10 0.114805 -103.1
1.95000000 0.117741 -103.4 0.993021 -13.44 0.993021 -13.44 0.117741 -103.4
2.00000000 0.120669 -103.8 0.992662 -13.78 0.992662 -13.78 0.120669 -103.8
2.05000000 0.123590 -104.1 0.992294 -14.12 0.992294 -14.12 0.123590 -104.1
2.10000000 0.126503 -104.4 0.991917 -14.46 0.991917 -14.46 0.126503 -104.4
2.15000000 0.129409 -104.8 0.991532 -14.80 0.991532 -14.80 0.129409 -104.8
2.20000000 0.132308 -105.1 0.991139 -15.14 0.991139 -15.14 0.132308 -105.1
2.25000000 0.135200 -105.4 0.990737 -15.48 0.990737 -15.48 0.135200 -105.4
2.30000000 0.138084 -105.8 0.990326 -15.83 0.990326 -15.83 0.138084 -105.8
2.35000000 0.140961 -106.1 0.989907 -16.17 0.989907 -16.17 0.140961 -106.1
2.40000000 0.143831 -106.5 0.989481 -16.51 0.989481 -16.51 0.143831 -106.5
2.45000000 0.146693 -106.8 0.989046 -16.84 0.989046 -16.84 0.146693 -106.8
2.50000000 0.149548 -107.1 0.988603 -17.18 0.988603 -17.18 0.149548 -107.1
2.55000000 0.152395 -107.5 0.988152 -17.52 0.988152 -17.52 0.152395 -107.5
2.60000000 0.155235 -107.8 0.987694 -17.86 0.987694 -17.86 0.155235 -107.8
2.65000000 0.158067 -108.1 0.987228 -18.20 0.987228 -18.20 0.158067 -108.1
2.70000000 0.160892 -108.5 0.986754 -18.54 0.986754 -18.54 0.160892 -108.5
2.75000000 0.163709 -108.8 0.986274 -18.88 0.986274 -18.88 0.163709 -108.8
2.80000000 0.166518 -109.1 0.985786 -19.21 0.985786 -19.21 0.166518 -109.1
2.85000000 0.169320 -109.4 0.985291 -19.55 0.985291 -19.55 0.169320 -109.4
2.90000000 0.172114 -109.8 0.984789 -19.89 0.984789 -19.89 0.172114 -109.8
2.95000000 0.174900 -110.1 0.984280 -20.22 0.984280 -20.22 0.174900 -110.1
3.00000000 0.177678 -110.4 0.983765 -20.56 0.983765 -20.56 0.177678 -110.4
3.05000000 0.180448 -110.8 0.983243 -20.90 0.983243 -20.90 0.180448 -110.8
3.10000000 0.183210 -111.1 0.982715 -21.23 0.982715 -21.23 0.183210 -111.1
3.15000000 0.185964 -111.4 0.982181 -21.57 0.982181 -21.57 0.185964 -111.4
3.20000000 0.188709 -111.8 0.981641 -21.90 0.981641 -21.90 0.188709 -111.8
3.25000000 0.191446 -112.1 0.981095 -22.23 0.981095 -22.23 0.191446 -112.1
3.30000000 0.194174 -112.4 0.980543 -22.57 0.980543 -22.57 0.194174 -112.4
3.35000000 0.196894 -112.8 0.979986 -22.90 0.979986 -22.90 0.196894 -112.8
3.40000000 0.199605 -113.1 0.979423 -23.23 0.979423 -23.23 0.199605 -113.1
3.45000000 0.202308 -113.4 0.978855 -23.57 0.978855 -23.57 0.202308 -113.4
3.50000000 0.205001 -113.8 0.978282 -23.90 0.978282 -23.90 0.205001 -113.8
3.55000000 0.207685 -114.1 0.977704 -24.23 0.977704 -24.23 0.207685 -114.1
3.60000000 0.210361 -114.4 0.977121 -24.56 0.977121 -24.56 0.210361 -114.4
3.65000000 0.213027 -114.7 0.976534 -24.89 0.976534 -24.89 0.213027 -114.7
3.70000000 0.215683 -115.1 0.975942 -25.22 0.975942 -25.22 0.215683 -115.1
3.75000000 0.218330 -115.4 0.975346 -25.55 0.975346 -25.55 0.218330 -115.4
3.80000000 0.220967 -115.7 0.974745 -25.88 0.974745 -25.88 0.220967 -115.7
3.85000000 0.223595 -116.1 0.974141 -26.21 0.974141 -26.21 0.223595 -116.1
3.90000000 0.226213 -116.4 0.973532 -26.54 0.973532 -26.54 0.226213 -116.4
3.95000000 0.228820 -116.7 0.972920 -26.87 0.972920 -26.87 0.228820 -116.7
4.00000000 0.231418 -117.0 0.972304 -27.19 0.972304 -27.19 0.231418 -117.0
4.05000000 0.234005 -117.4 0.971684 -27.52 0.971684 -27.52 0.234005 -117.4
4.10000000 0.236581 -117.7 0.971061 -27.85 0.971061 -27.85 0.236581 -117.7
4.15000000 0.239147 -118.0 0.970435 -28.18 0.970435 -28.18 0.239147 -118.0
4.20000000 0.241703 -118.4 0.969806 -28.50 0.969806 -28.50 0.241703 -118.4
4.25000000 0.244248 -118.7 0.969173 -28.83 0.969173 -28.83 0.244248 -118.7
4.30000000 0.246781 -119.0 0.968537 -29.15 0.968537 -29.15 0.246781 -119.0
4.35000000 0.249304 -119.3 0.967899 -29.48 0.967899 -29.48 0.249304 -119.3
4.40000000 0.251815 -119.7 0.967257 -29.80 0.967257 -29.80 0.251815 -119.7
4.45000000 0.254315 -120.0 0.966613 -30.12 0.966613 -30.12 0.254315 -120.0
4.50000000 0.256804 -120.3 0.965967 -30.45 0.965967 -30.45 0.256804 -120.3
4.55000000 0.259281 -120.7 0.965318 -30.77 0.965318 -30.77 0.259281 -120.7
4.60000000 0.261746 -121.0 0.964666 -31.09 0.964666 -31.09 0.261746 -121.0
4.65000000 0.264200 -121.3 0.964012 -31.42 0.964012 -31.42 0.264200 -121.3
4.70000000 0.266642 -121.6 0.963356 -31.74 0.963356 -31.74 0.266642 -121.6
4.75000000 0.269071 -122.0 0.962697 -32.06 0.962697 -32.06 0.269071 -122.0
4.80000000 0.271489 -122.3 0.962036 -32.38 0.962036 -32.38 0.271489 -122.3
4.85000000 0.273894 -122.6 0.961374 -32.70 0.961374 -32.70 0.273894 -122.6
4.90000000 0.276287 -122.9 0.960709 -33.02 0.960709 -33.02 0.276287 -122.9
4.95000000 0.278667 -123.3 0.960042 -33.34 0.960042 -33.34 0.278667 -123.3
5.00000000 0.281035 -123.6 0.959372 -33.66 0.959372 -33.66 0.281035 -123.6
5.05000000 0.283391 -123.9 0.958701 -33.98 0.958701 -33.98 0.283391 -123.9
5.10000000 0.285733 -124.2 0.958029 -34.30 0.958029 -34.30 0.285733 -124.2
5.15000000 0.288063 -124.6 0.957354 -34.62 0.957354 -34.62 0.288063 -124.6
5.20000000 0.290380 -124.9 0.956677 -34.93 0.956677 -34.93 0.290380 -124.9
5.25000000 0.292684 -125.2 0.955998 -35.25 0.955998 -35.25 0.292684 -125.2
5.30000000 0.294975 -125.5 0.955318 -35.57 0.955318 -35.57 0.294975 -125.5
5.35000000 0.297254 -125.8 0.954635 -35.88 0.954635 -35.88 0.297254 -125.8
5.40000000 0.299519 -126.2 0.953951 -36.20 0.953951 -36.20 0.299519 -126.2
5.45000000 0.301770 -126.5 0.953265 -36.52 0.953265 -36.52 0.301770 -126.5
5.50000000 0.304009 -126.8 0.952577 -36.83 0.952577 -36.83 0.304009 -126.8
5.55000000 0.306235 -127.1 0.951887 -37.15 0.951887 -37.15 0.306235 -127.1
5.60000000 0.308447 -127.5 0.951195 -37.46 0.951195 -37.46 0.308447 -127.5
5.65000000 0.310646 -127.8 0.950502 -37.77 0.950502 -37.77 0.310646 -127.8
5.70000000 0.312832 -128.1 0.949806 -38.09 0.949806 -38.09 0.312832 -128.1
!< P1 F=5.7 Eeff=(6.18254562 -2.8127e-5) Z0=(28.5929343 6.50739e-5) R=6.64612e-4 C=0.19548938 
!< P2 F=5.7 Eeff=(6.18254562 -2.8127e-5) Z0=(28.5929343 6.50739e-5) R=6.64612e-4 C=0.19548938 
5.75000000 0.315005 -128.4 0.949109 -38.40 0.949109 -38.40 0.315005 -128.4
5.80000000 0.317164 -128.7 0.948410 -38.71 0.948410 -38.71 0.317164 -128.7
5.85000000 0.319310 -129.0 0.947709 -39.03 0.947709 -39.03 0.319310 -129.0
5.90000000 0.321443 -129.4 0.947007 -39.34 0.947007 -39.34 0.321443 -129.4
5.95000000 0.323563 -129.7 0.946303 -39.65 0.946303 -39.65 0.323563 -129.7
6.00000000 0.325670 -130.0 0.945598 -39.96 0.945598 -39.96 0.325670 -130.0
6.05000000 0.327764 -130.3 0.944891 -40.27 0.944891 -40.27 0.327764 -130.3
6.10000000 0.329845 -130.6 0.944182 -40.58 0.944182 -40.58 0.329845 -130.6
6.15000000 0.331912 -130.9 0.943472 -40.89 0.943472 -40.89 0.331912 -130.9
6.20000000 0.333967 -131.2 0.942761 -41.20 0.942761 -41.20 0.333967 -131.2
6.25000000 0.336009 -131.5 0.942049 -41.51 0.942049 -41.51 0.336009 -131.5
6.30000000 0.338038 -131.9 0.941335 -41.82 0.941335 -41.82 0.338038 -131.9
6.35000000 0.340054 -132.2 0.940620 -42.13 0.940620 -42.13 0.340054 -132.2
6.40000000 0.342057 -132.5 0.939904 -42.43 0.939904 -42.43 0.342057 -132.5
6.45000000 0.344047 -132.8 0.939187 -42.74 0.939187 -42.74 0.344047 -132.8
6.50000000 0.346024 -133.1 0.938469 -43.05 0.938469 -43.05 0.346024 -133.1
6.55000000 0.347989 -133.4 0.937750 -43.35 0.937750 -43.35 0.347989 -133.4
6.60000000 0.349941 -133.7 0.937031 -43.66 0.937031 -43.66 0.349941 -133.7
6.65000000 0.351880 -134.0 0.936310 -43.96 0.936310 -43.96 0.351880 -134.0
6.70000000 0.353807 -134.3 0.935589 -44.27 0.935589 -44.27 0.353807 -134.3
6.75000000 0.355721 -134.6 0.934868 -44.57 0.934868 -44.57 0.355721 -134.6
6.80000000 0.357622 -134.9 0.934145 -44.88 0.934145 -44.88 0.357622 -134.9
6.85000000 0.359511 -135.2 0.933423 -45.18 0.933423 -45.18 0.359511 -135.2
6.90000000 0.361387 -135.5 0.932700 -45.48 0.932700 -45.48 0.361387 -135.5
6.95000000 0.363251 -135.8 0.931977 -45.79 0.931977 -45.79 0.363251 -135.8
7.00000000 0.365103 -136.1 0.931254 -46.09 0.931254 -46.09 0.365103 -136.1
7.05000000 0.366942 -136.4 0.930531 -46.39 0.930531 -46.39 0.366942 -136.4
7.10000000 0.368769 -136.7 0.929807 -46.69 0.929807 -46.69 0.368769 -136.7
7.15000000 0.370583 -137.0 0.929084 -46.99 0.929084 -46.99 0.370583 -137.0
7.20000000 0.372385 -137.3 0.928361 -47.29 0.928361 -47.29 0.372385 -137.3
7.25000000 0.374175 -137.6 0.927639 -47.59 0.927639 -47.59 0.374175 -137.6
7.30000000 0.375953 -137.9 0.926916 -47.89 0.926916 -47.89 0.375953 -137.9
7.35000000 0.377719 -138.2 0.926195 -48.19 0.926195 -48.19 0.377719 -138.2
7.40000000 0.379472 -138.5 0.925473 -48.49 0.925473 -48.49 0.379472 -138.5
7.45000000 0.381214 -138.8 0.924753 -48.78 0.924753 -48.78 0.381214 -138.8
7.50000000 0.382943 -139.1 0.924033 -49.08 0.924033 -49.08 0.382943 -139.1
7.55000000 0.384660 -139.4 0.923314 -49.38 0.923314 -49.38 0.384660 -139.4
7.60000000 0.386365 -139.7 0.922596 -49.67 0.922596 -49.67 0.386365 -139.7
7.65000000 0.388059 -140.0 0.921879 -49.97 0.921879 -49.97 0.388059 -140.0
7.70000000 0.389740 -140.3 0.921163 -50.27 0.921163 -50.27 0.389740 -140.3
7.75000000 0.391409 -140.6 0.920449 -50.56 0.920449 -50.56 0.391409 -140.6
7.80000000 0.393066 -140.9 0.919736 -50.85 0.919736 -50.85 0.393066 -140.9
7.85000000 0.394712 -141.2 0.919024 -51.15 0.919024 -51.15 0.394712 -141.2
7.90000000 0.396345 -141.5 0.918314 -51.44 0.918314 -51.44 0.396345 -141.5
7.95000000 0.397967 -141.8 0.917605 -51.73 0.917605 -51.73 0.397967 -141.8
8.00000000 0.399576 -142.1 0.916898 -52.03 0.916898 -52.03 0.399576 -142.1
8.05000000 0.401174 -142.4 0.916193 -52.32 0.916193 -52.32 0.401174 -142.4
8.10000000 0.402760 -142.6 0.915489 -52.61 0.915489 -52.61 0.402760 -142.6
8.15000000 0.404334 -142.9 0.914788 -52.90 0.914788 -52.90 0.404334 -142.9
8.20000000 0.405896 -143.2 0.914088 -53.19 0.914088 -53.19 0.405896 -143.2
8.25000000 0.407447 -143.5 0.913391 -53.48 0.913391 -53.48 0.407447 -143.5
8.30000000 0.408985 -143.8 0.912696 -53.77 0.912696 -53.77 0.408985 -143.8
8.35000000 0.410512 -144.1 0.912003 -54.06 0.912003 -54.06 0.410512 -144.1
8.40000000 0.412027 -144.4 0.911313 -54.35 0.911313 -54.35 0.412027 -144.4
8.45000000 0.413530 -144.7 0.910625 -54.64 0.910625 -54.64 0.413530 -144.7
8.50000000 0.415021 -145.0 0.909940 -54.92 0.909940 -54.92 0.415021 -145.0
8.55000000 0.416500 -145.2 0.909257 -55.21 0.909257 -55.21 0.416500 -145.2
8.60000000 0.417968 -145.5 0.908577 -55.50 0.908577 -55.50 0.417968 -145.5
8.65000000 0.419423 -145.8 0.907899 -55.78 0.907899 -55.78 0.419423 -145.8
8.70000000 0.420867 -146.1 0.907225 -56.07 0.907225 -56.07 0.420867 -146.1
8.75000000 0.422299 -146.4 0.906553 -56.36 0.906553 -56.36 0.422299 -146.4
8.80000000 0.423719 -146.7 0.905885 -56.64 0.905885 -56.64 0.423719 -146.7
8.85000000 0.425127 -146.9 0.905219 -56.92 0.905219 -56.92 0.425127 -146.9
8.90000000 0.426523 -147.2 0.904556 -57.21 0.904556 -57.21 0.426523 -147.2
8.95000000 0.427908 -147.5 0.903897 -57.49 0.903897 -57.49 0.427908 -147.5
9.00000000 0.429280 -147.8 0.903241 -57.78 0.903241 -57.78 0.429280 -147.8
9.05000000 0.430640 -148.1 0.902588 -58.06 0.902588 -58.06 0.430640 -148.1
9.10000000 0.431988 -148.4 0.901939 -58.34 0.901939 -58.34 0.431988 -148.4
9.15000000 0.433325 -148.6 0.901293 -58.62 0.901293 -58.62 0.433325 -148.6
9.20000000 0.434649 -148.9 0.900651 -58.90 0.900651 -58.90 0.434649 -148.9
9.25000000 0.435961 -149.2 0.900012 -59.19 0.900012 -59.19 0.435961 -149.2
9.30000000 0.437261 -149.5 0.899377 -59.47 0.899377 -59.47 0.437261 -149.5
9.35000000 0.438549 -149.8 0.898745 -59.75 0.898745 -59.75 0.438549 -149.8
9.40000000 0.439825 -150.0 0.898117 -60.03 0.898117 -60.03 0.439825 -150.0
9.45000000 0.441089 -150.3 0.897493 -60.31 0.897493 -60.31 0.441089 -150.3
9.50000000 0.442340 -150.6 0.896872 -60.59 0.896872 -60.59 0.442340 -150.6
9.55000000 0.443579 -150.9 0.896256 -60.87 0.896256 -60.87 0.443579 -150.9
9.60000000 0.444806 -151.1 0.895643 -61.14 0.895643 -61.14 0.444806 -151.1
9.65000000 0.446020 -151.4 0.895035 -61.42 0.895035 -61.42 0.446020 -151.4
9.70000000 0.447222 -151.7 0.894430 -61.70 0.894430 -61.70 0.447222 -151.7
9.75000000 0.448412 -152.0 0.893829 -61.98 0.893829 -61.98 0.448412 -152.0
9.80000000 0.449589 -152.3 0.893232 -62.26 0.893232 -62.26 0.449589 -152.3
!< P1 F=9.8 Eeff=(6.19656105 -2.8289e-5) Z0=(28.5597974 6.52727e-5) R=3.86392e-4 C=0.19568142 
!< P2 F=9.8 Eeff=(6.19656105 -2.8289e-5) Z0=(28.5597974 6.52727e-5) R=3.86392e-4 C=0.19568142 
9.85000000 0.450754 -152.5 0.892640 -62.53 0.892640 -62.53 0.450754 -152.5
9.90000000 0.451908 -152.8 0.892052 -62.81 0.892052 -62.81 0.451908 -152.8
9.95000000 0.453050 -153.1 0.891468 -63.08 0.891468 -63.08 0.453050 -153.1
10.0000000 0.454180 -153.4 0.890889 -63.36 0.890889 -63.36 0.454180 -153.4
10.0500000 0.455299 -153.6 0.890315 -63.64 0.890315 -63.64 0.455299 -153.6
10.1000000 0.456406 -153.9 0.889745 -63.91 0.889745 -63.91 0.456406 -153.9
10.1500000 0.457502 -154.2 0.889180 -64.19 0.889180 -64.19 0.457502 -154.2
10.2000000 0.458586 -154.5 0.888619 -64.46 0.888619 -64.46 0.458586 -154.5
10.2500000 0.459659 -154.7 0.888064 -64.73 0.888064 -64.73 0.459659 -154.7
10.3000000 0.460720 -155.0 0.887513 -65.01 0.887513 -65.01 0.460720 -155.0
10.3500000 0.461770 -155.3 0.886966 -65.28 0.886966 -65.28 0.461770 -155.3
10.4000000 0.462808 -155.5 0.886425 -65.56 0.886425 -65.56 0.462808 -155.5
10.4500000 0.463834 -155.8 0.885889 -65.83 0.885889 -65.83 0.463834 -155.8
10.5000000 0.464850 -156.1 0.885357 -66.10 0.885357 -66.10 0.464850 -156.1
10.5500000 0.465853 -156.4 0.884830 -66.37 0.884830 -66.37 0.465853 -156.4
10.6000000 0.466846 -156.6 0.884309 -66.64 0.884309 -66.64 0.466846 -156.6
10.6500000 0.467827 -156.9 0.883792 -66.92 0.883792 -66.92 0.467827 -156.9
10.7000000 0.468796 -157.2 0.883281 -67.19 0.883281 -67.19 0.468796 -157.2
10.7500000 0.469754 -157.5 0.882774 -67.46 0.882774 -67.46 0.469754 -157.5
10.8000000 0.470700 -157.7 0.882273 -67.73 0.882273 -67.73 0.470700 -157.7
10.8500000 0.471636 -158.0 0.881777 -68.00 0.881777 -68.00 0.471636 -158.0
10.9000000 0.472559 -158.3 0.881286 -68.27 0.881286 -68.27 0.472559 -158.3
10.9500000 0.473472 -158.5 0.880801 -68.54 0.880801 -68.54 0.473472 -158.5
11.0000000 0.474373 -158.8 0.880320 -68.81 0.880320 -68.81 0.474373 -158.8
11.0500000 0.475262 -159.1 0.879845 -69.08 0.879845 -69.08 0.475262 -159.1
11.1000000 0.476140 -159.3 0.879375 -69.35 0.879375 -69.35 0.476140 -159.3
11.1500000 0.477007 -159.6 0.878910 -69.62 0.878910 -69.62 0.477007 -159.6
11.2000000 0.477862 -159.9 0.878451 -69.89 0.878451 -69.89 0.477862 -159.9
11.2500000 0.478706 -160.2 0.877997 -70.16 0.877997 -70.16 0.478706 -160.2
11.3000000 0.479539 -160.4 0.877549 -70.42 0.877549 -70.42 0.479539 -160.4
11.3500000 0.480360 -160.7 0.877106 -70.69 0.877106 -70.69 0.480360 -160.7
11.4000000 0.481170 -161.0 0.876668 -70.96 0.876668 -70.96 0.481170 -161.0
11.4500000 0.481969 -161.2 0.876236 -71.23 0.876236 -71.23 0.481969 -161.2
11.5000000 0.482756 -161.5 0.875809 -71.49 0.875809 -71.49 0.482756 -161.5
11.5500000 0.483532 -161.8 0.875388 -71.76 0.875388 -71.76 0.483532 -161.8
11.6000000 0.484297 -162.0 0.874973 -72.03 0.874973 -72.03 0.484297 -162.0
11.6500000 0.485050 -162.3 0.874562 -72.29 0.874562 -72.29 0.485050 -162.3
11.7000000 0.485792 -162.6 0.874158 -72.56 0.874158 -72.56 0.485792 -162.6
11.7500000 0.486522 -162.8 0.873759 -72.83 0.873759 -72.83 0.486522 -162.8
11.8000000 0.487242 -163.1 0.873366 -73.09 0.873366 -73.09 0.487242 -163.1
11.8500000 0.487949 -163.4 0.872978 -73.36 0.872978 -73.36 0.487949 -163.4
11.9000000 0.488646 -163.6 0.872596 -73.63 0.872596 -73.63 0.488646 -163.6
11.9500000 0.489331 -163.9 0.872219 -73.89 0.872219 -73.89 0.489331 -163.9
12.0000000 0.490005 -164.2 0.871848 -74.16 0.871848 -74.16 0.490005 -164.2
12.0500000 0.490668 -164.4 0.871483 -74.42 0.871483 -74.42 0.490668 -164.4
12.1000000 0.491319 -164.7 0.871124 -74.69 0.871124 -74.69 0.491319 -164.7
12.1500000 0.491959 -165.0 0.870770 -74.95 0.870770 -74.95 0.491959 -165.0
12.2000000 0.492587 -165.2 0.870422 -75.22 0.870422 -75.22 0.492587 -165.2
12.2500000 0.493205 -165.5 0.870080 -75.48 0.870080 -75.48 0.493205 -165.5
12.3000000 0.493811 -165.8 0.869743 -75.74 0.869743 -75.74 0.493811 -165.8
12.3500000 0.494405 -166.0 0.869413 -76.01 0.869413 -76.01 0.494405 -166.0
12.4000000 0.494988 -166.3 0.869088 -76.27 0.869088 -76.27 0.494988 -166.3
12.4500000 0.495560 -166.5 0.868769 -76.54 0.868769 -76.54 0.495560 -166.5
12.5000000 0.496121 -166.8 0.868455 -76.80 0.868455 -76.80 0.496121 -166.8
