! Sonnet Data File
! From: emgraph Version : 16.52
! From Emgraph Data: Waveguide2
! Data File Written: 09/24/2017 11:30:26
!< HDATE 09/24/2017 11:22:23
!< MDATE 09/24/2017 11:22:23
# GHZ S MA R 50.00000
0.00000000 1.0e-100 -90.00 0.999963 0.0000 0.999963 0.0000 1.0e-100 -90.00
0.05000000 0.003244 -90.36 0.999995 -0.356 0.999995 -0.356 0.003244 -90.36
!< P1 F=0.05 Eeff=(6.41674385 -3.1469e-5) Z0=(28.089164 6.58968e-5) R=0.18583564 C=0.07790469 
!< P2 F=0.05 Eeff=(6.41674385 -3.1469e-5) Z0=(28.089164 6.58968e-5) R=0.18583564 C=0.07790469 
0.10000000 0.006463 -90.70 0.999977 -0.712 0.999977 -0.712 0.006464 -90.69
0.15000000 0.009684 -91.05 0.999949 -1.069 0.999949 -1.069 0.009687 -91.05
0.20000000 0.012907 -91.40 0.999911 -1.426 0.999911 -1.426 0.012910 -91.40
0.25000000 0.016131 -91.76 0.999862 -1.782 0.999862 -1.782 0.016135 -91.75
0.30000000 0.019356 -92.11 0.999803 -2.139 0.999803 -2.139 0.019359 -92.11
0.35000000 0.022581 -92.47 0.999735 -2.495 0.999735 -2.495 0.022585 -92.47
0.40000000 0.025806 -92.83 0.999656 -2.851 0.999656 -2.851 0.025810 -92.83
0.45000000 0.029030 -93.19 0.999567 -3.207 0.999567 -3.207 0.029034 -93.18
0.50000000 0.032254 -93.54 0.999469 -3.563 0.999469 -3.563 0.032257 -93.54
0.55000000 0.035476 -93.90 0.999360 -3.919 0.999360 -3.919 0.035480 -93.90
0.60000000 0.038697 -94.26 0.999242 -4.275 0.999242 -4.275 0.038700 -94.26
0.65000000 0.041917 -94.62 0.999113 -4.630 0.999113 -4.630 0.041919 -94.62
0.70000000 0.045134 -94.98 0.998974 -4.986 0.998974 -4.986 0.045135 -94.98
0.75000000 0.048348 -95.34 0.998826 -5.341 0.998826 -5.341 0.048349 -95.34
0.80000000 0.051560 -95.69 0.998667 -5.697 0.998667 -5.697 0.051560 -95.69
0.85000000 0.054768 -96.05 0.998499 -6.052 0.998499 -6.052 0.054768 -96.05
!< P1 F=0.85 Eeff=(6.42990325 -2.961e-5) Z0=(28.1178034 6.47599e-5) R=0.01110812 C=0.07790495 
!< P2 F=0.85 Eeff=(6.42990325 -2.961e-5) Z0=(28.1178034 6.47599e-5) R=0.01110812 C=0.07790495 
0.90000000 0.057973 -96.41 0.998320 -6.407 0.998320 -6.407 0.057973 -96.41
0.95000000 0.061175 -96.77 0.998131 -6.762 0.998131 -6.762 0.061174 -96.77
1.00000000 0.064372 -97.12 0.997932 -7.117 0.997932 -7.117 0.064371 -97.12
1.05000000 0.067566 -97.48 0.997723 -7.471 0.997723 -7.471 0.067564 -97.48
1.10000000 0.070755 -97.84 0.997504 -7.826 0.997504 -7.826 0.070752 -97.84
1.15000000 0.073939 -98.19 0.997275 -8.180 0.997275 -8.180 0.073936 -98.19
1.20000000 0.077118 -98.55 0.997036 -8.535 0.997036 -8.535 0.077115 -98.55
1.25000000 0.080293 -98.90 0.996786 -8.889 0.996786 -8.889 0.080290 -98.90
1.30000000 0.083462 -99.26 0.996526 -9.243 0.996526 -9.243 0.083459 -99.26
1.35000000 0.086626 -99.61 0.996256 -9.597 0.996256 -9.597 0.086623 -99.61
1.40000000 0.089784 -99.96 0.995976 -9.950 0.995976 -9.950 0.089781 -99.96
1.45000000 0.092937 -100.3 0.995686 -10.30 0.995686 -10.30 0.092934 -100.3
1.50000000 0.096083 -100.7 0.995385 -10.66 0.995385 -10.66 0.096081 -100.7
1.55000000 0.099224 -101.0 0.995075 -11.01 0.995075 -11.01 0.099222 -101.0
1.60000000 0.102359 -101.4 0.994755 -11.36 0.994755 -11.36 0.102357 -101.4
1.65000000 0.105487 -101.7 0.994424 -11.72 0.994424 -11.72 0.105486 -101.7
1.70000000 0.108609 -102.1 0.994084 -12.07 0.994084 -12.07 0.108609 -102.1
!< P1 F=1.7 Eeff=(6.43005302 -2.9613e-5) Z0=(28.1176808 6.47525e-5) R=0.00555534 C=0.07790577 
!< P2 F=1.7 Eeff=(6.43005302 -2.9613e-5) Z0=(28.1176808 6.47525e-5) R=0.00555534 C=0.07790577 
1.75000000 0.111725 -102.4 0.993732 -12.42 0.993732 -12.42 0.111726 -102.4
1.80000000 0.114837 -102.8 0.993369 -12.77 0.993369 -12.77 0.114839 -102.8
1.85000000 0.117944 -103.1 0.992995 -13.12 0.992995 -13.12 0.117947 -103.1
1.90000000 0.121046 -103.5 0.992609 -13.47 0.992609 -13.47 0.121050 -103.5
1.95000000 0.124143 -103.8 0.992213 -13.83 0.992213 -13.83 0.124148 -103.8
2.00000000 0.127234 -104.1 0.991807 -14.18 0.991807 -14.18 0.127240 -104.1
2.05000000 0.130320 -104.5 0.991391 -14.53 0.991391 -14.53 0.130327 -104.5
2.10000000 0.133400 -104.8 0.990966 -14.88 0.990966 -14.88 0.133408 -104.8
2.15000000 0.136474 -105.2 0.990531 -15.22 0.990531 -15.22 0.136484 -105.2
2.20000000 0.139542 -105.5 0.990088 -15.57 0.990088 -15.57 0.139553 -105.5
2.25000000 0.142603 -105.9 0.989637 -15.92 0.989637 -15.92 0.142616 -105.9
2.30000000 0.145657 -106.2 0.989178 -16.27 0.989178 -16.27 0.145671 -106.2
2.35000000 0.148704 -106.5 0.988711 -16.62 0.988711 -16.62 0.148720 -106.5
2.40000000 0.151744 -106.9 0.988236 -16.97 0.988236 -16.97 0.151762 -106.9
2.45000000 0.154777 -107.2 0.987754 -17.31 0.987754 -17.31 0.154795 -107.2
2.50000000 0.157801 -107.6 0.987265 -17.66 0.987265 -17.66 0.157821 -107.6
2.55000000 0.160817 -107.9 0.986769 -18.01 0.986769 -18.01 0.160839 -107.9
2.60000000 0.163825 -108.3 0.986267 -18.35 0.986267 -18.35 0.163848 -108.3
2.65000000 0.166824 -108.6 0.985757 -18.70 0.985757 -18.70 0.166849 -108.6
2.70000000 0.169814 -109.0 0.985242 -19.04 0.985242 -19.04 0.169840 -109.0
2.75000000 0.172794 -109.3 0.984720 -19.39 0.984720 -19.39 0.172822 -109.3
2.80000000 0.175765 -109.6 0.984193 -19.73 0.984193 -19.73 0.175794 -109.6
2.85000000 0.178727 -110.0 0.983659 -20.08 0.983659 -20.08 0.178757 -110.0
2.90000000 0.181678 -110.3 0.983120 -20.42 0.983120 -20.42 0.181709 -110.3
2.95000000 0.184619 -110.7 0.982574 -20.76 0.982574 -20.76 0.184651 -110.7
3.00000000 0.187549 -111.0 0.982023 -21.11 0.982023 -21.11 0.187582 -111.0
3.05000000 0.190468 -111.4 0.981467 -21.45 0.981467 -21.45 0.190503 -111.4
3.10000000 0.193377 -111.7 0.980904 -21.79 0.980904 -21.79 0.193412 -111.7
3.15000000 0.196274 -112.1 0.980337 -22.13 0.980337 -22.13 0.196310 -112.1
3.20000000 0.199159 -112.4 0.979764 -22.48 0.979764 -22.48 0.199196 -112.4
3.25000000 0.202033 -112.8 0.979185 -22.82 0.979185 -22.82 0.202071 -112.8
3.30000000 0.204895 -113.1 0.978601 -23.16 0.978601 -23.16 0.204934 -113.1
3.35000000 0.207746 -113.4 0.978012 -23.50 0.978012 -23.50 0.207784 -113.4
3.40000000 0.210583 -113.8 0.977418 -23.84 0.977418 -23.84 0.210622 -113.8
3.45000000 0.213409 -114.1 0.976818 -24.18 0.976818 -24.18 0.213448 -114.1
3.50000000 0.216222 -114.5 0.976213 -24.52 0.976213 -24.52 0.216261 -114.5
3.55000000 0.219023 -114.8 0.975602 -24.86 0.975602 -24.86 0.219062 -114.8
3.60000000 0.221810 -115.2 0.974987 -25.20 0.974987 -25.20 0.221849 -115.2
3.65000000 0.224585 -115.5 0.974366 -25.54 0.974366 -25.54 0.224624 -115.5
3.70000000 0.227347 -115.8 0.973740 -25.88 0.973740 -25.88 0.227385 -115.9
3.75000000 0.230095 -116.2 0.973108 -26.21 0.973108 -26.21 0.230133 -116.2
3.80000000 0.232831 -116.5 0.972472 -26.55 0.972472 -26.55 0.232868 -116.5
3.85000000 0.235553 -116.9 0.971830 -26.89 0.971830 -26.89 0.235590 -116.9
3.90000000 0.238261 -117.2 0.971183 -27.23 0.971183 -27.23 0.238297 -117.2
3.95000000 0.240957 -117.6 0.970530 -27.56 0.970530 -27.56 0.240992 -117.6
4.00000000 0.243638 -117.9 0.969872 -27.90 0.969872 -27.90 0.243672 -117.9
4.05000000 0.246307 -118.2 0.969210 -28.23 0.969210 -28.23 0.246339 -118.2
4.10000000 0.248961 -118.6 0.968541 -28.57 0.968541 -28.57 0.248993 -118.6
4.15000000 0.251602 -118.9 0.967868 -28.90 0.967868 -28.90 0.251632 -118.9
4.20000000 0.254229 -119.2 0.967189 -29.24 0.967189 -29.24 0.254258 -119.3
4.25000000 0.256843 -119.6 0.966505 -29.57 0.966505 -29.57 0.256870 -119.6
4.30000000 0.259443 -119.9 0.965816 -29.91 0.965816 -29.91 0.259468 -119.9
4.35000000 0.262029 -120.3 0.965121 -30.24 0.965121 -30.24 0.262052 -120.3
4.40000000 0.264601 -120.6 0.964422 -30.57 0.964422 -30.57 0.264622 -120.6
4.45000000 0.267160 -120.9 0.963716 -30.91 0.963716 -30.91 0.267179 -120.9
4.50000000 0.269705 -121.3 0.963006 -31.24 0.963006 -31.24 0.269722 -121.3
4.55000000 0.272237 -121.6 0.962291 -31.57 0.962291 -31.57 0.272251 -121.6
4.60000000 0.274754 -121.9 0.961570 -31.90 0.961570 -31.90 0.274767 -121.9
4.65000000 0.277258 -122.2 0.960844 -32.23 0.960844 -32.23 0.277268 -122.2
4.70000000 0.279749 -122.6 0.960112 -32.56 0.960112 -32.56 0.279757 -122.6
4.75000000 0.282226 -122.9 0.959376 -32.89 0.959376 -32.89 0.282231 -122.9
4.80000000 0.284690 -123.2 0.958634 -33.22 0.958634 -33.22 0.284692 -123.2
4.85000000 0.287140 -123.6 0.957887 -33.55 0.957887 -33.55 0.287140 -123.6
!< P1 F=4.85 Eeff=(6.43121864 -2.9623e-5) Z0=(28.1159701 6.47709e-5) R=0.00194642 C=0.07791377 
!< P2 F=4.85 Eeff=(6.43121864 -2.9623e-5) Z0=(28.1159701 6.47709e-5) R=0.00194642 C=0.07791377 
4.90000000 0.289577 -123.9 0.957136 -33.88 0.957136 -33.88 0.289574 -123.9
4.95000000 0.292002 -124.2 0.956381 -34.21 0.956381 -34.21 0.291997 -124.2
5.00000000 0.294415 -124.5 0.955623 -34.54 0.955623 -34.54 0.294407 -124.5
5.05000000 0.296815 -124.9 0.954863 -34.86 0.954863 -34.86 0.296804 -124.8
5.10000000 0.299203 -125.2 0.954100 -35.19 0.954100 -35.19 0.299190 -125.2
5.15000000 0.301578 -125.5 0.953334 -35.52 0.953334 -35.52 0.301563 -125.5
5.20000000 0.303941 -125.8 0.952566 -35.84 0.952566 -35.84 0.303923 -125.8
5.25000000 0.306292 -126.1 0.951795 -36.17 0.951795 -36.17 0.306271 -126.1
5.30000000 0.308630 -126.5 0.951023 -36.49 0.951023 -36.49 0.308607 -126.5
5.35000000 0.310956 -126.8 0.950248 -36.81 0.950248 -36.81 0.310930 -126.8
5.40000000 0.313269 -127.1 0.949472 -37.14 0.949472 -37.14 0.313241 -127.1
5.45000000 0.315569 -127.4 0.948693 -37.46 0.948693 -37.46 0.315539 -127.4
5.50000000 0.317857 -127.7 0.947914 -37.78 0.947914 -37.78 0.317825 -127.7
5.55000000 0.320132 -128.1 0.947133 -38.10 0.947133 -38.10 0.320098 -128.1
5.60000000 0.322395 -128.4 0.946350 -38.42 0.946350 -38.42 0.322358 -128.4
5.65000000 0.324645 -128.7 0.945567 -38.74 0.945567 -38.74 0.324606 -128.7
5.70000000 0.326882 -129.0 0.944783 -39.06 0.944783 -39.06 0.326841 -129.0
5.75000000 0.329106 -129.3 0.943997 -39.38 0.943997 -39.38 0.329063 -129.3
5.80000000 0.331318 -129.7 0.943211 -39.70 0.943211 -39.70 0.331273 -129.6
5.85000000 0.333516 -130.0 0.942425 -40.02 0.942425 -40.02 0.333470 -130.0
5.90000000 0.335702 -130.3 0.941638 -40.33 0.941638 -40.33 0.335654 -130.3
5.95000000 0.337875 -130.6 0.940850 -40.65 0.940850 -40.65 0.337826 -130.6
6.00000000 0.340035 -130.9 0.940063 -40.97 0.940063 -40.97 0.339984 -130.9
6.05000000 0.342183 -131.2 0.939275 -41.28 0.939275 -41.28 0.342130 -131.2
6.10000000 0.344317 -131.5 0.938488 -41.60 0.938488 -41.60 0.344263 -131.5
6.15000000 0.346438 -131.9 0.937700 -41.91 0.937700 -41.91 0.346383 -131.8
6.20000000 0.348546 -132.2 0.936913 -42.23 0.936913 -42.23 0.348490 -132.2
6.25000000 0.350641 -132.5 0.936126 -42.54 0.936126 -42.54 0.350584 -132.5
6.30000000 0.352723 -132.8 0.935339 -42.85 0.935339 -42.85 0.352665 -132.8
6.35000000 0.354792 -133.1 0.934553 -43.16 0.934553 -43.16 0.354733 -133.1
6.40000000 0.356848 -133.4 0.933768 -43.47 0.933768 -43.47 0.356788 -133.4
6.45000000 0.358890 -133.7 0.932983 -43.79 0.932983 -43.79 0.358830 -133.7
6.50000000 0.360919 -134.0 0.932199 -44.10 0.932199 -44.10 0.360859 -134.0
6.55000000 0.362936 -134.4 0.931417 -44.41 0.931417 -44.41 0.362874 -134.3
6.60000000 0.364938 -134.7 0.930635 -44.72 0.930635 -44.72 0.364877 -134.6
6.65000000 0.366928 -135.0 0.929854 -45.02 0.929854 -45.02 0.366866 -135.0
6.70000000 0.368904 -135.3 0.929075 -45.33 0.929075 -45.33 0.368842 -135.3
6.75000000 0.370867 -135.6 0.928297 -45.64 0.928297 -45.64 0.370805 -135.6
6.80000000 0.372817 -135.9 0.927520 -45.95 0.927520 -45.95 0.372754 -135.9
6.85000000 0.374753 -136.2 0.926744 -46.25 0.926744 -46.25 0.374691 -136.2
6.90000000 0.376676 -136.5 0.925970 -46.56 0.925970 -46.56 0.376614 -136.5
6.95000000 0.378585 -136.8 0.925198 -46.86 0.925198 -46.86 0.378523 -136.8
7.00000000 0.380481 -137.1 0.924427 -47.17 0.924427 -47.17 0.380420 -137.1
7.05000000 0.382364 -137.4 0.923658 -47.47 0.923658 -47.47 0.382303 -137.4
7.10000000 0.384233 -137.7 0.922891 -47.78 0.922891 -47.78 0.384172 -137.7
7.15000000 0.386088 -138.0 0.922126 -48.08 0.922126 -48.08 0.386028 -138.0
7.20000000 0.387930 -138.3 0.921362 -48.38 0.921362 -48.38 0.387871 -138.3
7.25000000 0.389759 -138.6 0.920600 -48.69 0.920600 -48.69 0.389700 -138.6
7.30000000 0.391574 -138.9 0.919841 -48.99 0.919841 -48.99 0.391516 -138.9
7.35000000 0.393376 -139.3 0.919083 -49.29 0.919083 -49.29 0.393319 -139.2
7.40000000 0.395164 -139.6 0.918328 -49.59 0.918328 -49.59 0.395108 -139.5
7.45000000 0.396938 -139.9 0.917575 -49.89 0.917575 -49.89 0.396883 -139.8
7.50000000 0.398699 -140.2 0.916824 -50.19 0.916824 -50.19 0.398645 -140.1
7.55000000 0.400446 -140.5 0.916075 -50.49 0.916075 -50.49 0.400393 -140.5
7.60000000 0.402180 -140.8 0.915328 -50.79 0.915328 -50.79 0.402128 -140.8
7.65000000 0.403900 -141.1 0.914584 -51.08 0.914584 -51.08 0.403850 -141.1
7.70000000 0.405607 -141.4 0.913842 -51.38 0.913842 -51.38 0.405558 -141.4
7.75000000 0.407300 -141.7 0.913102 -51.68 0.913102 -51.68 0.407252 -141.6
7.80000000 0.408979 -142.0 0.912365 -51.97 0.912365 -51.97 0.408933 -141.9
7.85000000 0.410645 -142.3 0.911630 -52.27 0.911630 -52.27 0.410600 -142.2
7.90000000 0.412297 -142.5 0.910897 -52.57 0.910897 -52.57 0.412254 -142.5
7.95000000 0.413936 -142.8 0.910167 -52.86 0.910167 -52.86 0.413894 -142.8
8.00000000 0.415561 -143.1 0.909440 -53.16 0.909440 -53.16 0.415521 -143.1
8.05000000 0.417172 -143.4 0.908715 -53.45 0.908715 -53.45 0.417134 -143.4
8.10000000 0.418770 -143.7 0.907992 -53.74 0.907992 -53.74 0.418733 -143.7
8.15000000 0.420354 -144.0 0.907272 -54.04 0.907272 -54.04 0.420319 -144.0
8.20000000 0.421924 -144.3 0.906555 -54.33 0.906555 -54.33 0.421891 -144.3
8.25000000 0.423481 -144.6 0.905839 -54.62 0.905839 -54.62 0.423450 -144.6
8.30000000 0.425024 -144.9 0.905127 -54.91 0.905127 -54.91 0.424996 -144.9
8.35000000 0.426554 -145.2 0.904417 -55.20 0.904417 -55.20 0.426527 -145.2
8.40000000 0.428070 -145.5 0.903709 -55.49 0.903709 -55.49 0.428046 -145.5
8.45000000 0.429573 -145.8 0.903004 -55.78 0.903004 -55.78 0.429550 -145.8
8.50000000 0.431061 -146.1 0.902302 -56.07 0.902302 -56.07 0.431042 -146.1
8.55000000 0.432537 -146.4 0.901602 -56.36 0.901602 -56.36 0.432520 -146.4
8.60000000 0.433999 -146.7 0.900904 -56.65 0.900904 -56.65 0.433984 -146.7
8.65000000 0.435447 -146.9 0.900209 -56.94 0.900209 -56.94 0.435435 -146.9
8.70000000 0.436881 -147.2 0.899517 -57.23 0.899517 -57.23 0.436872 -147.2
8.75000000 0.438303 -147.5 0.898826 -57.52 0.898826 -57.52 0.438296 -147.5
8.80000000 0.439710 -147.8 0.898139 -57.80 0.898139 -57.80 0.439707 -147.8
8.85000000 0.441104 -148.1 0.897453 -58.09 0.897453 -58.09 0.441104 -148.1
!< P1 F=8.85 Eeff=(6.43426912 -2.9653e-5) Z0=(28.1116066 6.47814e-5) R=0.00106683 C=0.07793683 
!< P2 F=8.85 Eeff=(6.43426912 -2.9653e-5) Z0=(28.1116066 6.47814e-5) R=0.00106683 C=0.07793683 
8.90000000 0.442485 -148.4 0.896771 -58.38 0.896771 -58.38 0.442488 -148.4
8.95000000 0.443853 -148.7 0.896092 -58.66 0.896092 -58.66 0.443860 -148.7
9.00000000 0.445208 -148.9 0.895418 -58.95 0.895418 -58.95 0.445218 -148.9
9.05000000 0.446550 -149.2 0.894747 -59.23 0.894747 -59.23 0.446564 -149.2
9.10000000 0.447879 -149.5 0.894081 -59.52 0.894081 -59.52 0.447897 -149.5
9.15000000 0.449195 -149.8 0.893419 -59.80 0.893419 -59.80 0.449217 -149.8
9.20000000 0.450499 -150.1 0.892761 -60.08 0.892761 -60.08 0.450524 -150.1
9.25000000 0.451790 -150.4 0.892108 -60.37 0.892108 -60.37 0.451818 -150.4
9.30000000 0.453068 -150.6 0.891459 -60.65 0.891459 -60.65 0.453100 -150.6
9.35000000 0.454333 -150.9 0.890814 -60.93 0.890814 -60.93 0.454370 -150.9
9.40000000 0.455585 -151.2 0.890173 -61.21 0.890173 -61.21 0.455626 -151.2
9.45000000 0.456825 -151.5 0.889538 -61.49 0.889538 -61.49 0.456870 -151.5
9.50000000 0.458052 -151.8 0.888906 -61.77 0.888906 -61.77 0.458102 -151.8
9.55000000 0.459267 -152.1 0.888280 -62.06 0.888280 -62.06 0.459320 -152.1
9.60000000 0.460469 -152.3 0.887658 -62.34 0.887658 -62.34 0.460527 -152.3
9.65000000 0.461658 -152.6 0.887040 -62.61 0.887040 -62.61 0.461720 -152.6
9.70000000 0.462835 -152.9 0.886428 -62.89 0.886428 -62.89 0.462902 -152.9
9.75000000 0.464000 -153.2 0.885820 -63.17 0.885820 -63.17 0.464070 -153.2
9.80000000 0.465151 -153.5 0.885217 -63.45 0.885217 -63.45 0.465227 -153.4
9.85000000 0.466291 -153.7 0.884619 -63.73 0.884619 -63.73 0.466371 -153.7
9.90000000 0.467418 -154.0 0.884026 -64.01 0.884026 -64.01 0.467502 -154.0
9.95000000 0.468532 -154.3 0.883438 -64.29 0.883438 -64.29 0.468621 -154.3
10.0000000 0.469634 -154.6 0.882855 -64.56 0.882855 -64.56 0.469728 -154.6
10.0500000 0.470724 -154.8 0.882277 -64.84 0.882277 -64.84 0.470822 -154.8
10.1000000 0.471802 -155.1 0.881705 -65.12 0.881705 -65.12 0.471904 -155.1
10.1500000 0.472867 -155.4 0.881137 -65.39 0.881137 -65.39 0.472974 -155.4
10.2000000 0.473920 -155.7 0.880575 -65.67 0.880575 -65.67 0.474032 -155.7
10.2500000 0.474960 -155.9 0.880017 -65.94 0.880017 -65.94 0.475077 -155.9
10.3000000 0.475989 -156.2 0.879466 -66.22 0.879466 -66.22 0.476110 -156.2
10.3500000 0.477005 -156.5 0.878919 -66.49 0.878919 -66.49 0.477131 -156.5
10.4000000 0.478009 -156.8 0.878378 -66.77 0.878378 -66.77 0.478139 -156.8
10.4500000 0.479000 -157.0 0.877842 -67.04 0.877842 -67.04 0.479136 -157.0
10.5000000 0.479980 -157.3 0.877312 -67.31 0.877312 -67.31 0.480120 -157.3
10.5500000 0.480948 -157.6 0.876787 -67.59 0.876787 -67.59 0.481092 -157.6
10.6000000 0.481903 -157.9 0.876268 -67.86 0.876268 -67.86 0.482052 -157.9
10.6500000 0.482846 -158.1 0.875754 -68.13 0.875754 -68.13 0.483000 -158.1
10.7000000 0.483778 -158.4 0.875246 -68.41 0.875246 -68.41 0.483936 -158.4
10.7500000 0.484697 -158.7 0.874744 -68.68 0.874744 -68.68 0.484859 -158.7
10.8000000 0.485604 -158.9 0.874247 -68.95 0.874247 -68.95 0.485771 -158.9
10.8500000 0.486499 -159.2 0.873756 -69.22 0.873756 -69.22 0.486671 -159.2
10.9000000 0.487382 -159.5 0.873270 -69.49 0.873270 -69.49 0.487558 -159.5
10.9500000 0.488254 -159.8 0.872790 -69.76 0.872790 -69.76 0.488434 -159.8
11.0000000 0.489113 -160.0 0.872316 -70.03 0.872316 -70.03 0.489297 -160.0
11.0500000 0.489960 -160.3 0.871848 -70.30 0.871848 -70.30 0.490149 -160.3
11.1000000 0.490796 -160.6 0.871386 -70.57 0.871386 -70.57 0.490989 -160.6
11.1500000 0.491619 -160.8 0.870929 -70.84 0.870929 -70.84 0.491816 -160.8
11.2000000 0.492431 -161.1 0.870479 -71.11 0.870479 -71.11 0.492632 -161.1
11.2500000 0.493231 -161.4 0.870034 -71.38 0.870034 -71.38 0.493436 -161.4
11.3000000 0.494019 -161.7 0.869595 -71.65 0.869595 -71.65 0.494228 -161.7
11.3500000 0.494795 -161.9 0.869163 -71.92 0.869163 -71.92 0.495008 -161.9
11.4000000 0.495560 -162.2 0.868736 -72.19 0.868736 -72.19 0.495776 -162.2
11.4500000 0.496312 -162.5 0.868315 -72.46 0.868315 -72.46 0.496532 -162.5
11.5000000 0.497053 -162.7 0.867900 -72.72 0.867900 -72.72 0.497276 -162.7
11.5500000 0.497782 -163.0 0.867491 -72.99 0.867491 -72.99 0.498008 -163.0
11.6000000 0.498499 -163.3 0.867088 -73.26 0.867088 -73.26 0.498729 -163.3
11.6500000 0.499205 -163.5 0.866692 -73.53 0.866692 -73.53 0.499437 -163.5
11.7000000 0.499899 -163.8 0.866301 -73.80 0.866301 -73.80 0.500134 -163.8
11.7500000 0.500581 -164.1 0.865917 -74.06 0.865917 -74.06 0.500819 -164.1
11.8000000 0.501251 -164.3 0.865538 -74.33 0.865538 -74.33 0.501492 -164.3
11.8500000 0.501910 -164.6 0.865166 -74.60 0.865166 -74.60 0.502153 -164.6
11.9000000 0.502557 -164.9 0.864800 -74.86 0.864800 -74.86 0.502803 -164.9
11.9500000 0.503192 -165.1 0.864440 -75.13 0.864440 -75.13 0.503440 -165.1
12.0000000 0.503815 -165.4 0.864087 -75.39 0.864087 -75.39 0.504066 -165.4
12.0500000 0.504427 -165.7 0.863739 -75.66 0.863739 -75.66 0.504680 -165.7
12.1000000 0.505027 -165.9 0.863398 -75.93 0.863398 -75.93 0.505282 -165.9
12.1500000 0.505616 -166.2 0.863063 -76.19 0.863063 -76.19 0.505873 -166.2
12.2000000 0.506193 -166.5 0.862734 -76.46 0.862734 -76.46 0.506451 -166.5
12.2500000 0.506758 -166.7 0.862412 -76.72 0.862412 -76.72 0.507018 -166.7
12.3000000 0.507311 -167.0 0.862095 -76.99 0.862095 -76.99 0.507572 -167.0
12.3500000 0.507853 -167.3 0.861786 -77.25 0.861786 -77.25 0.508115 -167.3
12.4000000 0.508384 -167.5 0.861482 -77.52 0.861482 -77.52 0.508647 -167.5
12.4500000 0.508902 -167.8 0.861184 -77.78 0.861184 -77.78 0.509166 -167.8
12.5000000 0.509409 -168.1 0.860893 -78.05 0.860893 -78.05 0.509674 -168.1
