! Sonnet Data File
! From: emgraph Version : 16.52
! From Emgraph Data: Waveguide
! Data File Written: 09/23/2017 22:00:07
!< HDATE 09/23/2017 12:12:08
!< MDATE 09/23/2017 21:35:28
# GHZ S MA R 50.00000
0.00000000 0.499977 180.00 0.499977 0.0000 0.499977 0.0000 0.499977 180.00
0.05000000 0.499999 179.94 0.500000 -0.169 0.500000 -0.169 0.499999 179.94
!< P1 F=0.05 Eeff=(8.423263e6 -22.588873) Z0=(0.00116061 -9.6185e-8) R=0.0 C=0.0 
!< P2 F=0.05 Eeff=(8.423263e6 -22.588873) Z0=(0.00116061 -9.6185e-8) R=0.0 C=0.0 
0.10000000 0.499995 179.87 0.499999 -0.338 0.499999 -0.338 0.499995 179.87
0.15000000 0.499989 179.81 0.499998 -0.507 0.499998 -0.507 0.499989 179.81
0.20000000 0.499980 179.74 0.499996 -0.677 0.499996 -0.677 0.499980 179.74
0.25000000 0.499968 179.68 0.499994 -0.846 0.499994 -0.846 0.499968 179.68
0.30000000 0.499953 179.61 0.499991 -1.015 0.499991 -1.015 0.499953 179.61
0.35000000 0.499936 179.55 0.499987 -1.184 0.499987 -1.184 0.499936 179.55
0.40000000 0.499916 179.48 0.499982 -1.353 0.499982 -1.353 0.499916 179.48
0.45000000 0.499893 179.42 0.499977 -1.523 0.499977 -1.523 0.499893 179.42
0.50000000 0.499867 179.35 0.499971 -1.692 0.499971 -1.692 0.499867 179.35
0.55000000 0.499839 179.29 0.499964 -1.861 0.499964 -1.861 0.499839 179.29
0.60000000 0.499808 179.22 0.499957 -2.030 0.499957 -2.030 0.499808 179.22
0.65000000 0.499774 179.16 0.499949 -2.199 0.499949 -2.199 0.499774 179.16
0.70000000 0.499738 179.09 0.499941 -2.368 0.499941 -2.368 0.499738 179.09
0.75000000 0.499699 179.03 0.499931 -2.538 0.499931 -2.538 0.499699 179.03
0.80000000 0.499657 178.97 0.499921 -2.707 0.499921 -2.707 0.499657 178.97
0.85000000 0.499612 178.90 0.499911 -2.876 0.499911 -2.876 0.499612 178.90
0.90000000 0.499565 178.84 0.499899 -3.045 0.499899 -3.045 0.499565 178.84
0.95000000 0.499515 178.77 0.499887 -3.214 0.499887 -3.214 0.499515 178.77
1.00000000 0.499463 178.71 0.499875 -3.383 0.499875 -3.383 0.499463 178.71
1.05000000 0.499407 178.64 0.499862 -3.552 0.499862 -3.552 0.499407 178.64
1.10000000 0.499349 178.58 0.499848 -3.721 0.499848 -3.721 0.499349 178.58
1.15000000 0.499289 178.51 0.499833 -3.890 0.499833 -3.890 0.499289 178.51
1.20000000 0.499225 178.45 0.499818 -4.059 0.499818 -4.059 0.499225 178.45
1.25000000 0.499159 178.39 0.499802 -4.228 0.499802 -4.228 0.499159 178.39
1.30000000 0.499090 178.32 0.499786 -4.397 0.499786 -4.397 0.499090 178.32
1.35000000 0.499019 178.26 0.499769 -4.566 0.499769 -4.566 0.499019 178.26
1.40000000 0.498945 178.19 0.499751 -4.735 0.499751 -4.735 0.498945 178.19
1.45000000 0.498868 178.13 0.499733 -4.904 0.499733 -4.904 0.498868 178.13
!< P1 F=1.45 Eeff=(884.213812 1.14767216) Z0=(0.54473332 0.05199276) R=0.0 C=0.0 
!< P2 F=1.45 Eeff=(884.213812 1.14767216) Z0=(0.54473332 0.05199276) R=0.0 C=0.0 
1.50000000 0.498789 178.07 0.499714 -5.073 0.499714 -5.073 0.498789 178.07
1.55000000 0.498707 178.00 0.499694 -5.242 0.499694 -5.242 0.498707 178.00
1.60000000 0.498622 177.94 0.499674 -5.411 0.499674 -5.411 0.498622 177.94
1.65000000 0.498534 177.87 0.499653 -5.580 0.499653 -5.580 0.498534 177.87
1.70000000 0.498444 177.81 0.499631 -5.749 0.499631 -5.749 0.498444 177.81
1.75000000 0.498352 177.75 0.499609 -5.918 0.499609 -5.918 0.498352 177.75
1.80000000 0.498256 177.68 0.499587 -6.087 0.499587 -6.087 0.498256 177.68
1.85000000 0.498158 177.62 0.499563 -6.256 0.499563 -6.256 0.498158 177.62
1.90000000 0.498058 177.55 0.499539 -6.424 0.499539 -6.424 0.498058 177.55
1.95000000 0.497954 177.49 0.499515 -6.593 0.499515 -6.593 0.497954 177.49
2.00000000 0.497849 177.43 0.499490 -6.762 0.499490 -6.762 0.497849 177.43
2.05000000 0.497740 177.36 0.499464 -6.931 0.499464 -6.931 0.497740 177.36
2.10000000 0.497629 177.30 0.499437 -7.100 0.499437 -7.100 0.497629 177.30
2.15000000 0.497515 177.24 0.499410 -7.269 0.499410 -7.269 0.497515 177.24
2.20000000 0.497399 177.17 0.499383 -7.437 0.499383 -7.437 0.497399 177.17
2.25000000 0.497280 177.11 0.499355 -7.606 0.499355 -7.606 0.497280 177.11
2.30000000 0.497158 177.05 0.499326 -7.775 0.499326 -7.775 0.497158 177.05
2.35000000 0.497034 176.98 0.499296 -7.943 0.499296 -7.943 0.497034 176.98
2.40000000 0.496907 176.92 0.499266 -8.112 0.499266 -8.112 0.496907 176.92
2.45000000 0.496778 176.86 0.499236 -8.281 0.499236 -8.281 0.496778 176.86
2.50000000 0.496646 176.79 0.499205 -8.450 0.499205 -8.450 0.496646 176.79
2.55000000 0.496511 176.73 0.499173 -8.618 0.499173 -8.618 0.496511 176.73
2.60000000 0.496374 176.67 0.499140 -8.787 0.499140 -8.787 0.496374 176.67
2.65000000 0.496234 176.60 0.499107 -8.955 0.499107 -8.955 0.496234 176.60
2.70000000 0.496091 176.54 0.499074 -9.124 0.499074 -9.124 0.496091 176.54
2.75000000 0.495946 176.48 0.499040 -9.293 0.499040 -9.293 0.495946 176.48
2.80000000 0.495799 176.42 0.499005 -9.461 0.499005 -9.461 0.495799 176.42
2.85000000 0.495649 176.35 0.498969 -9.630 0.498969 -9.630 0.495649 176.35
2.90000000 0.495496 176.29 0.498933 -9.798 0.498933 -9.798 0.495496 176.29
2.95000000 0.495341 176.23 0.498897 -9.967 0.498897 -9.967 0.495340 176.23
3.00000000 0.495183 176.16 0.498860 -10.14 0.498860 -10.14 0.495183 176.16
3.05000000 0.495022 176.10 0.498822 -10.30 0.498822 -10.30 0.495022 176.10
3.10000000 0.494859 176.04 0.498784 -10.47 0.498784 -10.47 0.494859 176.04
3.15000000 0.494694 175.98 0.498745 -10.64 0.498745 -10.64 0.494694 175.98
3.20000000 0.494525 175.92 0.498705 -10.81 0.498705 -10.81 0.494525 175.92
3.25000000 0.494355 175.85 0.498665 -10.98 0.498665 -10.98 0.494355 175.85
3.30000000 0.494181 175.79 0.498625 -11.15 0.498625 -11.15 0.494181 175.79
3.35000000 0.494006 175.73 0.498584 -11.31 0.498584 -11.31 0.494006 175.73
3.40000000 0.493827 175.67 0.498542 -11.48 0.498542 -11.48 0.493827 175.67
3.45000000 0.493647 175.61 0.498499 -11.65 0.498499 -11.65 0.493646 175.61
3.50000000 0.493463 175.54 0.498456 -11.82 0.498456 -11.82 0.493463 175.54
3.55000000 0.493277 175.48 0.498413 -11.99 0.498413 -11.99 0.493277 175.48
3.60000000 0.493089 175.42 0.498369 -12.16 0.498369 -12.16 0.493089 175.42
3.65000000 0.492898 175.36 0.498324 -12.32 0.498324 -12.32 0.492898 175.36
3.70000000 0.492704 175.30 0.498279 -12.49 0.498279 -12.49 0.492704 175.30
3.75000000 0.492508 175.24 0.498233 -12.66 0.498233 -12.66 0.492508 175.24
3.80000000 0.492310 175.17 0.498187 -12.83 0.498187 -12.83 0.492310 175.17
3.85000000 0.492109 175.11 0.498140 -13.00 0.498140 -13.00 0.492109 175.11
3.90000000 0.491905 175.05 0.498092 -13.16 0.498092 -13.16 0.491905 175.05
3.95000000 0.491699 174.99 0.498044 -13.33 0.498044 -13.33 0.491699 174.99
4.00000000 0.491491 174.93 0.497995 -13.50 0.497995 -13.50 0.491491 174.93
4.05000000 0.491280 174.87 0.497946 -13.67 0.497946 -13.67 0.491280 174.87
4.10000000 0.491066 174.81 0.497896 -13.84 0.497896 -13.84 0.491066 174.81
4.15000000 0.490850 174.75 0.497846 -14.00 0.497846 -14.00 0.490850 174.75
4.20000000 0.490632 174.69 0.497795 -14.17 0.497795 -14.17 0.490632 174.69
4.25000000 0.490411 174.63 0.497744 -14.34 0.497744 -14.34 0.490411 174.63
4.30000000 0.490188 174.57 0.497692 -14.51 0.497692 -14.51 0.490188 174.57
4.35000000 0.489962 174.51 0.497639 -14.68 0.497639 -14.68 0.489962 174.51
4.40000000 0.489733 174.45 0.497586 -14.84 0.497586 -14.84 0.489733 174.45
4.45000000 0.489503 174.39 0.497532 -15.01 0.497532 -15.01 0.489503 174.39
4.50000000 0.489270 174.33 0.497478 -15.18 0.497478 -15.18 0.489270 174.33
4.55000000 0.489034 174.27 0.497423 -15.35 0.497423 -15.35 0.489034 174.27
4.60000000 0.488796 174.21 0.497368 -15.52 0.497368 -15.52 0.488796 174.21
4.65000000 0.488555 174.15 0.497312 -15.68 0.497312 -15.68 0.488555 174.15
4.70000000 0.488313 174.09 0.497255 -15.85 0.497255 -15.85 0.488313 174.09
4.75000000 0.488067 174.03 0.497198 -16.02 0.497198 -16.02 0.488067 174.03
4.80000000 0.487820 173.97 0.497141 -16.19 0.497141 -16.19 0.487820 173.97
4.85000000 0.487569 173.91 0.497083 -16.35 0.497083 -16.35 0.487569 173.91
4.90000000 0.487317 173.85 0.497024 -16.52 0.497024 -16.52 0.487317 173.85
4.95000000 0.487062 173.79 0.496965 -16.69 0.496965 -16.69 0.487062 173.79
5.00000000 0.486805 173.73 0.496905 -16.86 0.496905 -16.86 0.486805 173.73
5.05000000 0.486545 173.68 0.496845 -17.02 0.496845 -17.02 0.486545 173.68
5.10000000 0.486283 173.62 0.496784 -17.19 0.496784 -17.19 0.486283 173.62
5.15000000 0.486019 173.56 0.496723 -17.36 0.496723 -17.36 0.486019 173.56
5.20000000 0.485752 173.50 0.496661 -17.53 0.496661 -17.53 0.485752 173.50
5.25000000 0.485483 173.44 0.496598 -17.69 0.496598 -17.69 0.485483 173.44
5.30000000 0.485211 173.38 0.496535 -17.86 0.496535 -17.86 0.485211 173.38
5.35000000 0.484937 173.33 0.496472 -18.03 0.496472 -18.03 0.484937 173.33
5.40000000 0.484661 173.27 0.496408 -18.19 0.496408 -18.19 0.484661 173.27
5.45000000 0.484383 173.21 0.496343 -18.36 0.496343 -18.36 0.484383 173.21
5.50000000 0.484102 173.15 0.496278 -18.53 0.496278 -18.53 0.484102 173.15
5.55000000 0.483819 173.10 0.496213 -18.70 0.496213 -18.70 0.483819 173.10
5.60000000 0.483533 173.04 0.496147 -18.86 0.496147 -18.86 0.483533 173.04
5.65000000 0.483246 172.98 0.496080 -19.03 0.496080 -19.03 0.483246 172.98
5.70000000 0.482956 172.92 0.496013 -19.20 0.496013 -19.20 0.482956 172.92
5.75000000 0.482663 172.87 0.495945 -19.36 0.495945 -19.36 0.482663 172.87
5.80000000 0.482369 172.81 0.495877 -19.53 0.495877 -19.53 0.482369 172.81
5.85000000 0.482072 172.75 0.495808 -19.70 0.495808 -19.70 0.482072 172.75
5.90000000 0.481773 172.70 0.495739 -19.86 0.495739 -19.86 0.481773 172.70
5.95000000 0.481474 172.64 0.495671 -20.03 0.495671 -20.03 0.481474 172.64
!< P1 F=5.95 Eeff=(undefined: bd) Z0=(undefined: bd) R=0.0 C=0.0 
!< P2 F=5.95 Eeff=(undefined: bd) Z0=(undefined: bd) R=0.0 C=0.0 
6.00000000 0.481168 172.58 0.495599 -20.20 0.495599 -20.20 0.481168 172.58
6.05000000 0.480862 172.53 0.495529 -20.37 0.495529 -20.37 0.480862 172.53
6.10000000 0.480554 172.47 0.495458 -20.53 0.495458 -20.53 0.480554 172.47
6.15000000 0.480244 172.42 0.495386 -20.70 0.495386 -20.70 0.480244 172.42
6.20000000 0.479932 172.36 0.495314 -20.87 0.495314 -20.87 0.479932 172.36
6.25000000 0.479617 172.31 0.495242 -21.03 0.495242 -21.03 0.479617 172.31
6.30000000 0.479301 172.25 0.495169 -21.20 0.495169 -21.20 0.479301 172.25
6.35000000 0.478982 172.20 0.495095 -21.36 0.495095 -21.36 0.478982 172.20
6.40000000 0.478661 172.14 0.495022 -21.53 0.495022 -21.53 0.478661 172.14
6.45000000 0.478338 172.09 0.494947 -21.70 0.494947 -21.70 0.478338 172.09
6.50000000 0.478013 172.03 0.494873 -21.86 0.494873 -21.86 0.478013 172.03
6.55000000 0.477686 171.98 0.494797 -22.03 0.494797 -22.03 0.477686 171.98
6.60000000 0.477356 171.92 0.494722 -22.20 0.494722 -22.20 0.477356 171.92
6.65000000 0.477025 171.87 0.494646 -22.36 0.494646 -22.36 0.477025 171.87
6.70000000 0.476691 171.81 0.494569 -22.53 0.494569 -22.53 0.476691 171.81
6.75000000 0.476356 171.76 0.494492 -22.69 0.494492 -22.69 0.476356 171.76
6.80000000 0.476018 171.71 0.494415 -22.86 0.494415 -22.86 0.476018 171.71
6.85000000 0.475678 171.65 0.494337 -23.03 0.494337 -23.03 0.475678 171.65
6.90000000 0.475336 171.60 0.494259 -23.19 0.494259 -23.19 0.475336 171.60
6.95000000 0.474993 171.55 0.494180 -23.36 0.494180 -23.36 0.474993 171.55
7.00000000 0.474647 171.49 0.494101 -23.52 0.494101 -23.52 0.474647 171.49
7.05000000 0.474299 171.44 0.494022 -23.69 0.494022 -23.69 0.474299 171.44
7.10000000 0.473949 171.39 0.493942 -23.86 0.493942 -23.86 0.473949 171.39
7.15000000 0.473597 171.34 0.493862 -24.02 0.493862 -24.02 0.473597 171.34
7.20000000 0.473243 171.28 0.493781 -24.19 0.493781 -24.19 0.473243 171.28
7.25000000 0.472887 171.23 0.493700 -24.35 0.493700 -24.35 0.472887 171.23
7.30000000 0.472529 171.18 0.493618 -24.52 0.493618 -24.52 0.472529 171.18
7.35000000 0.472169 171.13 0.493536 -24.68 0.493536 -24.68 0.472169 171.13
7.40000000 0.471807 171.08 0.493454 -24.85 0.493454 -24.85 0.471807 171.08
7.45000000 0.471443 171.03 0.493371 -25.02 0.493371 -25.02 0.471443 171.03
7.50000000 0.471077 170.97 0.493288 -25.18 0.493288 -25.18 0.471077 170.97
7.55000000 0.470709 170.92 0.493204 -25.35 0.493204 -25.35 0.470709 170.92
7.60000000 0.470339 170.87 0.493120 -25.51 0.493120 -25.51 0.470339 170.87
7.65000000 0.469968 170.82 0.493036 -25.68 0.493036 -25.68 0.469968 170.82
7.70000000 0.469594 170.77 0.492951 -25.84 0.492951 -25.84 0.469594 170.77
7.75000000 0.469218 170.72 0.492866 -26.01 0.492866 -26.01 0.469218 170.72
7.80000000 0.468841 170.67 0.492780 -26.17 0.492780 -26.17 0.468841 170.67
7.85000000 0.468462 170.62 0.492694 -26.34 0.492694 -26.34 0.468462 170.62
7.90000000 0.468080 170.57 0.492608 -26.50 0.492608 -26.50 0.468080 170.57
7.95000000 0.467697 170.52 0.492521 -26.67 0.492521 -26.67 0.467697 170.52
8.00000000 0.467312 170.47 0.492434 -26.83 0.492434 -26.83 0.467312 170.47
8.05000000 0.466925 170.42 0.492347 -27.00 0.492347 -27.00 0.466925 170.42
8.10000000 0.466536 170.37 0.492259 -27.16 0.492259 -27.16 0.466536 170.37
8.15000000 0.466146 170.33 0.492171 -27.33 0.492171 -27.33 0.466146 170.33
8.20000000 0.465753 170.28 0.492082 -27.49 0.492082 -27.49 0.465753 170.28
8.25000000 0.465359 170.23 0.491993 -27.66 0.491993 -27.66 0.465359 170.23
8.30000000 0.464962 170.18 0.491904 -27.82 0.491904 -27.82 0.464962 170.18
8.35000000 0.464564 170.13 0.491814 -27.98 0.491814 -27.98 0.464564 170.13
8.40000000 0.464165 170.09 0.491724 -28.15 0.491724 -28.15 0.464165 170.09
8.45000000 0.463763 170.04 0.491633 -28.31 0.491633 -28.31 0.463763 170.04
8.50000000 0.463359 169.99 0.491542 -28.48 0.491542 -28.48 0.463359 169.99
8.55000000 0.462954 169.94 0.491451 -28.64 0.491451 -28.64 0.462954 169.94
8.60000000 0.462547 169.90 0.491360 -28.81 0.491360 -28.81 0.462547 169.90
8.65000000 0.462138 169.85 0.491268 -28.97 0.491268 -28.97 0.462138 169.85
8.70000000 0.461727 169.80 0.491175 -29.13 0.491175 -29.13 0.461727 169.80
8.75000000 0.461315 169.76 0.491083 -29.30 0.491083 -29.30 0.461315 169.76
8.80000000 0.460901 169.71 0.490989 -29.46 0.490989 -29.46 0.460901 169.71
8.85000000 0.460485 169.67 0.490896 -29.63 0.490896 -29.63 0.460485 169.67
8.90000000 0.460067 169.62 0.490802 -29.79 0.490802 -29.79 0.460067 169.62
8.95000000 0.459648 169.57 0.490708 -29.95 0.490708 -29.95 0.459648 169.57
9.00000000 0.459226 169.53 0.490613 -30.12 0.490613 -30.12 0.459227 169.53
9.05000000 0.458804 169.48 0.490518 -30.28 0.490518 -30.28 0.458804 169.48
9.10000000 0.458379 169.44 0.490423 -30.45 0.490423 -30.45 0.458379 169.44
9.15000000 0.457953 169.40 0.490328 -30.61 0.490328 -30.61 0.457953 169.40
9.20000000 0.457524 169.35 0.490232 -30.77 0.490232 -30.77 0.457524 169.35
9.25000000 0.457095 169.31 0.490135 -30.94 0.490135 -30.94 0.457095 169.31
9.30000000 0.456663 169.26 0.490038 -31.10 0.490038 -31.10 0.456663 169.26
9.35000000 0.456230 169.22 0.489941 -31.26 0.489941 -31.26 0.456230 169.22
9.40000000 0.455795 169.18 0.489844 -31.43 0.489844 -31.43 0.455795 169.18
9.45000000 0.455359 169.13 0.489746 -31.59 0.489746 -31.59 0.455359 169.13
9.50000000 0.454920 169.09 0.489648 -31.75 0.489648 -31.75 0.454921 169.09
9.55000000 0.454481 169.05 0.489549 -31.92 0.489549 -31.92 0.454481 169.05
9.60000000 0.454039 169.01 0.489451 -32.08 0.489451 -32.08 0.454039 169.01
9.65000000 0.453596 168.96 0.489351 -32.24 0.489351 -32.24 0.453596 168.96
9.70000000 0.453132 168.92 0.489234 -32.41 0.489234 -32.41 0.453132 168.92
!< P1 F=9.7 Eeff=(7.0285491 0.11344798) Z0=(0.44062952 0.08225796) R=0.0 C=0.0 
!< P2 F=9.7 Eeff=(7.0285491 0.11344798) Z0=(0.44062952 0.08225796) R=0.0 C=0.0 
9.75000000 0.452705 168.88 0.489152 -32.57 0.489152 -32.57 0.452705 168.88
9.80000000 0.452257 168.84 0.489052 -32.73 0.489052 -32.73 0.452257 168.84
9.85000000 0.451807 168.80 0.488951 -32.90 0.488951 -32.90 0.451807 168.80
9.90000000 0.451356 168.76 0.488850 -33.06 0.488850 -33.06 0.451356 168.76
9.95000000 0.450904 168.72 0.488749 -33.22 0.488749 -33.22 0.450904 168.72
10.0000000 0.450450 168.68 0.488648 -33.38 0.488648 -33.38 0.450450 168.68
10.0500000 0.449994 168.63 0.488546 -33.55 0.488546 -33.55 0.449994 168.63
10.1000000 0.449537 168.59 0.488444 -33.71 0.488444 -33.71 0.449537 168.59
10.1500000 0.449079 168.56 0.488342 -33.87 0.488342 -33.87 0.449079 168.56
10.2000000 0.448619 168.52 0.488239 -34.04 0.488239 -34.04 0.448619 168.52
10.2500000 0.448158 168.48 0.488137 -34.20 0.488137 -34.20 0.448158 168.48
10.3000000 0.447695 168.44 0.488033 -34.36 0.488033 -34.36 0.447695 168.44
10.3500000 0.447231 168.40 0.487930 -34.52 0.487930 -34.52 0.447231 168.40
10.4000000 0.446765 168.36 0.487827 -34.69 0.487827 -34.69 0.446765 168.36
10.4500000 0.446298 168.32 0.487723 -34.85 0.487723 -34.85 0.446298 168.32
10.5000000 0.445830 168.28 0.487619 -35.01 0.487619 -35.01 0.445830 168.28
10.5500000 0.445360 168.25 0.487514 -35.17 0.487514 -35.17 0.445360 168.25
10.6000000 0.444889 168.21 0.487410 -35.33 0.487410 -35.33 0.444889 168.21
10.6500000 0.444417 168.17 0.487305 -35.50 0.487305 -35.50 0.444417 168.17
10.7000000 0.443943 168.14 0.487200 -35.66 0.487200 -35.66 0.443943 168.14
10.7500000 0.443468 168.10 0.487095 -35.82 0.487095 -35.82 0.443468 168.10
10.8000000 0.442991 168.06 0.486989 -35.98 0.486989 -35.98 0.442992 168.06
10.8500000 0.442514 168.03 0.486884 -36.14 0.486884 -36.14 0.442514 168.03
10.9000000 0.442035 167.99 0.486778 -36.31 0.486778 -36.31 0.442035 167.99
10.9500000 0.441555 167.95 0.486672 -36.47 0.486672 -36.47 0.441555 167.95
11.0000000 0.441073 167.92 0.486565 -36.63 0.486565 -36.63 0.441073 167.92
11.0500000 0.440590 167.88 0.486459 -36.79 0.486459 -36.79 0.440590 167.88
11.1000000 0.440106 167.85 0.486352 -36.95 0.486352 -36.95 0.440106 167.85
11.1500000 0.439621 167.82 0.486245 -37.11 0.486245 -37.11 0.439621 167.82
11.2000000 0.439134 167.78 0.486138 -37.28 0.486138 -37.28 0.439135 167.78
11.2500000 0.438647 167.75 0.486030 -37.44 0.486030 -37.44 0.438647 167.75
11.3000000 0.438158 167.71 0.485923 -37.60 0.485923 -37.60 0.438158 167.71
11.3500000 0.437668 167.68 0.485815 -37.76 0.485815 -37.76 0.437668 167.68
11.4000000 0.437177 167.65 0.485707 -37.92 0.485707 -37.92 0.437177 167.65
11.4500000 0.436684 167.61 0.485599 -38.08 0.485599 -38.08 0.436684 167.61
11.5000000 0.436191 167.58 0.485491 -38.24 0.485491 -38.24 0.436191 167.58
11.5500000 0.435696 167.55 0.485382 -38.40 0.485382 -38.40 0.435696 167.55
11.6000000 0.435200 167.52 0.485274 -38.57 0.485274 -38.57 0.435201 167.52
11.6500000 0.434704 167.49 0.485165 -38.73 0.485165 -38.73 0.434704 167.49
11.7000000 0.434206 167.45 0.485056 -38.89 0.485056 -38.89 0.434206 167.45
11.7500000 0.433706 167.42 0.484947 -39.05 0.484947 -39.05 0.433707 167.42
11.8000000 0.433206 167.39 0.484837 -39.21 0.484837 -39.21 0.433207 167.39
11.8500000 0.432705 167.36 0.484728 -39.37 0.484728 -39.37 0.432705 167.36
11.9000000 0.432203 167.33 0.484618 -39.53 0.484618 -39.53 0.432203 167.33
11.9500000 0.431700 167.30 0.484509 -39.69 0.484509 -39.69 0.431700 167.30
12.0000000 0.431195 167.27 0.484399 -39.85 0.484399 -39.85 0.431196 167.27
12.0500000 0.430690 167.24 0.484289 -40.01 0.484289 -40.01 0.430690 167.24
12.1000000 0.430184 167.21 0.484178 -40.17 0.484178 -40.17 0.430184 167.21
12.1500000 0.429677 167.19 0.484068 -40.33 0.484068 -40.33 0.429677 167.19
12.2000000 0.429168 167.16 0.483958 -40.49 0.483958 -40.49 0.429169 167.16
12.2500000 0.428659 167.13 0.483847 -40.65 0.483847 -40.65 0.428659 167.13
12.3000000 0.428149 167.10 0.483737 -40.81 0.483737 -40.81 0.428149 167.10
12.3500000 0.427638 167.07 0.483626 -40.97 0.483626 -40.97 0.427638 167.07
12.4000000 0.427126 167.05 0.483515 -41.13 0.483515 -41.13 0.427126 167.05
12.4500000 0.426613 167.02 0.483404 -41.29 0.483404 -41.29 0.426613 167.02
12.5000000 0.426099 166.99 0.483293 -41.45 0.483293 -41.45 0.426100 166.99
12.5500000 0.425585 166.97 0.483181 -41.61 0.483181 -41.61 0.425585 166.97
12.6000000 0.425069 166.94 0.483070 -41.77 0.483070 -41.77 0.425070 166.94
12.6500000 0.424553 166.92 0.482959 -41.93 0.482959 -41.93 0.424553 166.92
12.7000000 0.424036 166.89 0.482847 -42.09 0.482847 -42.09 0.424036 166.89
