! Sonnet Data File
! From: emgraph Version : 16.52
! From Emgraph Data: Waveguide2
! Data File Written: 09/24/2017 16:31:35
!< HDATE 09/24/2017 16:24:41
!< MDATE 09/24/2017 16:25:01
!< PARAMS
!< hWid = 5.0
!< gap = 6.0
!< Pwid = 145.0
!< END PARAMS
# GHZ S MA R 50.00000
0.00000000 1.0e-100 -90.00 0.999963 0.0000 0.999963 0.0000 1.0e-100 -90.00
0.05000000 0.003292 -90.36 0.999995 -0.357 0.999995 -0.357 0.003292 -90.36
!< P1 F=0.05 Eeff=(6.41790147 -2.9579e-5) Z0=(27.8752548 6.41953e-5) R=0.18454938 C=0.07688572 
!< P2 F=0.05 Eeff=(6.41790147 -2.9579e-5) Z0=(27.8752548 6.41953e-5) R=0.18454938 C=0.07688572 
0.10000000 0.006558 -90.70 0.999976 -0.715 0.999976 -0.715 0.006559 -90.70
0.15000000 0.009825 -91.05 0.999947 -1.074 0.999947 -1.074 0.009827 -91.05
0.20000000 0.013094 -91.41 0.999908 -1.432 0.999908 -1.432 0.013097 -91.41
0.25000000 0.016364 -91.77 0.999858 -1.790 0.999858 -1.790 0.016368 -91.76
0.30000000 0.019635 -92.12 0.999798 -2.148 0.999798 -2.148 0.019639 -92.12
0.35000000 0.022906 -92.48 0.999727 -2.506 0.999727 -2.506 0.022910 -92.48
0.40000000 0.026177 -92.84 0.999646 -2.864 0.999646 -2.864 0.026181 -92.84
0.45000000 0.029448 -93.20 0.999555 -3.221 0.999555 -3.221 0.029452 -93.20
0.50000000 0.032718 -93.56 0.999453 -3.579 0.999453 -3.579 0.032721 -93.56
0.55000000 0.035986 -93.92 0.999342 -3.936 0.999342 -3.936 0.035990 -93.92
0.60000000 0.039254 -94.28 0.999220 -4.293 0.999220 -4.293 0.039256 -94.28
0.65000000 0.042519 -94.64 0.999087 -4.650 0.999087 -4.650 0.042521 -94.64
0.70000000 0.045782 -95.00 0.998945 -5.007 0.998945 -5.007 0.045784 -95.00
0.75000000 0.049042 -95.36 0.998792 -5.364 0.998792 -5.364 0.049043 -95.36
0.80000000 0.052300 -95.72 0.998629 -5.721 0.998629 -5.721 0.052300 -95.72
0.85000000 0.055554 -96.08 0.998455 -6.078 0.998455 -6.078 0.055554 -96.08
!< P1 F=0.85 Eeff=(6.43730598 -2.9682e-5) Z0=(27.9171821 6.43443e-5) R=0.01124235 C=0.07688561 
!< P2 F=0.85 Eeff=(6.43730598 -2.9682e-5) Z0=(27.9171821 6.43443e-5) R=0.01124235 C=0.07688561 
0.90000000 0.058805 -96.44 0.998271 -6.434 0.998271 -6.434 0.058804 -96.44
0.95000000 0.062052 -96.80 0.998077 -6.791 0.998077 -6.791 0.062051 -96.80
1.00000000 0.065295 -97.15 0.997873 -7.147 0.997873 -7.147 0.065293 -97.15
1.05000000 0.068533 -97.51 0.997658 -7.503 0.997658 -7.503 0.068531 -97.51
1.10000000 0.071767 -97.87 0.997432 -7.859 0.997432 -7.859 0.071765 -97.87
1.15000000 0.074997 -98.23 0.997196 -8.215 0.997196 -8.215 0.074994 -98.23
1.20000000 0.078221 -98.58 0.996950 -8.571 0.996950 -8.571 0.078218 -98.58
1.25000000 0.081440 -98.94 0.996693 -8.927 0.996693 -8.927 0.081437 -98.94
1.30000000 0.084654 -99.29 0.996426 -9.282 0.996426 -9.282 0.084651 -99.29
1.35000000 0.087863 -99.65 0.996148 -9.637 0.996148 -9.637 0.087860 -99.65
1.40000000 0.091065 -100.0 0.995860 -9.993 0.995860 -9.993 0.091062 -100.0
1.45000000 0.094262 -100.4 0.995561 -10.35 0.995561 -10.35 0.094260 -100.4
1.50000000 0.097453 -100.7 0.995253 -10.70 0.995253 -10.70 0.097451 -100.7
1.55000000 0.100638 -101.1 0.994933 -11.06 0.994933 -11.06 0.100636 -101.1
1.60000000 0.103816 -101.4 0.994604 -11.41 0.994604 -11.41 0.103815 -101.4
1.65000000 0.106988 -101.8 0.994264 -11.77 0.994264 -11.77 0.106987 -101.8
1.70000000 0.110153 -102.1 0.993914 -12.12 0.993914 -12.12 0.110153 -102.1
!< P1 F=1.7 Eeff=(6.43743897 -2.9672e-5) Z0=(27.9169221 6.43443e-5) R=0.00562096 C=0.07688538 
!< P2 F=1.7 Eeff=(6.43743897 -2.9672e-5) Z0=(27.9169221 6.43443e-5) R=0.00562096 C=0.07688538 
1.75000000 0.113313 -102.5 0.993553 -12.47 0.993553 -12.47 0.113314 -102.5
1.80000000 0.116468 -102.8 0.993179 -12.83 0.993179 -12.83 0.116470 -102.8
1.85000000 0.119618 -103.2 0.992794 -13.18 0.992794 -13.18 0.119621 -103.2
1.90000000 0.122763 -103.5 0.992398 -13.53 0.992398 -13.53 0.122767 -103.5
1.95000000 0.125902 -103.9 0.991991 -13.88 0.991991 -13.88 0.125907 -103.9
2.00000000 0.129036 -104.2 0.991573 -14.23 0.991573 -14.23 0.129042 -104.2
2.05000000 0.132164 -104.5 0.991146 -14.59 0.991146 -14.59 0.132172 -104.5
2.10000000 0.135287 -104.9 0.990709 -14.94 0.990709 -14.94 0.135295 -104.9
2.15000000 0.138403 -105.2 0.990263 -15.29 0.990263 -15.29 0.138413 -105.2
2.20000000 0.141512 -105.6 0.989808 -15.64 0.989808 -15.64 0.141524 -105.6
2.25000000 0.144615 -105.9 0.989345 -15.99 0.989345 -15.99 0.144628 -105.9
2.30000000 0.147711 -106.3 0.988873 -16.34 0.988873 -16.34 0.147726 -106.3
2.35000000 0.150800 -106.6 0.988393 -16.69 0.988393 -16.69 0.150816 -106.6
2.40000000 0.153881 -107.0 0.987906 -17.03 0.987906 -17.03 0.153898 -107.0
2.45000000 0.156954 -107.3 0.987411 -17.38 0.987411 -17.38 0.156973 -107.3
2.50000000 0.160019 -107.7 0.986909 -17.73 0.986909 -17.73 0.160039 -107.7
2.55000000 0.163075 -108.0 0.986399 -18.08 0.986399 -18.08 0.163097 -108.0
2.60000000 0.166123 -108.3 0.985883 -18.43 0.985883 -18.43 0.166146 -108.3
2.65000000 0.169162 -108.7 0.985361 -18.77 0.985361 -18.77 0.169187 -108.7
2.70000000 0.172191 -109.0 0.984831 -19.12 0.984831 -19.12 0.172218 -109.0
2.75000000 0.175211 -109.4 0.984296 -19.47 0.984296 -19.47 0.175239 -109.4
2.80000000 0.178221 -109.7 0.983754 -19.81 0.983754 -19.81 0.178250 -109.7
2.85000000 0.181221 -110.1 0.983206 -20.16 0.983206 -20.16 0.181251 -110.1
2.90000000 0.184210 -110.4 0.982652 -20.50 0.982652 -20.50 0.184242 -110.4
2.95000000 0.187189 -110.8 0.982091 -20.85 0.982091 -20.85 0.187222 -110.8
3.00000000 0.190157 -111.1 0.981526 -21.19 0.981526 -21.19 0.190191 -111.1
3.05000000 0.193114 -111.5 0.980954 -21.53 0.980954 -21.53 0.193149 -111.5
3.10000000 0.196060 -111.8 0.980377 -21.88 0.980377 -21.88 0.196096 -111.8
3.15000000 0.198994 -112.2 0.979794 -22.22 0.979794 -22.22 0.199031 -112.2
3.20000000 0.201916 -112.5 0.979205 -22.56 0.979205 -22.56 0.201954 -112.5
3.25000000 0.204826 -112.8 0.978611 -22.91 0.978611 -22.91 0.204865 -112.9
3.30000000 0.207725 -113.2 0.978011 -23.25 0.978011 -23.25 0.207763 -113.2
3.35000000 0.210610 -113.5 0.977406 -23.59 0.977406 -23.59 0.210650 -113.5
3.40000000 0.213484 -113.9 0.976795 -23.93 0.976795 -23.93 0.213523 -113.9
3.45000000 0.216344 -114.2 0.976179 -24.27 0.976179 -24.27 0.216384 -114.2
3.50000000 0.219192 -114.6 0.975558 -24.61 0.975558 -24.61 0.219232 -114.6
3.55000000 0.222027 -114.9 0.974931 -24.95 0.974931 -24.95 0.222067 -114.9
3.60000000 0.224849 -115.3 0.974298 -25.29 0.974298 -25.29 0.224889 -115.3
3.65000000 0.227657 -115.6 0.973661 -25.63 0.973661 -25.63 0.227697 -115.6
3.70000000 0.230453 -115.9 0.973018 -25.97 0.973018 -25.97 0.230492 -116.0
3.75000000 0.233234 -116.3 0.972369 -26.31 0.972369 -26.31 0.233273 -116.3
3.80000000 0.236003 -116.6 0.971715 -26.65 0.971715 -26.65 0.236041 -116.6
3.85000000 0.238757 -117.0 0.971056 -26.99 0.971056 -26.99 0.238795 -117.0
3.90000000 0.241498 -117.3 0.970391 -27.33 0.970391 -27.33 0.241535 -117.3
3.95000000 0.244225 -117.7 0.969721 -27.67 0.969721 -27.67 0.244261 -117.7
4.00000000 0.246939 -118.0 0.969046 -28.00 0.969046 -28.00 0.246973 -118.0
4.05000000 0.249638 -118.3 0.968365 -28.34 0.968365 -28.34 0.249671 -118.3
4.10000000 0.252324 -118.7 0.967679 -28.68 0.967679 -28.68 0.252356 -118.7
4.15000000 0.254995 -119.0 0.966987 -29.01 0.966987 -29.01 0.255026 -119.0
4.20000000 0.257653 -119.4 0.966290 -29.35 0.966290 -29.35 0.257682 -119.4
4.25000000 0.260297 -119.7 0.965588 -29.68 0.965588 -29.68 0.260324 -119.7
4.30000000 0.262926 -120.0 0.964880 -30.02 0.964880 -30.02 0.262952 -120.0
4.35000000 0.265542 -120.4 0.964167 -30.35 0.964167 -30.35 0.265565 -120.4
4.40000000 0.268143 -120.7 0.963449 -30.68 0.963449 -30.68 0.268165 -120.7
4.45000000 0.270731 -121.0 0.962725 -31.02 0.962725 -31.02 0.270750 -121.0
4.50000000 0.273305 -121.4 0.961996 -31.35 0.961996 -31.35 0.273322 -121.4
4.55000000 0.275864 -121.7 0.961261 -31.68 0.961261 -31.68 0.275879 -121.7
4.60000000 0.278410 -122.0 0.960521 -32.02 0.960521 -32.02 0.278422 -122.0
4.65000000 0.280942 -122.4 0.959776 -32.35 0.959776 -32.35 0.280952 -122.4
4.70000000 0.283460 -122.7 0.959026 -32.68 0.959026 -32.68 0.283467 -122.7
4.75000000 0.285964 -123.0 0.958270 -33.01 0.958270 -33.01 0.285969 -123.0
4.80000000 0.288454 -123.3 0.957509 -33.34 0.957509 -33.34 0.288457 -123.3
4.85000000 0.290931 -123.7 0.956742 -33.67 0.956742 -33.67 0.290931 -123.7
!< P1 F=4.85 Eeff=(6.43861396 -2.9677e-5) Z0=(27.914271 6.43514e-5) R=0.00197016 C=0.07688326 
!< P2 F=4.85 Eeff=(6.43861396 -2.9677e-5) Z0=(27.914271 6.43514e-5) R=0.00197016 C=0.07688326 
4.90000000 0.293394 -124.0 0.955971 -34.00 0.955971 -34.00 0.293392 -124.0
4.95000000 0.295845 -124.3 0.955197 -34.33 0.955197 -34.33 0.295840 -124.3
5.00000000 0.298283 -124.6 0.954420 -34.66 0.954420 -34.66 0.298275 -124.6
5.05000000 0.300709 -125.0 0.953640 -34.98 0.953640 -34.98 0.300698 -125.0
5.10000000 0.303122 -125.3 0.952857 -35.31 0.952857 -35.31 0.303109 -125.3
5.15000000 0.305522 -125.6 0.952072 -35.64 0.952072 -35.64 0.305506 -125.6
5.20000000 0.307910 -125.9 0.951284 -35.96 0.951284 -35.96 0.307891 -125.9
5.25000000 0.310285 -126.3 0.950494 -36.29 0.950494 -36.29 0.310264 -126.3
5.30000000 0.312647 -126.6 0.949702 -36.61 0.949702 -36.61 0.312623 -126.6
5.35000000 0.314996 -126.9 0.948908 -36.94 0.948908 -36.94 0.314970 -126.9
5.40000000 0.317332 -127.2 0.948111 -37.26 0.948111 -37.26 0.317304 -127.2
5.45000000 0.319656 -127.5 0.947314 -37.58 0.947314 -37.58 0.319625 -127.5
5.50000000 0.321967 -127.9 0.946515 -37.91 0.946515 -37.91 0.321934 -127.9
5.55000000 0.324265 -128.2 0.945714 -38.23 0.945714 -38.23 0.324229 -128.2
5.60000000 0.326549 -128.5 0.944912 -38.55 0.944912 -38.55 0.326512 -128.5
5.65000000 0.328821 -128.8 0.944109 -38.87 0.944109 -38.87 0.328782 -128.8
5.70000000 0.331080 -129.1 0.943305 -39.19 0.943305 -39.19 0.331039 -129.1
5.75000000 0.333326 -129.5 0.942500 -39.51 0.942500 -39.51 0.333283 -129.5
5.80000000 0.335559 -129.8 0.941695 -39.83 0.941695 -39.83 0.335514 -129.8
5.85000000 0.337779 -130.1 0.940889 -40.15 0.940889 -40.15 0.337732 -130.1
5.90000000 0.339985 -130.4 0.940082 -40.46 0.940082 -40.46 0.339937 -130.4
5.95000000 0.342179 -130.7 0.939276 -40.78 0.939276 -40.78 0.342128 -130.7
6.00000000 0.344359 -131.0 0.938469 -41.10 0.938469 -41.10 0.344307 -131.0
6.05000000 0.346526 -131.4 0.937662 -41.41 0.937662 -41.41 0.346473 -131.3
6.10000000 0.348680 -131.7 0.936855 -41.73 0.936855 -41.73 0.348625 -131.7
6.15000000 0.350820 -132.0 0.936048 -42.04 0.936048 -42.04 0.350765 -132.0
6.20000000 0.352948 -132.3 0.935242 -42.36 0.935242 -42.36 0.352891 -132.3
6.25000000 0.355062 -132.6 0.934436 -42.67 0.934436 -42.67 0.355004 -132.6
6.30000000 0.357162 -132.9 0.933630 -42.98 0.933630 -42.98 0.357103 -132.9
6.35000000 0.359250 -133.2 0.932826 -43.29 0.932826 -43.29 0.359190 -133.2
6.40000000 0.361323 -133.5 0.932021 -43.61 0.932021 -43.61 0.361263 -133.5
6.45000000 0.363384 -133.9 0.931218 -43.92 0.931218 -43.92 0.363322 -133.8
6.50000000 0.365431 -134.2 0.930416 -44.23 0.930416 -44.23 0.365369 -134.2
6.55000000 0.367464 -134.5 0.929614 -44.54 0.929614 -44.54 0.367402 -134.5
6.60000000 0.369484 -134.8 0.928814 -44.85 0.928814 -44.85 0.369421 -134.8
6.65000000 0.371491 -135.1 0.928015 -45.16 0.928015 -45.16 0.371428 -135.1
6.70000000 0.373484 -135.4 0.927217 -45.46 0.927217 -45.46 0.373420 -135.4
6.75000000 0.375463 -135.7 0.926421 -45.77 0.926421 -45.77 0.375400 -135.7
6.80000000 0.377429 -136.0 0.925626 -46.08 0.925626 -46.08 0.377365 -136.0
6.85000000 0.379381 -136.3 0.924832 -46.39 0.924832 -46.39 0.379318 -136.3
6.90000000 0.381320 -136.6 0.924040 -46.69 0.924040 -46.69 0.381256 -136.6
6.95000000 0.383245 -136.9 0.923250 -47.00 0.923250 -47.00 0.383182 -136.9
7.00000000 0.385156 -137.3 0.922462 -47.30 0.922462 -47.30 0.385093 -137.2
7.05000000 0.387054 -137.6 0.921675 -47.61 0.921675 -47.61 0.386991 -137.5
7.10000000 0.388938 -137.9 0.920890 -47.91 0.920890 -47.91 0.388876 -137.9
7.15000000 0.390808 -138.2 0.920107 -48.21 0.920107 -48.21 0.390747 -138.2
7.20000000 0.392665 -138.5 0.919326 -48.52 0.919326 -48.52 0.392604 -138.5
7.25000000 0.394508 -138.8 0.918548 -48.82 0.918548 -48.82 0.394447 -138.8
7.30000000 0.396337 -139.1 0.917771 -49.12 0.917771 -49.12 0.396277 -139.1
7.35000000 0.398152 -139.4 0.916997 -49.42 0.916997 -49.42 0.398094 -139.4
7.40000000 0.399954 -139.7 0.916224 -49.72 0.916224 -49.72 0.399896 -139.7
7.45000000 0.401742 -140.0 0.915454 -50.02 0.915454 -50.02 0.401685 -140.0
7.50000000 0.403516 -140.3 0.914687 -50.32 0.914687 -50.32 0.403460 -140.3
7.55000000 0.405276 -140.6 0.913921 -50.62 0.913921 -50.62 0.405222 -140.6
7.60000000 0.407023 -140.9 0.913158 -50.92 0.913158 -50.92 0.406970 -140.9
7.65000000 0.408756 -141.2 0.912398 -51.22 0.912398 -51.22 0.408704 -141.2
7.70000000 0.410475 -141.5 0.911640 -51.51 0.911640 -51.51 0.410424 -141.5
7.75000000 0.412180 -141.8 0.910884 -51.81 0.910884 -51.81 0.412131 -141.8
7.80000000 0.413872 -142.1 0.910131 -52.11 0.910131 -52.11 0.413823 -142.1
7.85000000 0.415550 -142.4 0.909381 -52.40 0.909381 -52.40 0.415503 -142.4
7.90000000 0.417213 -142.7 0.908633 -52.70 0.908633 -52.70 0.417168 -142.7
7.95000000 0.418864 -143.0 0.907887 -52.99 0.907887 -52.99 0.418820 -143.0
8.00000000 0.420500 -143.3 0.907145 -53.29 0.907145 -53.29 0.420458 -143.3
8.05000000 0.422123 -143.6 0.906405 -53.58 0.906405 -53.58 0.422082 -143.6
8.10000000 0.423731 -143.9 0.905667 -53.88 0.905667 -53.88 0.423693 -143.9
8.15000000 0.425326 -144.2 0.904932 -54.17 0.904932 -54.17 0.425289 -144.2
8.20000000 0.426908 -144.5 0.904200 -54.46 0.904200 -54.46 0.426873 -144.4
8.25000000 0.428475 -144.7 0.903471 -54.75 0.903471 -54.75 0.428442 -144.7
8.30000000 0.430029 -145.0 0.902744 -55.04 0.902744 -55.04 0.429998 -145.0
8.35000000 0.431569 -145.3 0.902020 -55.33 0.902020 -55.33 0.431540 -145.3
8.40000000 0.433095 -145.6 0.901298 -55.62 0.901298 -55.62 0.433068 -145.6
8.45000000 0.434608 -145.9 0.900580 -55.91 0.900580 -55.91 0.434583 -145.9
8.50000000 0.436106 -146.2 0.899864 -56.20 0.899864 -56.20 0.436084 -146.2
8.55000000 0.437592 -146.5 0.899150 -56.49 0.899150 -56.49 0.437571 -146.5
8.60000000 0.439063 -146.8 0.898439 -56.78 0.898439 -56.78 0.439045 -146.8
8.65000000 0.440521 -147.1 0.897731 -57.07 0.897731 -57.07 0.440506 -147.1
8.70000000 0.441965 -147.4 0.897026 -57.36 0.897026 -57.36 0.441952 -147.4
8.75000000 0.443395 -147.6 0.896323 -57.64 0.896323 -57.64 0.443385 -147.6
8.80000000 0.444811 -147.9 0.895622 -57.93 0.895622 -57.93 0.444805 -147.9
8.85000000 0.446214 -148.2 0.894924 -58.22 0.894924 -58.22 0.446211 -148.2
8.90000000 0.447604 -148.5 0.894229 -58.50 0.894229 -58.50 0.447604 -148.5
!< P1 F=8.9 Eeff=(6.44174533 -2.9709e-5) Z0=(27.9071378 6.43629e-5) R=0.00107351 C=0.07687786 
!< P2 F=8.9 Eeff=(6.44174533 -2.9709e-5) Z0=(27.9071378 6.43629e-5) R=0.00107351 C=0.07687786 
8.95000000 0.448980 -148.8 0.893537 -58.79 0.893537 -58.79 0.448983 -148.8
9.00000000 0.450343 -149.1 0.892849 -59.07 0.892849 -59.07 0.450350 -149.1
9.05000000 0.451693 -149.4 0.892165 -59.36 0.892165 -59.36 0.451703 -149.4
9.10000000 0.453029 -149.6 0.891486 -59.64 0.891486 -59.64 0.453044 -149.6
9.15000000 0.454353 -149.9 0.890811 -59.93 0.890811 -59.93 0.454371 -149.9
9.20000000 0.455664 -150.2 0.890140 -60.21 0.890140 -60.21 0.455686 -150.2
9.25000000 0.456962 -150.5 0.889473 -60.49 0.889473 -60.49 0.456988 -150.5
9.30000000 0.458247 -150.8 0.888811 -60.77 0.888811 -60.77 0.458277 -150.8
9.35000000 0.459520 -151.1 0.888154 -61.05 0.888154 -61.05 0.459553 -151.1
9.40000000 0.460779 -151.3 0.887501 -61.34 0.887501 -61.34 0.460817 -151.3
9.45000000 0.462026 -151.6 0.886852 -61.62 0.886852 -61.62 0.462067 -151.6
9.50000000 0.463260 -151.9 0.886209 -61.90 0.886209 -61.90 0.463305 -151.9
9.55000000 0.464481 -152.2 0.885570 -62.18 0.885570 -62.18 0.464531 -152.2
9.60000000 0.465689 -152.5 0.884936 -62.46 0.884936 -62.46 0.465743 -152.5
9.65000000 0.466885 -152.7 0.884306 -62.74 0.884306 -62.74 0.466944 -152.7
9.70000000 0.468068 -153.0 0.883682 -63.02 0.883682 -63.02 0.468131 -153.0
9.75000000 0.469238 -153.3 0.883062 -63.29 0.883062 -63.29 0.469306 -153.3
9.80000000 0.470396 -153.6 0.882448 -63.57 0.882448 -63.57 0.470468 -153.6
9.85000000 0.471541 -153.8 0.881838 -63.85 0.881838 -63.85 0.471618 -153.8
9.90000000 0.472674 -154.1 0.881234 -64.13 0.881234 -64.13 0.472755 -154.1
9.95000000 0.473794 -154.4 0.880634 -64.40 0.880634 -64.40 0.473880 -154.4
10.0000000 0.474902 -154.7 0.880040 -64.68 0.880040 -64.68 0.474992 -154.7
10.0500000 0.475997 -155.0 0.879451 -64.96 0.879451 -64.96 0.476092 -155.0
10.1000000 0.477080 -155.2 0.878868 -65.23 0.878868 -65.23 0.477179 -155.2
10.1500000 0.478150 -155.5 0.878289 -65.51 0.878289 -65.51 0.478254 -155.5
10.2000000 0.479208 -155.8 0.877716 -65.78 0.877716 -65.78 0.479317 -155.8
10.2500000 0.480254 -156.1 0.877148 -66.06 0.877148 -66.06 0.480367 -156.1
10.3000000 0.481287 -156.3 0.876586 -66.33 0.876586 -66.33 0.481405 -156.3
10.3500000 0.482308 -156.6 0.876029 -66.61 0.876029 -66.61 0.482431 -156.6
10.4000000 0.483317 -156.9 0.875477 -66.88 0.875477 -66.88 0.483444 -156.9
10.4500000 0.484313 -157.2 0.874931 -67.15 0.874931 -67.15 0.484445 -157.2
10.5000000 0.485297 -157.4 0.874391 -67.43 0.874391 -67.43 0.485434 -157.4
10.5500000 0.486269 -157.7 0.873856 -67.70 0.873856 -67.70 0.486411 -157.7
10.6000000 0.487229 -158.0 0.873327 -67.97 0.873327 -67.97 0.487375 -158.0
10.6500000 0.488177 -158.2 0.872804 -68.24 0.872804 -68.24 0.488327 -158.2
10.7000000 0.489112 -158.5 0.872286 -68.52 0.872286 -68.52 0.489267 -158.5
10.7500000 0.490036 -158.8 0.871774 -68.79 0.871774 -68.79 0.490195 -158.8
10.8000000 0.490947 -159.1 0.871268 -69.06 0.871268 -69.06 0.491111 -159.1
10.8500000 0.491846 -159.3 0.870767 -69.33 0.870767 -69.33 0.492014 -159.3
10.9000000 0.492733 -159.6 0.870272 -69.60 0.870272 -69.60 0.492906 -159.6
10.9500000 0.493608 -159.9 0.869784 -69.87 0.869784 -69.87 0.493785 -159.9
11.0000000 0.494472 -160.1 0.869301 -70.14 0.869301 -70.14 0.494653 -160.1
11.0500000 0.495323 -160.4 0.868824 -70.41 0.868824 -70.41 0.495508 -160.4
11.1000000 0.496162 -160.7 0.868352 -70.68 0.868352 -70.68 0.496351 -160.7
11.1500000 0.496989 -161.0 0.867887 -70.95 0.867887 -70.95 0.497182 -161.0
11.2000000 0.497804 -161.2 0.867428 -71.22 0.867428 -71.22 0.498002 -161.2
11.2500000 0.498608 -161.5 0.866975 -71.49 0.866975 -71.49 0.498809 -161.5
11.3000000 0.499399 -161.8 0.866528 -71.75 0.866528 -71.75 0.499604 -161.8
11.3500000 0.500178 -162.0 0.866087 -72.02 0.866087 -72.02 0.500387 -162.0
11.4000000 0.500946 -162.3 0.865652 -72.29 0.865652 -72.29 0.501159 -162.3
11.4500000 0.501702 -162.6 0.865223 -72.56 0.865223 -72.56 0.501918 -162.6
11.5000000 0.502446 -162.8 0.864800 -72.83 0.864800 -72.83 0.502665 -162.8
11.5500000 0.503178 -163.1 0.864384 -73.09 0.864384 -73.09 0.503401 -163.1
11.6000000 0.503898 -163.4 0.863973 -73.36 0.863973 -73.36 0.504124 -163.4
11.6500000 0.504607 -163.6 0.863569 -73.63 0.863569 -73.63 0.504836 -163.6
11.7000000 0.505303 -163.9 0.863171 -73.89 0.863171 -73.89 0.505535 -163.9
11.7500000 0.505988 -164.2 0.862779 -74.16 0.862779 -74.16 0.506223 -164.2
11.8000000 0.506661 -164.4 0.862394 -74.42 0.862394 -74.42 0.506899 -164.4
11.8500000 0.507323 -164.7 0.862014 -74.69 0.862014 -74.69 0.507563 -164.7
11.9000000 0.507972 -165.0 0.861641 -74.96 0.861641 -74.96 0.508215 -165.0
11.9500000 0.508610 -165.2 0.861275 -75.22 0.861275 -75.22 0.508855 -165.2
12.0000000 0.509236 -165.5 0.860914 -75.49 0.860914 -75.49 0.509484 -165.5
12.0500000 0.509851 -165.8 0.860560 -75.75 0.860560 -75.75 0.510100 -165.8
12.1000000 0.510453 -166.0 0.860212 -76.02 0.860212 -76.02 0.510705 -166.0
12.1500000 0.511044 -166.3 0.859871 -76.28 0.859871 -76.28 0.511297 -166.3
12.2000000 0.511624 -166.6 0.859536 -76.55 0.859536 -76.55 0.511878 -166.6
12.2500000 0.512191 -166.8 0.859207 -76.81 0.859207 -76.81 0.512447 -166.8
12.3000000 0.512747 -167.1 0.858885 -77.08 0.858885 -77.08 0.513004 -167.1
12.3500000 0.513291 -167.4 0.858569 -77.34 0.858569 -77.34 0.513550 -167.4
12.4000000 0.513824 -167.6 0.858259 -77.60 0.858259 -77.60 0.514083 -167.6
12.4500000 0.514344 -167.9 0.857956 -77.87 0.857956 -77.87 0.514605 -167.9
