! Sonnet Data File
! From: emgraph Version : 16.52
! From Emgraph Data: Waveguide2
! Data File Written: 09/24/2017 12:02:49
!< HDATE 09/24/2017 11:31:15
!< MDATE 09/24/2017 11:31:15
# GHZ S MA R 50.00000
0.00000000 1.0e-100 -90.00 0.999971 0.0000 0.999971 0.0000 1.0e-100 -90.00
0.05000000 0.006467 -90.71 0.999979 -0.709 0.999979 -0.709 0.006467 -90.71
!< P1 F=0.05 Eeff=(6.35373465 -2.9211e-5) Z0=(28.0434801 6.40743e-5) R=0.18927616 C=0.07889757 
!< P2 F=0.05 Eeff=(6.35373465 -2.9211e-5) Z0=(28.0434801 6.40743e-5) R=0.18927616 C=0.07889757 
0.10000000 0.012888 -91.44 0.999921 -1.420 0.999921 -1.420 0.012888 -91.44
0.15000000 0.019307 -92.15 0.999819 -2.131 0.999819 -2.131 0.019307 -92.15
0.20000000 0.025722 -92.86 0.999675 -2.842 0.999675 -2.842 0.025723 -92.86
0.25000000 0.032132 -93.57 0.999490 -3.553 0.999490 -3.553 0.032133 -93.57
0.30000000 0.038536 -94.27 0.999262 -4.263 0.999262 -4.263 0.038536 -94.27
0.35000000 0.044931 -94.98 0.998994 -4.973 0.998994 -4.973 0.044931 -94.98
0.40000000 0.051317 -95.69 0.998685 -5.682 0.998685 -5.682 0.051317 -95.69
0.45000000 0.057691 -96.39 0.998335 -6.391 0.998335 -6.391 0.057691 -96.39
0.50000000 0.064053 -97.10 0.997946 -7.099 0.997946 -7.099 0.064053 -97.10
!< P1 F=0.5 Eeff=(6.40833974 -2.9487e-5) Z0=(28.1636279 6.48086e-5) R=0.01869253 C=0.07889765 
!< P2 F=0.5 Eeff=(6.40833974 -2.9487e-5) Z0=(28.1636279 6.48086e-5) R=0.01869253 C=0.07889765 
0.55000000 0.070400 -97.81 0.997517 -7.807 0.997517 -7.807 0.070400 -97.81
0.60000000 0.076731 -98.51 0.997049 -8.514 0.997049 -8.514 0.076731 -98.51
0.65000000 0.083044 -99.22 0.996543 -9.221 0.996543 -9.221 0.083044 -99.22
0.70000000 0.089339 -99.92 0.995998 -9.926 0.995998 -9.926 0.089339 -99.92
0.75000000 0.095613 -100.6 0.995415 -10.63 0.995415 -10.63 0.095613 -100.6
0.80000000 0.101865 -101.3 0.994795 -11.33 0.994795 -11.33 0.101865 -101.3
0.85000000 0.108093 -102.0 0.994137 -12.04 0.994137 -12.04 0.108093 -102.0
0.90000000 0.114297 -102.7 0.993444 -12.74 0.993444 -12.74 0.114297 -102.7
0.95000000 0.120475 -103.4 0.992714 -13.44 0.992714 -13.44 0.120475 -103.4
1.00000000 0.126625 -104.1 0.991949 -14.14 0.991949 -14.14 0.126625 -104.1
1.05000000 0.132746 -104.8 0.991148 -14.84 0.991148 -14.84 0.132746 -104.8
1.10000000 0.138838 -105.5 0.990314 -15.54 0.990314 -15.54 0.138838 -105.5
1.15000000 0.144898 -106.2 0.989446 -16.23 0.989446 -16.23 0.144898 -106.2
1.20000000 0.150926 -106.9 0.988544 -16.93 0.988544 -16.93 0.150926 -106.9
!< P1 F=1.2 Eeff=(6.40871009 -2.9502e-5) Z0=(28.1638882 6.48288e-5) R=0.0077859 C=0.07889707 
!< P2 F=1.2 Eeff=(6.40871009 -2.9502e-5) Z0=(28.1638882 6.48288e-5) R=0.0077859 C=0.07889707 
1.25000000 0.156921 -107.6 0.987610 -17.62 0.987610 -17.62 0.156921 -107.6
1.30000000 0.162881 -108.3 0.986644 -18.32 0.986644 -18.32 0.162881 -108.3
1.35000000 0.168805 -109.0 0.985648 -19.01 0.985648 -19.01 0.168805 -109.0
1.40000000 0.174693 -109.7 0.984621 -19.70 0.984621 -19.70 0.174693 -109.7
1.45000000 0.180543 -110.4 0.983564 -20.39 0.983564 -20.39 0.180543 -110.4
1.50000000 0.186355 -111.1 0.982479 -21.07 0.982479 -21.07 0.186355 -111.1
1.55000000 0.192127 -111.8 0.981366 -21.76 0.981366 -21.76 0.192127 -111.8
1.60000000 0.197859 -112.4 0.980225 -22.44 0.980225 -22.44 0.197858 -112.4
1.65000000 0.203549 -113.1 0.979059 -23.13 0.979059 -23.13 0.203549 -113.1
1.70000000 0.209197 -113.8 0.977866 -23.81 0.977866 -23.81 0.209196 -113.8
1.75000000 0.214801 -114.5 0.976650 -24.49 0.976650 -24.49 0.214801 -114.5
1.80000000 0.220362 -115.2 0.975409 -25.16 0.975409 -25.16 0.220362 -115.2
1.85000000 0.225878 -115.8 0.974146 -25.84 0.974146 -25.84 0.225878 -115.8
1.90000000 0.231349 -116.5 0.972860 -26.51 0.972860 -26.51 0.231348 -116.5
1.95000000 0.236773 -117.2 0.971554 -27.18 0.971554 -27.18 0.236773 -117.2
2.00000000 0.242150 -117.9 0.970227 -27.85 0.970227 -27.85 0.242150 -117.9
2.05000000 0.247480 -118.5 0.968880 -28.52 0.968880 -28.52 0.247480 -118.5
2.10000000 0.252762 -119.2 0.967516 -29.19 0.967516 -29.19 0.252762 -119.2
2.15000000 0.257995 -119.9 0.966133 -29.85 0.966133 -29.85 0.257994 -119.9
2.20000000 0.263178 -120.5 0.964734 -30.52 0.964734 -30.52 0.263178 -120.5
2.25000000 0.268311 -121.2 0.963319 -31.18 0.963319 -31.18 0.268311 -121.2
2.30000000 0.273394 -121.8 0.961889 -31.84 0.961889 -31.84 0.273394 -121.8
2.35000000 0.278426 -122.5 0.960444 -32.49 0.960444 -32.49 0.278426 -122.5
2.40000000 0.283407 -123.1 0.958987 -33.15 0.958987 -33.15 0.283406 -123.1
2.45000000 0.288335 -123.8 0.957517 -33.80 0.957517 -33.80 0.288335 -123.8
2.50000000 0.293211 -124.5 0.956036 -34.45 0.956036 -34.45 0.293211 -124.5
2.55000000 0.298035 -125.1 0.954543 -35.10 0.954543 -35.10 0.298034 -125.1
2.60000000 0.302805 -125.7 0.953042 -35.75 0.953042 -35.75 0.302805 -125.7
2.65000000 0.307522 -126.4 0.951531 -36.39 0.951531 -36.39 0.307522 -126.4
2.70000000 0.312186 -127.0 0.950012 -37.04 0.950012 -37.04 0.312185 -127.0
2.75000000 0.316795 -127.7 0.948485 -37.68 0.948485 -37.68 0.316795 -127.7
2.80000000 0.321350 -128.3 0.946953 -38.32 0.946953 -38.32 0.321350 -128.3
2.85000000 0.325851 -129.0 0.945414 -38.95 0.945414 -38.95 0.325851 -129.0
2.90000000 0.330297 -129.6 0.943871 -39.59 0.943871 -39.59 0.330297 -129.6
2.95000000 0.334689 -130.2 0.942324 -40.22 0.942324 -40.22 0.334689 -130.2
3.00000000 0.339025 -130.8 0.940773 -40.85 0.940773 -40.85 0.339025 -130.8
3.05000000 0.343307 -131.5 0.939220 -41.48 0.939220 -41.48 0.343307 -131.5
3.10000000 0.347533 -132.1 0.937666 -42.10 0.937666 -42.10 0.347533 -132.1
!< P1 F=3.1 Eeff=(6.40937527 -2.9501e-5) Z0=(28.1615589 6.48271e-5) R=0.00301535 C=0.0788932 
!< P2 F=3.1 Eeff=(6.40937527 -2.9501e-5) Z0=(28.1615589 6.48271e-5) R=0.00301535 C=0.0788932 
3.15000000 0.351704 -132.7 0.936110 -42.73 0.936110 -42.73 0.351704 -132.7
3.20000000 0.355819 -133.4 0.934554 -43.35 0.934554 -43.35 0.355820 -133.4
3.25000000 0.359880 -134.0 0.932999 -43.97 0.932999 -43.97 0.359880 -134.0
3.30000000 0.363885 -134.6 0.931445 -44.59 0.931445 -44.59 0.363885 -134.6
3.35000000 0.367834 -135.2 0.929893 -45.20 0.929893 -45.20 0.367834 -135.2
3.40000000 0.371728 -135.8 0.928344 -45.82 0.928344 -45.82 0.371728 -135.8
3.45000000 0.375567 -136.4 0.926798 -46.43 0.926798 -46.43 0.375567 -136.4
3.50000000 0.379350 -137.0 0.925257 -47.04 0.925257 -47.04 0.379351 -137.0
3.55000000 0.383078 -137.6 0.923720 -47.65 0.923720 -47.65 0.383079 -137.6
3.60000000 0.386751 -138.3 0.922188 -48.25 0.922188 -48.25 0.386752 -138.3
3.65000000 0.390369 -138.9 0.920663 -48.86 0.920663 -48.86 0.390370 -138.9
3.70000000 0.393932 -139.5 0.919145 -49.46 0.919145 -49.46 0.393932 -139.5
3.75000000 0.397440 -140.1 0.917633 -50.06 0.917633 -50.06 0.397440 -140.1
3.80000000 0.400893 -140.7 0.916130 -50.66 0.916130 -50.66 0.400894 -140.7
3.85000000 0.404291 -141.3 0.914636 -51.25 0.914636 -51.25 0.404292 -141.3
3.90000000 0.407635 -141.8 0.913150 -51.85 0.913150 -51.85 0.407636 -141.8
3.95000000 0.410925 -142.4 0.911675 -52.44 0.911675 -52.44 0.410926 -142.4
4.00000000 0.414160 -143.0 0.910209 -53.03 0.910209 -53.03 0.414161 -143.0
4.05000000 0.417342 -143.6 0.908755 -53.62 0.908755 -53.62 0.417343 -143.6
4.10000000 0.420469 -144.2 0.907311 -54.20 0.907311 -54.20 0.420470 -144.2
4.15000000 0.423543 -144.8 0.905880 -54.79 0.905880 -54.79 0.423544 -144.8
4.20000000 0.426564 -145.4 0.904462 -55.37 0.904462 -55.37 0.426565 -145.4
4.25000000 0.429531 -146.0 0.903056 -55.95 0.903056 -55.95 0.429532 -146.0
4.30000000 0.432446 -146.5 0.901663 -56.53 0.901663 -56.53 0.432447 -146.5
4.35000000 0.435307 -147.1 0.900285 -57.11 0.900285 -57.11 0.435308 -147.1
4.40000000 0.438116 -147.7 0.898921 -57.69 0.898921 -57.69 0.438117 -147.7
4.45000000 0.440873 -148.3 0.897572 -58.26 0.897572 -58.26 0.440874 -148.3
4.50000000 0.443577 -148.8 0.896238 -58.83 0.896238 -58.83 0.443578 -148.8
4.55000000 0.446230 -149.4 0.894919 -59.40 0.894919 -59.40 0.446231 -149.4
4.60000000 0.448831 -150.0 0.893617 -59.97 0.893617 -59.97 0.448832 -150.0
4.65000000 0.451380 -150.5 0.892332 -60.54 0.892332 -60.54 0.451381 -150.5
4.70000000 0.453879 -151.1 0.891063 -61.10 0.891063 -61.10 0.453880 -151.1
4.75000000 0.456326 -151.7 0.889812 -61.67 0.889812 -61.67 0.456327 -151.7
4.80000000 0.458723 -152.2 0.888578 -62.23 0.888578 -62.23 0.458724 -152.2
4.85000000 0.461069 -152.8 0.887363 -62.79 0.887363 -62.79 0.461070 -152.8
4.90000000 0.463365 -153.4 0.886166 -63.35 0.886166 -63.35 0.463366 -153.4
4.95000000 0.465611 -153.9 0.884987 -63.91 0.884987 -63.91 0.465612 -153.9
5.00000000 0.467807 -154.5 0.883828 -64.46 0.883828 -64.46 0.467808 -154.5
5.05000000 0.469954 -155.0 0.882688 -65.02 0.882688 -65.02 0.469955 -155.0
5.10000000 0.472052 -155.6 0.881568 -65.57 0.881568 -65.57 0.472052 -155.6
5.15000000 0.474100 -156.1 0.880468 -66.12 0.880468 -66.12 0.474100 -156.1
5.20000000 0.476100 -156.7 0.879388 -66.68 0.879388 -66.68 0.476100 -156.7
5.25000000 0.478051 -157.2 0.878329 -67.22 0.878329 -67.22 0.478051 -157.2
!< P1 F=5.25 Eeff=(6.41072114 -2.9515e-5) Z0=(28.1562179 6.48556e-5) R=0.00177908 C=0.07888478 
!< P2 F=5.25 Eeff=(6.41072114 -2.9515e-5) Z0=(28.1562179 6.48556e-5) R=0.00177908 C=0.07888478 
5.30000000 0.479954 -157.8 0.877291 -67.77 0.877291 -67.77 0.479954 -157.8
5.35000000 0.481809 -158.3 0.876273 -68.32 0.876273 -68.32 0.481809 -158.3
5.40000000 0.483616 -158.9 0.875278 -68.87 0.875278 -68.87 0.483616 -158.9
5.45000000 0.485375 -159.4 0.874304 -69.41 0.874304 -69.41 0.485375 -159.4
5.50000000 0.487087 -160.0 0.873351 -69.95 0.873351 -69.95 0.487087 -160.0
5.55000000 0.488752 -160.5 0.872421 -70.50 0.872421 -70.50 0.488751 -160.5
5.60000000 0.490370 -161.0 0.871514 -71.04 0.871514 -71.04 0.490369 -161.0
5.65000000 0.491941 -161.6 0.870628 -71.58 0.870628 -71.58 0.491940 -161.6
5.70000000 0.493466 -162.1 0.869766 -72.11 0.869766 -72.11 0.493464 -162.1
5.75000000 0.494944 -162.7 0.868926 -72.65 0.868926 -72.65 0.494942 -162.7
5.80000000 0.496377 -163.2 0.868110 -73.19 0.868110 -73.19 0.496374 -163.2
5.85000000 0.497763 -163.7 0.867317 -73.72 0.867317 -73.72 0.497760 -163.7
5.90000000 0.499103 -164.3 0.866548 -74.26 0.866548 -74.26 0.499101 -164.3
5.95000000 0.500398 -164.8 0.865802 -74.79 0.865802 -74.79 0.500395 -164.8
6.00000000 0.501648 -165.3 0.865080 -75.33 0.865080 -75.33 0.501645 -165.3
6.05000000 0.502852 -165.9 0.864382 -75.86 0.864382 -75.86 0.502849 -165.9
6.10000000 0.504011 -166.4 0.863708 -76.39 0.863708 -76.39 0.504008 -166.4
6.15000000 0.505126 -166.9 0.863058 -76.92 0.863058 -76.92 0.505122 -166.9
6.20000000 0.506196 -167.4 0.862433 -77.45 0.862433 -77.45 0.506191 -167.4
6.25000000 0.507221 -168.0 0.861833 -77.98 0.861833 -77.98 0.507216 -168.0
6.30000000 0.508202 -168.5 0.861257 -78.51 0.861257 -78.51 0.508197 -168.5
6.35000000 0.509138 -169.0 0.860705 -79.03 0.860705 -79.03 0.509133 -169.0
6.40000000 0.510030 -169.6 0.860179 -79.56 0.860179 -79.56 0.510025 -169.6
6.45000000 0.510879 -170.1 0.859678 -80.09 0.859678 -80.09 0.510873 -170.1
6.50000000 0.511683 -170.6 0.859202 -80.61 0.859202 -80.61 0.511677 -170.6
6.55000000 0.512444 -171.1 0.858751 -81.14 0.858751 -81.14 0.512437 -171.1
6.60000000 0.513161 -171.7 0.858325 -81.66 0.858325 -81.66 0.513154 -171.7
6.65000000 0.513835 -172.2 0.857924 -82.18 0.857924 -82.18 0.513827 -172.2
6.70000000 0.514465 -172.7 0.857549 -82.71 0.857549 -82.71 0.514457 -172.7
6.75000000 0.515051 -173.2 0.857200 -83.23 0.857200 -83.23 0.515044 -173.2
6.80000000 0.515595 -173.8 0.856876 -83.75 0.856876 -83.75 0.515587 -173.8
6.85000000 0.516095 -174.3 0.856577 -84.28 0.856577 -84.28 0.516087 -174.3
6.90000000 0.516552 -174.8 0.856305 -84.80 0.856305 -84.80 0.516543 -174.8
6.95000000 0.516966 -175.3 0.856058 -85.32 0.856058 -85.32 0.516957 -175.3
7.00000000 0.517338 -175.8 0.855836 -85.84 0.855836 -85.84 0.517328 -175.8
7.05000000 0.517666 -176.4 0.855641 -86.36 0.855641 -86.36 0.517656 -176.4
7.10000000 0.517951 -176.9 0.855472 -86.88 0.855472 -86.88 0.517941 -176.9
7.15000000 0.518193 -177.4 0.855328 -87.40 0.855328 -87.40 0.518183 -177.4
7.20000000 0.518393 -177.9 0.855210 -87.92 0.855210 -87.92 0.518382 -177.9
7.25000000 0.518550 -178.4 0.855118 -88.44 0.855118 -88.44 0.518539 -178.4
7.30000000 0.518664 -179.0 0.855052 -88.96 0.855052 -88.96 0.518652 -179.0
7.35000000 0.518735 -179.5 0.855012 -89.48 0.855012 -89.48 0.518723 -179.5
7.40000000 0.518764 180.00 0.854998 -90.00 0.854998 -90.00 0.518751 180.00
7.45000000 0.518749 179.48 0.855010 -90.52 0.855010 -90.52 0.518737 179.48
7.50000000 0.518692 178.95 0.855048 -91.04 0.855048 -91.04 0.518679 178.95
7.55000000 0.518592 178.43 0.855112 -91.57 0.855112 -91.57 0.518579 178.43
7.60000000 0.518450 177.91 0.855202 -92.09 0.855202 -92.09 0.518436 177.91
7.65000000 0.518264 177.39 0.855317 -92.61 0.855317 -92.61 0.518250 177.39
7.70000000 0.518036 176.87 0.855459 -93.13 0.855459 -93.13 0.518022 176.87
7.75000000 0.517764 176.35 0.855626 -93.65 0.855626 -93.65 0.517750 176.35
7.80000000 0.517450 175.83 0.855819 -94.17 0.855819 -94.17 0.517435 175.83
7.85000000 0.517093 175.31 0.856039 -94.69 0.856039 -94.69 0.517078 175.31
7.90000000 0.516692 174.79 0.856283 -95.21 0.856283 -95.21 0.516677 174.79
7.95000000 0.516249 174.26 0.856554 -95.73 0.856554 -95.73 0.516233 174.26
8.00000000 0.515762 173.74 0.856850 -96.26 0.856850 -96.26 0.515746 173.74
8.05000000 0.515232 173.22 0.857172 -96.78 0.857172 -96.78 0.515216 173.22
8.10000000 0.514658 172.70 0.857519 -97.30 0.857519 -97.30 0.514642 172.70
8.15000000 0.514041 172.17 0.857892 -97.83 0.857892 -97.83 0.514024 172.17
8.20000000 0.513380 171.65 0.858290 -98.35 0.858290 -98.35 0.513364 171.65
8.25000000 0.512676 171.12 0.858714 -98.87 0.858714 -98.87 0.512659 171.12
8.30000000 0.511928 170.60 0.859163 -99.40 0.859163 -99.40 0.511910 170.60
8.35000000 0.511135 170.07 0.859637 -99.93 0.859637 -99.93 0.511118 170.07
8.40000000 0.510299 169.55 0.860136 -100.5 0.860136 -100.5 0.510281 169.55
8.45000000 0.509418 169.02 0.860660 -101.0 0.860660 -101.0 0.509401 169.02
8.50000000 0.508493 168.49 0.861209 -101.5 0.861209 -101.5 0.508476 168.49
8.55000000 0.507524 167.96 0.861783 -102.0 0.861783 -102.0 0.507506 167.96
8.60000000 0.506510 167.43 0.862381 -102.6 0.862381 -102.6 0.506492 167.43
8.65000000 0.505451 166.90 0.863004 -103.1 0.863004 -103.1 0.505433 166.90
8.70000000 0.504347 166.37 0.863652 -103.6 0.863652 -103.6 0.504329 166.37
8.75000000 0.503198 165.84 0.864323 -104.2 0.864323 -104.2 0.503180 165.84
8.80000000 0.502004 165.31 0.865019 -104.7 0.865019 -104.7 0.501985 165.31
8.85000000 0.500764 164.77 0.865739 -105.2 0.865739 -105.2 0.500745 164.77
8.90000000 0.499478 164.24 0.866482 -105.8 0.866482 -105.8 0.499459 164.24
8.95000000 0.498147 163.71 0.867250 -106.3 0.867250 -106.3 0.498128 163.71
9.00000000 0.496769 163.17 0.868040 -106.8 0.868040 -106.8 0.496750 163.17
9.05000000 0.495345 162.63 0.868855 -107.4 0.868855 -107.4 0.495327 162.63
9.10000000 0.493875 162.09 0.869692 -107.9 0.869692 -107.9 0.493856 162.09
9.15000000 0.492358 161.55 0.870552 -108.4 0.870552 -108.4 0.492339 161.55
9.20000000 0.490794 161.01 0.871435 -109.0 0.871435 -109.0 0.490776 161.01
9.25000000 0.489183 160.47 0.872341 -109.5 0.872341 -109.5 0.489165 160.47
9.30000000 0.487525 159.93 0.873269 -110.1 0.873269 -110.1 0.487506 159.93
9.35000000 0.485819 159.39 0.874219 -110.6 0.874219 -110.6 0.485801 159.39
9.40000000 0.484066 158.84 0.875191 -111.2 0.875191 -111.2 0.484047 158.84
9.45000000 0.482264 158.30 0.876185 -111.7 0.876185 -111.7 0.482246 158.30
9.50000000 0.480414 157.75 0.877200 -112.2 0.877200 -112.2 0.480396 157.75
9.55000000 0.478516 157.20 0.878236 -112.8 0.878236 -112.8 0.478498 157.20
9.60000000 0.476569 156.65 0.879294 -113.3 0.879294 -113.3 0.476551 156.65
9.65000000 0.474573 156.10 0.880372 -113.9 0.880372 -113.9 0.474555 156.10
9.70000000 0.472528 155.54 0.881470 -114.5 0.881470 -114.5 0.472510 155.55
9.75000000 0.470433 154.99 0.882588 -115.0 0.882588 -115.0 0.470416 154.99
9.80000000 0.468289 154.44 0.883727 -115.6 0.883727 -115.6 0.468272 154.44
9.85000000 0.466095 153.88 0.884884 -116.1 0.884884 -116.1 0.466078 153.88
9.90000000 0.463850 153.32 0.886061 -116.7 0.886061 -116.7 0.463833 153.32
9.95000000 0.461556 152.76 0.887257 -117.2 0.887257 -117.2 0.461539 152.76
10.0000000 0.459210 152.20 0.888471 -117.8 0.888471 -117.8 0.459194 152.20
10.0500000 0.456814 151.63 0.889704 -118.4 0.889704 -118.4 0.456798 151.64
10.1000000 0.454366 151.07 0.890954 -118.9 0.890954 -118.9 0.454351 151.07
10.1500000 0.451868 150.50 0.892221 -119.5 0.892221 -119.5 0.451852 150.50
10.2000000 0.449317 149.94 0.893506 -120.1 0.893506 -120.1 0.449302 149.94
10.2500000 0.446715 149.37 0.894807 -120.6 0.894807 -120.6 0.446700 149.37
10.3000000 0.444060 148.80 0.896125 -121.2 0.896125 -121.2 0.444045 148.80
10.3500000 0.441353 148.22 0.897458 -121.8 0.897458 -121.8 0.441339 148.22
10.4000000 0.438594 147.65 0.898807 -122.3 0.898807 -122.3 0.438580 147.65
10.4500000 0.435781 147.07 0.900170 -122.9 0.900170 -122.9 0.435768 147.07
10.5000000 0.432916 146.49 0.901548 -123.5 0.901548 -123.5 0.432903 146.49
10.5500000 0.429997 145.91 0.902941 -124.1 0.902941 -124.1 0.429985 145.91
10.6000000 0.427025 145.33 0.904346 -124.7 0.904346 -124.7 0.427013 145.33
10.6500000 0.424000 144.75 0.905765 -125.2 0.905765 -125.2 0.423988 144.75
10.7000000 0.420920 144.16 0.907197 -125.8 0.907197 -125.8 0.420908 144.16
10.7500000 0.417786 143.57 0.908640 -126.4 0.908640 -126.4 0.417775 143.58
10.8000000 0.414598 142.99 0.910095 -127.0 0.910095 -127.0 0.414587 142.99
10.8500000 0.411355 142.39 0.911561 -127.6 0.911561 -127.6 0.411345 142.39
10.9000000 0.408058 141.80 0.913038 -128.2 0.913038 -128.2 0.408049 141.80
10.9500000 0.404706 141.21 0.914524 -128.8 0.914524 -128.8 0.404697 141.21
11.0000000 0.401299 140.61 0.916020 -129.4 0.916020 -129.4 0.401291 140.61
11.0500000 0.397837 140.01 0.917524 -130.0 0.917524 -130.0 0.397829 140.01
11.1000000 0.394320 139.41 0.919037 -130.6 0.919037 -130.6 0.394312 139.41
11.1500000 0.390747 138.81 0.920557 -131.2 0.920557 -131.2 0.390740 138.81
11.2000000 0.387119 138.20 0.922084 -131.8 0.922084 -131.8 0.387112 138.20
11.2500000 0.383435 137.60 0.923617 -132.4 0.923617 -132.4 0.383429 137.60
11.3000000 0.379695 136.99 0.925156 -133.0 0.925156 -133.0 0.379690 136.99
11.3500000 0.375900 136.38 0.926699 -133.6 0.926699 -133.6 0.375895 136.38
11.4000000 0.372049 135.76 0.928247 -134.2 0.928247 -134.2 0.372044 135.76
11.4500000 0.368142 135.15 0.929799 -134.8 0.929799 -134.8 0.368138 135.15
11.5000000 0.364179 134.53 0.931353 -135.5 0.931353 -135.5 0.364176 134.53
11.5500000 0.360160 133.91 0.932910 -136.1 0.932910 -136.1 0.360157 133.91
11.6000000 0.356086 133.29 0.934468 -136.7 0.934468 -136.7 0.356083 133.29
11.6500000 0.351955 132.67 0.936026 -137.3 0.936026 -137.3 0.351953 132.67
11.7000000 0.347768 132.04 0.937585 -138.0 0.937585 -138.0 0.347767 132.04
11.7500000 0.343526 131.41 0.939142 -138.6 0.939142 -138.6 0.343526 131.41
11.8000000 0.339228 130.79 0.940698 -139.2 0.940698 -139.2 0.339228 130.79
!< P1 F=11.8 Eeff=(6.41889289 -2.9611e-5) Z0=(28.1239446 6.49711e-5) R=7.90624e-4 C=0.07884146 
!< P2 F=11.8 Eeff=(6.41889289 -2.9611e-5) Z0=(28.1239446 6.49711e-5) R=7.90624e-4 C=0.07884146 
11.8500000 0.334875 130.15 0.942252 -139.8 0.942252 -139.8 0.334875 130.15
11.9000000 0.330466 129.52 0.943803 -140.5 0.943803 -140.5 0.330467 129.52
11.9500000 0.326001 128.88 0.945350 -141.1 0.945350 -141.1 0.326003 128.88
12.0000000 0.321482 128.25 0.946892 -141.8 0.946892 -141.8 0.321484 128.25
12.0500000 0.316907 127.61 0.948429 -142.4 0.948429 -142.4 0.316910 127.61
12.1000000 0.312278 126.96 0.949960 -143.0 0.949960 -143.0 0.312281 126.96
12.1500000 0.307594 126.32 0.951483 -143.7 0.951483 -143.7 0.307598 126.32
12.2000000 0.302856 125.67 0.952999 -144.3 0.952999 -144.3 0.302860 125.67
12.2500000 0.298064 125.02 0.954506 -145.0 0.954506 -145.0 0.298068 125.02
12.3000000 0.293218 124.37 0.956003 -145.6 0.956003 -145.6 0.293223 124.37
12.3500000 0.288319 123.72 0.957489 -146.3 0.957489 -146.3 0.288324 123.72
