! Sonnet Data File
! From: emgraph Version : 16.52
! From Emgraph Data: Waveguide
! Data File Written: 09/24/2017 10:41:16
!< HDATE 09/24/2017 10:06:26
!< MDATE 09/24/2017 10:06:26
# GHZ S MA R 50.00000
0.00000000 1.0e-100 -90.00 0.999974 0.0000 0.999974 0.0000 1.0e-100 -90.00
0.05000000 5.581e-4 89.696 1.000000 -0.305 1.000000 -0.305 5.581e-4 89.696
!< P1 F=0.05 Eeff=(6.42220865 -2.6752e-5) Z0=(55.7710818 1.31106e-4) R=0.0 C=0.0 
!< P2 F=0.05 Eeff=(6.42220865 -2.6752e-5) Z0=(55.7710818 1.31106e-4) R=0.0 C=0.0 
0.10000000 0.001146 89.300 0.999998 -0.611 0.999998 -0.611 0.001146 89.300
0.15000000 0.001734 88.972 0.999995 -0.918 0.999995 -0.918 0.001734 88.972
0.20000000 0.002322 88.661 0.999993 -1.224 0.999993 -1.224 0.002322 88.661
0.25000000 0.002910 88.356 0.999990 -1.531 0.999990 -1.531 0.002910 88.356
0.30000000 0.003498 88.054 0.999987 -1.837 0.999987 -1.837 0.003498 88.054
0.35000000 0.004086 87.753 0.999984 -2.144 0.999984 -2.144 0.004086 87.753
0.40000000 0.004674 87.452 0.999981 -2.450 0.999981 -2.450 0.004674 87.452
0.45000000 0.005262 87.152 0.999978 -2.757 0.999978 -2.757 0.005262 87.152
0.50000000 0.005850 86.852 0.999974 -3.064 0.999974 -3.064 0.005850 86.852
0.55000000 0.006438 86.552 0.999970 -3.370 0.999970 -3.370 0.006438 86.552
0.60000000 0.007025 86.252 0.999966 -3.677 0.999966 -3.677 0.007025 86.252
0.65000000 0.007613 85.951 0.999962 -3.983 0.999962 -3.983 0.007613 85.951
0.70000000 0.008200 85.651 0.999958 -4.290 0.999958 -4.290 0.008200 85.651
0.75000000 0.008787 85.350 0.999953 -4.596 0.999953 -4.596 0.008787 85.350
0.80000000 0.009374 85.048 0.999948 -4.903 0.999948 -4.903 0.009374 85.048
0.85000000 0.009961 84.747 0.999942 -5.209 0.999942 -5.209 0.009961 84.747
0.90000000 0.010547 84.445 0.999937 -5.516 0.999937 -5.516 0.010547 84.445
0.95000000 0.011133 84.143 0.999931 -5.823 0.999931 -5.823 0.011133 84.143
1.00000000 0.011719 83.840 0.999925 -6.129 0.999925 -6.129 0.011719 83.840
1.05000000 0.012305 83.538 0.999918 -6.436 0.999918 -6.436 0.012305 83.538
1.10000000 0.012891 83.235 0.999911 -6.742 0.999911 -6.742 0.012891 83.235
1.15000000 0.013476 82.931 0.999904 -7.049 0.999904 -7.049 0.013476 82.931
1.20000000 0.014060 82.628 0.999896 -7.355 0.999896 -7.355 0.014060 82.628
1.25000000 0.014644 82.324 0.999889 -7.662 0.999889 -7.662 0.014644 82.324
1.30000000 0.015228 82.020 0.999880 -7.968 0.999880 -7.968 0.015228 82.020
1.35000000 0.015812 81.715 0.999872 -8.275 0.999872 -8.275 0.015812 81.715
1.40000000 0.016395 81.411 0.999863 -8.581 0.999863 -8.581 0.016395 81.411
1.45000000 0.016977 81.106 0.999853 -8.888 0.999853 -8.888 0.016977 81.106
1.50000000 0.017559 80.801 0.999844 -9.194 0.999844 -9.194 0.017559 80.801
1.55000000 0.018141 80.496 0.999834 -9.501 0.999834 -9.501 0.018141 80.496
1.60000000 0.018722 80.190 0.999823 -9.808 0.999823 -9.808 0.018722 80.190
1.65000000 0.019302 79.885 0.999813 -10.11 0.999813 -10.11 0.019302 79.885
1.70000000 0.019882 79.579 0.999801 -10.42 0.999801 -10.42 0.019882 79.579
1.75000000 0.020461 79.273 0.999790 -10.73 0.999790 -10.73 0.020461 79.273
1.80000000 0.021040 78.967 0.999778 -11.03 0.999778 -11.03 0.021040 78.967
1.85000000 0.021618 78.661 0.999766 -11.34 0.999766 -11.34 0.021618 78.661
!< P1 F=1.85 Eeff=(6.4374768 -2.9671e-5) Z0=(55.8356004 1.28691e-4) R=0.0 C=0.0 
!< P2 F=1.85 Eeff=(6.4374768 -2.9671e-5) Z0=(55.8356004 1.28691e-4) R=0.0 C=0.0 
1.90000000 0.022195 78.355 0.999753 -11.65 0.999753 -11.65 0.022195 78.355
1.95000000 0.022771 78.049 0.999740 -11.95 0.999740 -11.95 0.022771 78.049
2.00000000 0.023347 77.742 0.999727 -12.26 0.999727 -12.26 0.023347 77.742
2.05000000 0.023922 77.436 0.999714 -12.57 0.999714 -12.57 0.023922 77.436
2.10000000 0.024496 77.129 0.999700 -12.87 0.999700 -12.87 0.024496 77.129
2.15000000 0.025070 76.822 0.999685 -13.18 0.999685 -13.18 0.025070 76.822
2.20000000 0.025642 76.516 0.999671 -13.49 0.999671 -13.49 0.025642 76.516
2.25000000 0.026214 76.209 0.999656 -13.79 0.999656 -13.79 0.026214 76.209
2.30000000 0.026785 75.902 0.999640 -14.10 0.999640 -14.10 0.026785 75.902
2.35000000 0.027355 75.596 0.999625 -14.40 0.999625 -14.40 0.027355 75.596
2.40000000 0.027924 75.289 0.999609 -14.71 0.999609 -14.71 0.027924 75.289
2.45000000 0.028493 74.982 0.999592 -15.02 0.999592 -15.02 0.028493 74.982
2.50000000 0.029060 74.675 0.999576 -15.32 0.999576 -15.32 0.029060 74.675
2.55000000 0.029626 74.369 0.999559 -15.63 0.999559 -15.63 0.029626 74.369
2.60000000 0.030192 74.062 0.999542 -15.94 0.999542 -15.94 0.030192 74.062
2.65000000 0.030756 73.755 0.999524 -16.24 0.999524 -16.24 0.030756 73.755
2.70000000 0.031320 73.449 0.999507 -16.55 0.999507 -16.55 0.031320 73.449
2.75000000 0.031882 73.142 0.999489 -16.85 0.999489 -16.85 0.031882 73.142
2.80000000 0.032443 72.836 0.999470 -17.16 0.999470 -17.16 0.032443 72.836
2.85000000 0.033004 72.529 0.999452 -17.47 0.999452 -17.47 0.033004 72.529
2.90000000 0.033563 72.223 0.999433 -17.77 0.999433 -17.77 0.033563 72.223
2.95000000 0.034121 71.917 0.999414 -18.08 0.999414 -18.08 0.034121 71.917
3.00000000 0.034678 71.610 0.999395 -18.39 0.999395 -18.39 0.034678 71.610
3.05000000 0.035234 71.304 0.999375 -18.69 0.999375 -18.69 0.035234 71.304
3.10000000 0.035789 70.998 0.999356 -19.00 0.999356 -19.00 0.035789 70.998
3.15000000 0.036343 70.692 0.999336 -19.30 0.999336 -19.30 0.036343 70.692
3.20000000 0.036896 70.386 0.999315 -19.61 0.999315 -19.61 0.036896 70.386
3.25000000 0.037447 70.080 0.999295 -19.92 0.999295 -19.92 0.037447 70.080
3.30000000 0.037997 69.774 0.999274 -20.22 0.999274 -20.22 0.037997 69.774
3.35000000 0.038547 69.469 0.999254 -20.53 0.999254 -20.53 0.038547 69.469
3.40000000 0.039094 69.163 0.999232 -20.83 0.999232 -20.83 0.039094 69.163
3.45000000 0.039641 68.858 0.999211 -21.14 0.999211 -21.14 0.039641 68.858
3.50000000 0.040187 68.552 0.999190 -21.45 0.999190 -21.45 0.040187 68.552
3.55000000 0.040731 68.247 0.999168 -21.75 0.999168 -21.75 0.040731 68.247
3.60000000 0.041274 67.942 0.999146 -22.06 0.999146 -22.06 0.041274 67.942
3.65000000 0.041815 67.636 0.999125 -22.36 0.999125 -22.36 0.041815 67.636
!< P1 F=3.65 Eeff=(6.43803791 -2.9675e-5) Z0=(55.833033 1.28695e-4) R=0.0 C=0.0 
!< P2 F=3.65 Eeff=(6.43803791 -2.9675e-5) Z0=(55.833033 1.28695e-4) R=0.0 C=0.0 
3.70000000 0.042356 67.331 0.999102 -22.67 0.999102 -22.67 0.042356 67.331
3.75000000 0.042895 67.026 0.999080 -22.98 0.999080 -22.98 0.042895 67.026
3.80000000 0.043433 66.721 0.999058 -23.28 0.999058 -23.28 0.043433 66.721
3.85000000 0.043970 66.417 0.999035 -23.59 0.999035 -23.59 0.043970 66.417
3.90000000 0.044505 66.112 0.999012 -23.89 0.999012 -23.89 0.044505 66.112
3.95000000 0.045039 65.807 0.998989 -24.20 0.998989 -24.20 0.045039 65.807
4.00000000 0.045572 65.502 0.998966 -24.51 0.998966 -24.51 0.045572 65.502
4.05000000 0.046103 65.198 0.998943 -24.81 0.998943 -24.81 0.046103 65.198
4.10000000 0.046633 64.893 0.998919 -25.12 0.998919 -25.12 0.046633 64.893
4.15000000 0.047161 64.589 0.998896 -25.42 0.998896 -25.42 0.047161 64.589
4.20000000 0.047688 64.285 0.998872 -25.73 0.998872 -25.73 0.047688 64.285
4.25000000 0.048214 63.980 0.998848 -26.04 0.998848 -26.04 0.048214 63.980
4.30000000 0.048739 63.676 0.998824 -26.34 0.998824 -26.34 0.048739 63.676
4.35000000 0.049262 63.372 0.998800 -26.65 0.998800 -26.65 0.049262 63.372
4.40000000 0.049783 63.067 0.998776 -26.95 0.998776 -26.95 0.049783 63.067
4.45000000 0.050304 62.763 0.998751 -27.26 0.998751 -27.26 0.050304 62.763
4.50000000 0.050822 62.459 0.998727 -27.56 0.998727 -27.56 0.050822 62.459
4.55000000 0.051340 62.155 0.998702 -27.87 0.998702 -27.87 0.051340 62.155
4.60000000 0.051855 61.851 0.998677 -28.18 0.998677 -28.18 0.051855 61.851
4.65000000 0.052370 61.547 0.998652 -28.48 0.998652 -28.48 0.052370 61.547
4.70000000 0.052883 61.243 0.998626 -28.79 0.998626 -28.79 0.052883 61.243
4.75000000 0.053394 60.938 0.998601 -29.09 0.998601 -29.09 0.053394 60.938
4.80000000 0.053904 60.634 0.998575 -29.40 0.998575 -29.40 0.053904 60.634
4.85000000 0.054412 60.330 0.998550 -29.70 0.998550 -29.70 0.054412 60.330
4.90000000 0.054919 60.026 0.998524 -30.01 0.998524 -30.01 0.054919 60.026
4.95000000 0.055424 59.722 0.998497 -30.32 0.998497 -30.32 0.055424 59.722
5.00000000 0.055928 59.418 0.998471 -30.62 0.998471 -30.62 0.055928 59.418
5.05000000 0.056430 59.114 0.998445 -30.93 0.998445 -30.93 0.056430 59.114
5.10000000 0.056930 58.809 0.998418 -31.23 0.998418 -31.23 0.056930 58.809
5.15000000 0.057429 58.505 0.998391 -31.54 0.998391 -31.54 0.057429 58.505
5.20000000 0.057927 58.201 0.998364 -31.84 0.998364 -31.84 0.057927 58.201
5.25000000 0.058422 57.897 0.998337 -32.15 0.998337 -32.15 0.058422 57.897
5.30000000 0.058916 57.592 0.998310 -32.46 0.998310 -32.46 0.058916 57.592
5.35000000 0.059409 57.288 0.998282 -32.76 0.998282 -32.76 0.059409 57.288
5.40000000 0.059899 56.983 0.998254 -33.07 0.998254 -33.07 0.059899 56.983
5.45000000 0.060388 56.679 0.998227 -33.37 0.998227 -33.37 0.060388 56.679
5.50000000 0.060876 56.374 0.998198 -33.68 0.998198 -33.68 0.060876 56.374
5.55000000 0.061361 56.070 0.998170 -33.98 0.998170 -33.98 0.061361 56.070
5.60000000 0.061845 55.765 0.998142 -34.29 0.998142 -34.29 0.061845 55.765
5.65000000 0.062327 55.460 0.998113 -34.59 0.998113 -34.59 0.062327 55.460
5.70000000 0.062807 55.155 0.998084 -34.90 0.998084 -34.90 0.062807 55.155
5.75000000 0.063286 54.850 0.998055 -35.20 0.998055 -35.20 0.063286 54.850
5.80000000 0.063763 54.545 0.998025 -35.51 0.998025 -35.51 0.063763 54.545
5.85000000 0.064237 54.240 0.997996 -35.82 0.997996 -35.82 0.064237 54.240
5.90000000 0.064710 53.935 0.997966 -36.12 0.997966 -36.12 0.064710 53.935
5.95000000 0.065182 53.630 0.997936 -36.43 0.997936 -36.43 0.065182 53.630
6.00000000 0.065651 53.325 0.997906 -36.73 0.997906 -36.73 0.065651 53.325
6.05000000 0.066118 53.019 0.997876 -37.04 0.997876 -37.04 0.066118 53.019
6.10000000 0.066584 52.714 0.997845 -37.34 0.997845 -37.34 0.066584 52.714
6.15000000 0.067047 52.408 0.997814 -37.65 0.997814 -37.65 0.067047 52.408
6.20000000 0.067509 52.103 0.997783 -37.95 0.997783 -37.95 0.067509 52.103
6.25000000 0.067969 51.797 0.997752 -38.26 0.997752 -38.26 0.067969 51.797
6.30000000 0.068426 51.491 0.997721 -38.56 0.997721 -38.56 0.068426 51.491
6.35000000 0.068882 51.185 0.997689 -38.87 0.997689 -38.87 0.068882 51.185
6.40000000 0.069335 50.880 0.997657 -39.17 0.997657 -39.17 0.069335 50.880
6.45000000 0.069787 50.574 0.997625 -39.48 0.997625 -39.48 0.069787 50.574
6.50000000 0.070237 50.267 0.997593 -39.79 0.997593 -39.79 0.070237 50.267
6.55000000 0.070684 49.961 0.997561 -40.09 0.997561 -40.09 0.070684 49.961
6.60000000 0.071129 49.655 0.997528 -40.40 0.997528 -40.40 0.071129 49.655
6.65000000 0.071573 49.349 0.997496 -40.70 0.997496 -40.70 0.071573 49.349
6.70000000 0.072014 49.042 0.997463 -41.01 0.997463 -41.01 0.072014 49.042
6.75000000 0.072453 48.736 0.997430 -41.31 0.997430 -41.31 0.072453 48.736
6.80000000 0.072889 48.429 0.997396 -41.62 0.997396 -41.62 0.072889 48.429
6.85000000 0.073324 48.123 0.997363 -41.92 0.997363 -41.92 0.073324 48.123
6.90000000 0.073756 47.816 0.997329 -42.23 0.997329 -42.23 0.073756 47.816
6.95000000 0.074186 47.509 0.997296 -42.53 0.997296 -42.53 0.074186 47.509
7.00000000 0.074614 47.203 0.997262 -42.84 0.997262 -42.84 0.074614 47.203
7.05000000 0.075040 46.896 0.997228 -43.14 0.997228 -43.14 0.075040 46.896
7.10000000 0.075463 46.589 0.997194 -43.45 0.997194 -43.45 0.075463 46.589
7.15000000 0.075884 46.282 0.997160 -43.75 0.997160 -43.75 0.075884 46.282
7.20000000 0.076303 45.975 0.997125 -44.06 0.997125 -44.06 0.076303 45.975
7.25000000 0.076720 45.668 0.997091 -44.36 0.997091 -44.36 0.076720 45.668
7.30000000 0.077134 45.362 0.997056 -44.67 0.997056 -44.67 0.077134 45.362
7.35000000 0.077546 45.055 0.997022 -44.97 0.997022 -44.97 0.077546 45.055
7.40000000 0.077955 44.748 0.996987 -45.28 0.996987 -45.28 0.077955 44.748
7.45000000 0.078362 44.441 0.996952 -45.58 0.996952 -45.58 0.078362 44.441
7.50000000 0.078767 44.133 0.996917 -45.89 0.996917 -45.89 0.078767 44.133
7.55000000 0.079169 43.826 0.996882 -46.19 0.996882 -46.19 0.079169 43.826
7.60000000 0.079569 43.519 0.996847 -46.50 0.996847 -46.50 0.079569 43.519
7.65000000 0.079966 43.212 0.996812 -46.80 0.996812 -46.80 0.079966 43.212
7.70000000 0.080361 42.905 0.996777 -47.10 0.996777 -47.10 0.080361 42.905
7.75000000 0.080754 42.598 0.996742 -47.41 0.996742 -47.41 0.080754 42.598
7.80000000 0.081144 42.291 0.996707 -47.71 0.996707 -47.71 0.081144 42.291
7.85000000 0.081531 41.984 0.996672 -48.02 0.996672 -48.02 0.081531 41.984
7.90000000 0.081916 41.677 0.996637 -48.32 0.996637 -48.32 0.081916 41.677
!< P1 F=7.9 Eeff=(6.44080042 -2.9696e-5) Z0=(55.8204038 1.28738e-4) R=0.0 C=0.0 
!< P2 F=7.9 Eeff=(6.44080042 -2.9696e-5) Z0=(55.8204038 1.28738e-4) R=0.0 C=0.0 
7.95000000 0.082299 41.371 0.996603 -48.63 0.996603 -48.63 0.082299 41.371
8.00000000 0.082679 41.064 0.996568 -48.93 0.996568 -48.93 0.082679 41.064
8.05000000 0.083056 40.757 0.996533 -49.24 0.996533 -49.24 0.083056 40.757
8.10000000 0.083431 40.451 0.996499 -49.54 0.996499 -49.54 0.083431 40.451
8.15000000 0.083803 40.144 0.996465 -49.85 0.996465 -49.85 0.083803 40.144
8.20000000 0.084173 39.838 0.996431 -50.15 0.996431 -50.15 0.084173 39.838
8.25000000 0.084540 39.532 0.996397 -50.46 0.996397 -50.46 0.084540 39.532
8.30000000 0.084905 39.226 0.996364 -50.76 0.996364 -50.76 0.084905 39.226
8.35000000 0.085267 38.920 0.996330 -51.06 0.996330 -51.06 0.085267 38.920
8.40000000 0.085627 38.614 0.996297 -51.37 0.996297 -51.37 0.085627 38.614
8.45000000 0.085984 38.309 0.996265 -51.67 0.996265 -51.67 0.085984 38.309
8.50000000 0.086339 38.003 0.996232 -51.98 0.996232 -51.98 0.086339 38.003
8.55000000 0.086691 37.698 0.996200 -52.28 0.996200 -52.28 0.086691 37.698
8.60000000 0.087041 37.393 0.996168 -52.59 0.996168 -52.59 0.087041 37.393
8.65000000 0.087388 37.088 0.996136 -52.89 0.996136 -52.89 0.087388 37.088
8.70000000 0.087732 36.783 0.996105 -53.19 0.996105 -53.19 0.087732 36.783
8.75000000 0.088074 36.478 0.996073 -53.50 0.996073 -53.50 0.088074 36.478
8.80000000 0.088414 36.173 0.996042 -53.80 0.996042 -53.80 0.088414 36.173
8.85000000 0.088751 35.869 0.996012 -54.11 0.996012 -54.11 0.088751 35.869
8.90000000 0.089086 35.564 0.995981 -54.41 0.995981 -54.41 0.089086 35.564
8.95000000 0.089418 35.260 0.995951 -54.72 0.995951 -54.72 0.089418 35.260
9.00000000 0.089747 34.956 0.995921 -55.02 0.995921 -55.02 0.089747 34.956
9.05000000 0.090075 34.652 0.995892 -55.32 0.995892 -55.32 0.090075 34.652
9.10000000 0.090399 34.348 0.995862 -55.63 0.995862 -55.63 0.090399 34.348
9.15000000 0.090721 34.044 0.995833 -55.93 0.995833 -55.93 0.090721 34.044
9.20000000 0.091041 33.740 0.995805 -56.24 0.995805 -56.24 0.091041 33.740
9.25000000 0.091358 33.436 0.995776 -56.54 0.995776 -56.54 0.091358 33.436
9.30000000 0.091673 33.132 0.995748 -56.85 0.995748 -56.85 0.091673 33.132
9.35000000 0.091985 32.829 0.995720 -57.15 0.995720 -57.15 0.091985 32.829
9.40000000 0.092295 32.525 0.995692 -57.45 0.995692 -57.45 0.092295 32.525
9.45000000 0.092602 32.222 0.995665 -57.76 0.995665 -57.76 0.092602 32.222
9.50000000 0.092906 31.918 0.995637 -58.06 0.995637 -58.06 0.092906 31.918
9.55000000 0.093208 31.615 0.995610 -58.37 0.995610 -58.37 0.093208 31.615
9.60000000 0.093508 31.312 0.995583 -58.67 0.995583 -58.67 0.093508 31.312
9.65000000 0.093805 31.008 0.995557 -58.97 0.995557 -58.97 0.093805 31.008
9.70000000 0.094100 30.705 0.995530 -59.28 0.995530 -59.28 0.094100 30.705
9.75000000 0.094392 30.402 0.995504 -59.58 0.995504 -59.58 0.094392 30.402
9.80000000 0.094681 30.099 0.995478 -59.89 0.995478 -59.89 0.094681 30.099
9.85000000 0.094968 29.796 0.995453 -60.19 0.995453 -60.19 0.094968 29.796
9.90000000 0.095252 29.492 0.995427 -60.50 0.995427 -60.50 0.095252 29.492
9.95000000 0.095534 29.189 0.995402 -60.80 0.995402 -60.80 0.095534 29.189
10.0000000 0.095813 28.886 0.995377 -61.10 0.995377 -61.10 0.095813 28.886
10.0500000 0.096090 28.583 0.995351 -61.41 0.995351 -61.41 0.096090 28.583
10.1000000 0.096364 28.280 0.995327 -61.71 0.995327 -61.71 0.096364 28.280
10.1500000 0.096635 27.977 0.995302 -62.02 0.995302 -62.02 0.096635 27.977
10.2000000 0.096904 27.673 0.995277 -62.32 0.995277 -62.32 0.096904 27.673
10.2500000 0.097170 27.370 0.995253 -62.62 0.995253 -62.62 0.097170 27.370
10.3000000 0.097433 27.067 0.995229 -62.93 0.995229 -62.93 0.097433 27.067
10.3500000 0.097694 26.764 0.995205 -63.23 0.995205 -63.23 0.097694 26.764
10.4000000 0.097952 26.460 0.995181 -63.54 0.995181 -63.54 0.097952 26.460
10.4500000 0.098207 26.157 0.995157 -63.84 0.995157 -63.84 0.098207 26.157
10.5000000 0.098460 25.854 0.995134 -64.15 0.995134 -64.15 0.098460 25.854
10.5500000 0.098710 25.550 0.995110 -64.45 0.995110 -64.45 0.098710 25.550
10.6000000 0.098957 25.247 0.995087 -64.75 0.995087 -64.75 0.098957 25.247
10.6500000 0.099201 24.943 0.995063 -65.06 0.995063 -65.06 0.099201 24.943
10.7000000 0.099442 24.640 0.995040 -65.36 0.995040 -65.36 0.099442 24.640
10.7500000 0.099681 24.336 0.995017 -65.67 0.995017 -65.67 0.099681 24.336
10.8000000 0.099917 24.033 0.994995 -65.97 0.994995 -65.97 0.099917 24.033
10.8500000 0.100150 23.729 0.994972 -66.27 0.994972 -66.27 0.100150 23.729
10.9000000 0.100380 23.425 0.994949 -66.58 0.994949 -66.58 0.100380 23.425
10.9500000 0.100607 23.122 0.994927 -66.88 0.994927 -66.88 0.100607 23.122
11.0000000 0.100832 22.818 0.994904 -67.19 0.994904 -67.19 0.100832 22.818
11.0500000 0.101053 22.514 0.994882 -67.49 0.994882 -67.49 0.101053 22.514
11.1000000 0.101272 22.210 0.994860 -67.79 0.994860 -67.79 0.101272 22.210
11.1500000 0.101487 21.906 0.994838 -68.10 0.994838 -68.10 0.101487 21.906
11.2000000 0.101699 21.602 0.994817 -68.40 0.994817 -68.40 0.101699 21.602
11.2500000 0.101909 21.298 0.994795 -68.71 0.994795 -68.71 0.101909 21.298
11.3000000 0.102115 20.994 0.994774 -69.01 0.994774 -69.01 0.102115 20.994
11.3500000 0.102319 20.690 0.994753 -69.31 0.994753 -69.31 0.102319 20.690
11.4000000 0.102519 20.386 0.994731 -69.62 0.994731 -69.62 0.102519 20.386
11.4500000 0.102716 20.082 0.994711 -69.92 0.994711 -69.92 0.102716 20.082
11.5000000 0.102910 19.777 0.994690 -70.22 0.994690 -70.22 0.102910 19.777
11.5500000 0.103101 19.473 0.994670 -70.53 0.994670 -70.53 0.103101 19.473
11.6000000 0.103288 19.169 0.994649 -70.83 0.994649 -70.83 0.103288 19.169
11.6500000 0.103473 18.865 0.994630 -71.14 0.994630 -71.14 0.103473 18.865
!< P1 F=11.65 Eeff=(6.44491513 -2.9741e-5) Z0=(55.8019398 1.28763e-4) R=0.0 C=0.0 
!< P2 F=11.65 Eeff=(6.44491513 -2.9741e-5) Z0=(55.8019398 1.28763e-4) R=0.0 C=0.0 
11.7000000 0.103654 18.561 0.994610 -71.44 0.994610 -71.44 0.103654 18.561
11.7500000 0.103832 18.256 0.994591 -71.74 0.994591 -71.74 0.103832 18.256
11.8000000 0.104008 17.952 0.994572 -72.05 0.994572 -72.05 0.104008 17.952
11.8500000 0.104180 17.648 0.994553 -72.35 0.994553 -72.35 0.104180 17.648
11.9000000 0.104350 17.344 0.994534 -72.66 0.994534 -72.66 0.104350 17.344
11.9500000 0.104516 17.040 0.994516 -72.96 0.994516 -72.96 0.104516 17.040
12.0000000 0.104679 16.736 0.994499 -73.26 0.994499 -73.26 0.104679 16.736
12.0500000 0.104840 16.432 0.994481 -73.57 0.994481 -73.57 0.104840 16.432
12.1000000 0.104997 16.128 0.994464 -73.87 0.994464 -73.87 0.104997 16.128
12.1500000 0.105151 15.824 0.994448 -74.17 0.994448 -74.17 0.105151 15.824
12.2000000 0.105303 15.520 0.994431 -74.48 0.994431 -74.48 0.105303 15.521
12.2500000 0.105451 15.217 0.994415 -74.78 0.994415 -74.78 0.105451 15.217
12.3000000 0.105596 14.913 0.994400 -75.08 0.994400 -75.08 0.105596 14.913
12.3500000 0.105739 14.609 0.994384 -75.39 0.994384 -75.39 0.105739 14.609
12.4000000 0.105878 14.305 0.994369 -75.69 0.994369 -75.69 0.105878 14.305
12.4500000 0.106014 14.002 0.994355 -76.00 0.994355 -76.00 0.106014 14.002
12.5000000 0.106147 13.698 0.994341 -76.30 0.994341 -76.30 0.106147 13.698
12.5500000 0.106278 13.394 0.994327 -76.60 0.994327 -76.60 0.106278 13.394
12.6000000 0.106405 13.091 0.994313 -76.91 0.994313 -76.91 0.106405 13.091
