! Sonnet Data File
! From: emgraph Version : 16.52
! From Emgraph Data: Waveguide2
! Data File Written: 09/24/2017 12:30:58
!< HDATE 09/24/2017 12:12:58
!< MDATE 09/24/2017 12:12:58
# GHZ S MA R 50.00000
0.00000000 1.0e-100 -90.00 0.999969 0.0000 0.999969 0.0000 1.0e-100 -90.00
0.05000000 0.004227 -90.39 0.999991 -0.387 0.999991 -0.387 0.004227 -90.39
!< P1 F=0.05 Eeff=(6.36474385 -2.8453e-5) Z0=(24.0624684 5.51443e-5) R=0.08403212 C=0.17193955 
!< P2 F=0.05 Eeff=(6.36474385 -2.8453e-5) Z0=(24.0624684 5.51443e-5) R=0.08403212 C=0.17193955 
0.10000000 0.008435 -90.66 0.999948 -0.775 0.999948 -0.775 0.008436 -90.66
0.15000000 0.012647 -91.03 0.999891 -1.163 0.999891 -1.163 0.012648 -91.03
0.20000000 0.016860 -91.42 0.999820 -1.551 0.999820 -1.551 0.016861 -91.42
0.25000000 0.021074 -91.82 0.999735 -1.939 0.999735 -1.939 0.021075 -91.82
0.30000000 0.025287 -92.22 0.999634 -2.327 0.999634 -2.327 0.025289 -92.22
0.35000000 0.029500 -92.62 0.999519 -2.714 0.999519 -2.714 0.029502 -92.62
0.40000000 0.033711 -93.03 0.999389 -3.101 0.999389 -3.101 0.033712 -93.03
0.45000000 0.037919 -93.43 0.999243 -3.489 0.999243 -3.489 0.037921 -93.43
0.50000000 0.042125 -93.83 0.999080 -3.876 0.999080 -3.876 0.042126 -93.83
0.55000000 0.046327 -94.23 0.998901 -4.263 0.998901 -4.263 0.046328 -94.23
0.60000000 0.050525 -94.63 0.998706 -4.650 0.998706 -4.650 0.050525 -94.63
0.65000000 0.054718 -95.03 0.998493 -5.036 0.998493 -5.036 0.054718 -95.03
0.70000000 0.058906 -95.42 0.998263 -5.423 0.998263 -5.423 0.058906 -95.42
!< P1 F=0.7 Eeff=(6.37726969 -2.9274e-5) Z0=(24.0859383 5.52956e-5) R=0.00612163 C=0.1719402 
!< P2 F=0.7 Eeff=(6.37726969 -2.9274e-5) Z0=(24.0859383 5.52956e-5) R=0.00612163 C=0.1719402 
0.75000000 0.063090 -95.82 0.998015 -5.809 0.998015 -5.809 0.063089 -95.82
0.80000000 0.067268 -96.21 0.997750 -6.195 0.997750 -6.195 0.067267 -96.21
0.85000000 0.071440 -96.60 0.997466 -6.582 0.997466 -6.582 0.071439 -96.60
0.90000000 0.075606 -96.99 0.997165 -6.967 0.997165 -6.967 0.075605 -96.99
0.95000000 0.079766 -97.38 0.996845 -7.353 0.996845 -7.353 0.079765 -97.38
1.00000000 0.083920 -97.76 0.996506 -7.738 0.996506 -7.738 0.083918 -97.76
1.05000000 0.088066 -98.15 0.996149 -8.123 0.996149 -8.123 0.088065 -98.15
1.10000000 0.092206 -98.53 0.995774 -8.508 0.995774 -8.508 0.092204 -98.53
1.15000000 0.096339 -98.91 0.995381 -8.892 0.995381 -8.892 0.096337 -98.91
1.20000000 0.100464 -99.30 0.994969 -9.276 0.994969 -9.276 0.100463 -99.30
1.25000000 0.104582 -99.68 0.994540 -9.660 0.994540 -9.660 0.104581 -99.68
1.30000000 0.108693 -100.1 0.994092 -10.04 0.994092 -10.04 0.108692 -100.1
1.35000000 0.112795 -100.4 0.993627 -10.43 0.993627 -10.43 0.112795 -100.4
1.40000000 0.116890 -100.8 0.993144 -10.81 0.993144 -10.81 0.116890 -100.8
!< P1 F=1.4 Eeff=(6.3774882 -2.9278e-5) Z0=(24.085766 5.5292e-5) R=0.00306125 C=0.17194215 
!< P2 F=1.4 Eeff=(6.3774882 -2.9278e-5) Z0=(24.085766 5.5292e-5) R=0.00306125 C=0.17194215 
1.45000000 0.120977 -101.2 0.992644 -11.19 0.992644 -11.19 0.120978 -101.2
1.50000000 0.125058 -101.6 0.992125 -11.57 0.992125 -11.57 0.125059 -101.6
1.55000000 0.129132 -101.9 0.991590 -11.95 0.991590 -11.95 0.129134 -101.9
1.60000000 0.133199 -102.3 0.991037 -12.33 0.991037 -12.33 0.133202 -102.3
1.65000000 0.137259 -102.7 0.990469 -12.71 0.990469 -12.71 0.137263 -102.7
1.70000000 0.141312 -103.1 0.989884 -13.09 0.989884 -13.09 0.141316 -103.1
1.75000000 0.145356 -103.4 0.989284 -13.47 0.989284 -13.47 0.145362 -103.4
1.80000000 0.149392 -103.8 0.988670 -13.85 0.988670 -13.85 0.149399 -103.8
1.85000000 0.153419 -104.2 0.988041 -14.23 0.988041 -14.23 0.153427 -104.2
1.90000000 0.157438 -104.5 0.987398 -14.60 0.987398 -14.60 0.157446 -104.5
1.95000000 0.161446 -104.9 0.986742 -14.98 0.986742 -14.98 0.161456 -104.9
2.00000000 0.165445 -105.3 0.986072 -15.35 0.986072 -15.35 0.165456 -105.3
2.05000000 0.169433 -105.7 0.985390 -15.73 0.985390 -15.73 0.169445 -105.7
2.10000000 0.173410 -106.0 0.984696 -16.10 0.984696 -16.10 0.173423 -106.0
2.15000000 0.177375 -106.4 0.983990 -16.48 0.983990 -16.48 0.177390 -106.4
2.20000000 0.181328 -106.8 0.983271 -16.85 0.983271 -16.85 0.181344 -106.8
2.25000000 0.185269 -107.2 0.982542 -17.22 0.982542 -17.22 0.185287 -107.2
2.30000000 0.189197 -107.5 0.981801 -17.59 0.981801 -17.59 0.189216 -107.5
2.35000000 0.193111 -107.9 0.981049 -17.97 0.981049 -17.97 0.193131 -107.9
2.40000000 0.197012 -108.3 0.980287 -18.34 0.980287 -18.34 0.197033 -108.3
2.45000000 0.200897 -108.7 0.979514 -18.71 0.979514 -18.71 0.200919 -108.7
2.50000000 0.204768 -109.0 0.978730 -19.08 0.978730 -19.08 0.204791 -109.0
2.55000000 0.208623 -109.4 0.977937 -19.45 0.977937 -19.45 0.208648 -109.4
2.60000000 0.212463 -109.8 0.977133 -19.81 0.977133 -19.81 0.212488 -109.8
2.65000000 0.216286 -110.2 0.976319 -20.18 0.976319 -20.18 0.216312 -110.2
2.70000000 0.220092 -110.5 0.975495 -20.55 0.975495 -20.55 0.220120 -110.5
2.75000000 0.223882 -110.9 0.974662 -20.92 0.974662 -20.92 0.223910 -110.9
2.80000000 0.227653 -111.3 0.973818 -21.28 0.973818 -21.28 0.227683 -111.3
2.85000000 0.231407 -111.7 0.972965 -21.65 0.972965 -21.65 0.231437 -111.7
2.90000000 0.235143 -112.0 0.972102 -22.01 0.972102 -22.01 0.235174 -112.0
2.95000000 0.238860 -112.4 0.971230 -22.38 0.971230 -22.38 0.238892 -112.4
3.00000000 0.242559 -112.8 0.970348 -22.74 0.970348 -22.74 0.242591 -112.8
3.05000000 0.246238 -113.1 0.969456 -23.11 0.969456 -23.11 0.246270 -113.1
3.10000000 0.249898 -113.5 0.968555 -23.47 0.968555 -23.47 0.249931 -113.5
3.15000000 0.253539 -113.9 0.967644 -23.83 0.967644 -23.83 0.253572 -113.9
3.20000000 0.257159 -114.2 0.966724 -24.19 0.966724 -24.19 0.257192 -114.2
3.25000000 0.260760 -114.6 0.965794 -24.56 0.965794 -24.56 0.260793 -114.6
3.30000000 0.264341 -115.0 0.964855 -24.92 0.964855 -24.92 0.264374 -115.0
3.35000000 0.267901 -115.3 0.963906 -25.28 0.963906 -25.28 0.267934 -115.4
3.40000000 0.271441 -115.7 0.962948 -25.64 0.962948 -25.64 0.271473 -115.7
3.45000000 0.274960 -116.1 0.961981 -26.00 0.961981 -26.00 0.274992 -116.1
3.50000000 0.278458 -116.4 0.961005 -26.35 0.961005 -26.35 0.278491 -116.4
3.55000000 0.281936 -116.8 0.960019 -26.71 0.960019 -26.71 0.281968 -116.8
3.60000000 0.285393 -117.2 0.959024 -27.07 0.959024 -27.07 0.285424 -117.2
3.65000000 0.288829 -117.5 0.958020 -27.43 0.958020 -27.43 0.288860 -117.5
3.70000000 0.292244 -117.9 0.957007 -27.78 0.957007 -27.78 0.292274 -117.9
3.75000000 0.295638 -118.2 0.955985 -28.14 0.955985 -28.14 0.295667 -118.2
3.80000000 0.299011 -118.6 0.954954 -28.49 0.954954 -28.49 0.299039 -118.6
3.85000000 0.302363 -119.0 0.953914 -28.85 0.953914 -28.85 0.302390 -119.0
3.90000000 0.305694 -119.3 0.952865 -29.20 0.952865 -29.20 0.305720 -119.3
3.95000000 0.309004 -119.7 0.951808 -29.55 0.951808 -29.55 0.309029 -119.7
4.00000000 0.312293 -120.0 0.950742 -29.91 0.950742 -29.91 0.312316 -120.0
4.05000000 0.315560 -120.4 0.949668 -30.26 0.949668 -30.26 0.315583 -120.4
4.10000000 0.318807 -120.7 0.948586 -30.61 0.948586 -30.61 0.318829 -120.7
4.15000000 0.322033 -121.1 0.947495 -30.96 0.947495 -30.96 0.322053 -121.1
4.20000000 0.325238 -121.4 0.946397 -31.31 0.946397 -31.31 0.325257 -121.4
4.25000000 0.328422 -121.8 0.945291 -31.66 0.945291 -31.66 0.328440 -121.8
4.30000000 0.331586 -122.1 0.944177 -32.01 0.944177 -32.01 0.331602 -122.1
4.35000000 0.334728 -122.5 0.943055 -32.35 0.943055 -32.35 0.334743 -122.5
4.40000000 0.337850 -122.8 0.941926 -32.70 0.941926 -32.70 0.337864 -122.8
4.45000000 0.340952 -123.1 0.940790 -33.05 0.940790 -33.05 0.340964 -123.1
4.50000000 0.344033 -123.5 0.939647 -33.39 0.939647 -33.39 0.344043 -123.5
4.55000000 0.347093 -123.8 0.938496 -33.73 0.938496 -33.73 0.347102 -123.8
4.60000000 0.350134 -124.2 0.937340 -34.08 0.937340 -34.08 0.350141 -124.2
4.65000000 0.353153 -124.5 0.936176 -34.42 0.936176 -34.42 0.353160 -124.5
4.70000000 0.356153 -124.8 0.935007 -34.76 0.935007 -34.76 0.356158 -124.8
4.75000000 0.359133 -125.2 0.933831 -35.10 0.933831 -35.10 0.359137 -125.2
4.80000000 0.362093 -125.5 0.932649 -35.44 0.932649 -35.44 0.362096 -125.5
4.85000000 0.365032 -125.8 0.931462 -35.78 0.931462 -35.78 0.365034 -125.8
4.90000000 0.367952 -126.2 0.930269 -36.12 0.930269 -36.12 0.367954 -126.2
4.95000000 0.370853 -126.5 0.929071 -36.46 0.929071 -36.46 0.370853 -126.5
5.00000000 0.373733 -126.8 0.927867 -36.80 0.927867 -36.80 0.373733 -126.8
5.05000000 0.376595 -127.2 0.926659 -37.13 0.926659 -37.13 0.376594 -127.2
5.10000000 0.379437 -127.5 0.925446 -37.47 0.925446 -37.47 0.379436 -127.5
5.15000000 0.382259 -127.8 0.924229 -37.80 0.924229 -37.80 0.382258 -127.8
5.20000000 0.385063 -128.1 0.923008 -38.13 0.923008 -38.13 0.385062 -128.1
5.25000000 0.387847 -128.5 0.921782 -38.47 0.921782 -38.47 0.387847 -128.5
5.30000000 0.390613 -128.8 0.920553 -38.80 0.920553 -38.80 0.390613 -128.8
!< P1 F=5.3 Eeff=(6.38065519 -2.9306e-5) Z0=(24.0814245 5.53141e-5) R=8.0853e-4 C=0.17197757 
!< P2 F=5.3 Eeff=(6.38065519 -2.9306e-5) Z0=(24.0814245 5.53141e-5) R=8.0853e-4 C=0.17197757 
5.35000000 0.393360 -129.1 0.919322 -39.13 0.919322 -39.13 0.393360 -129.1
5.40000000 0.396088 -129.4 0.918092 -39.46 0.918092 -39.46 0.396090 -129.4
5.45000000 0.398799 -129.8 0.916862 -39.79 0.916862 -39.79 0.398801 -129.8
5.50000000 0.401492 -130.1 0.915634 -40.11 0.915634 -40.11 0.401494 -130.1
5.55000000 0.404167 -130.4 0.914406 -40.44 0.914406 -40.44 0.404169 -130.4
5.60000000 0.406823 -130.7 0.913180 -40.77 0.913180 -40.77 0.406826 -130.7
5.65000000 0.409462 -131.0 0.911956 -41.09 0.911956 -41.09 0.409465 -131.0
5.70000000 0.412082 -131.4 0.910734 -41.41 0.910734 -41.41 0.412086 -131.4
5.75000000 0.414684 -131.7 0.909514 -41.74 0.909514 -41.74 0.414688 -131.7
5.80000000 0.417269 -132.0 0.908296 -42.06 0.908296 -42.06 0.417273 -132.0
5.85000000 0.419834 -132.3 0.907080 -42.38 0.907080 -42.38 0.419839 -132.3
5.90000000 0.422382 -132.6 0.905868 -42.70 0.905868 -42.70 0.422386 -132.6
5.95000000 0.424911 -133.0 0.904658 -43.02 0.904658 -43.02 0.424916 -133.0
6.00000000 0.427423 -133.3 0.903451 -43.34 0.903451 -43.34 0.427427 -133.3
6.05000000 0.429915 -133.6 0.902247 -43.66 0.902247 -43.66 0.429920 -133.6
6.10000000 0.432390 -133.9 0.901047 -43.97 0.901047 -43.97 0.432395 -133.9
6.15000000 0.434846 -134.2 0.899850 -44.29 0.899850 -44.29 0.434851 -134.2
6.20000000 0.437285 -134.5 0.898657 -44.60 0.898657 -44.60 0.437289 -134.5
6.25000000 0.439704 -134.8 0.897467 -44.92 0.897467 -44.92 0.439709 -134.8
6.30000000 0.442106 -135.2 0.896281 -45.23 0.896281 -45.23 0.442110 -135.2
6.35000000 0.444489 -135.5 0.895098 -45.54 0.895098 -45.54 0.444493 -135.5
6.40000000 0.446854 -135.8 0.893920 -45.85 0.893920 -45.85 0.446858 -135.8
6.45000000 0.449200 -136.1 0.892746 -46.16 0.892746 -46.16 0.449204 -136.1
6.50000000 0.451529 -136.4 0.891576 -46.47 0.891576 -46.47 0.451532 -136.4
6.55000000 0.453838 -136.7 0.890409 -46.78 0.890409 -46.78 0.453841 -136.7
6.60000000 0.456130 -137.0 0.889247 -47.09 0.889247 -47.09 0.456132 -137.0
6.65000000 0.458403 -137.3 0.888090 -47.40 0.888090 -47.40 0.458405 -137.3
6.70000000 0.460658 -137.6 0.886936 -47.70 0.886936 -47.70 0.460660 -137.6
6.75000000 0.462895 -138.0 0.885787 -48.01 0.885787 -48.01 0.462896 -137.9
6.80000000 0.465114 -138.3 0.884642 -48.31 0.884642 -48.31 0.465114 -138.3
6.85000000 0.467314 -138.6 0.883501 -48.62 0.883501 -48.62 0.467314 -138.6
6.90000000 0.469496 -138.9 0.882364 -48.92 0.882364 -48.92 0.469495 -138.9
6.95000000 0.471660 -139.2 0.881232 -49.22 0.881232 -49.22 0.471659 -139.2
7.00000000 0.473806 -139.5 0.880104 -49.52 0.880104 -49.52 0.473804 -139.5
7.05000000 0.475934 -139.8 0.878980 -49.82 0.878980 -49.82 0.475931 -139.8
7.10000000 0.478044 -140.1 0.877861 -50.12 0.877861 -50.12 0.478040 -140.1
7.15000000 0.480136 -140.4 0.876745 -50.42 0.876745 -50.42 0.480132 -140.4
7.20000000 0.482210 -140.7 0.875634 -50.72 0.875634 -50.72 0.482205 -140.7
7.25000000 0.484266 -141.0 0.874526 -51.02 0.874526 -51.02 0.484260 -141.0
7.30000000 0.486304 -141.3 0.873423 -51.32 0.873423 -51.32 0.486298 -141.3
7.35000000 0.488324 -141.6 0.872323 -51.61 0.872323 -51.61 0.488318 -141.6
7.40000000 0.490327 -141.9 0.871227 -51.91 0.871227 -51.91 0.490320 -141.9
7.45000000 0.492312 -142.2 0.870135 -52.20 0.870135 -52.20 0.492304 -142.2
7.50000000 0.494280 -142.5 0.869047 -52.49 0.869047 -52.49 0.494272 -142.5
7.55000000 0.496230 -142.8 0.867962 -52.79 0.867962 -52.79 0.496221 -142.8
7.60000000 0.498163 -143.1 0.866881 -53.08 0.866881 -53.08 0.498154 -143.1
7.65000000 0.500079 -143.4 0.865803 -53.37 0.865803 -53.37 0.500069 -143.4
7.70000000 0.501977 -143.7 0.864729 -53.66 0.864729 -53.66 0.501968 -143.7
7.75000000 0.503859 -143.9 0.863657 -53.95 0.863657 -53.95 0.503849 -143.9
7.80000000 0.505724 -144.2 0.862588 -54.24 0.862588 -54.24 0.505714 -144.2
7.85000000 0.507572 -144.5 0.861523 -54.53 0.861523 -54.53 0.507562 -144.5
7.90000000 0.509403 -144.8 0.860460 -54.81 0.860460 -54.81 0.509393 -144.8
7.95000000 0.511217 -145.1 0.859400 -55.10 0.859400 -55.10 0.511208 -145.1
8.00000000 0.513016 -145.4 0.858342 -55.39 0.858342 -55.39 0.513007 -145.4
8.05000000 0.514798 -145.7 0.857287 -55.67 0.857287 -55.67 0.514790 -145.7
8.10000000 0.516564 -146.0 0.856234 -55.95 0.856234 -55.95 0.516557 -146.0
8.15000000 0.518314 -146.2 0.855183 -56.24 0.855183 -56.24 0.518308 -146.2
8.20000000 0.520048 -146.5 0.854134 -56.52 0.854134 -56.52 0.520044 -146.5
8.25000000 0.521766 -146.8 0.853087 -56.80 0.853087 -56.80 0.521764 -146.8
8.30000000 0.523470 -147.1 0.852041 -57.08 0.852041 -57.08 0.523470 -147.1
!< P1 F=8.3 Eeff=(6.38554786 -2.9373e-5) Z0=(24.0749231 5.53665e-5) R=5.16047e-4 C=0.17203643 
!< P2 F=8.3 Eeff=(6.38554786 -2.9373e-5) Z0=(24.0749231 5.53665e-5) R=5.16047e-4 C=0.17203643 
8.35000000 0.525157 -147.4 0.851000 -57.36 0.851000 -57.36 0.525160 -147.4
8.40000000 0.526829 -147.6 0.849963 -57.64 0.849963 -57.64 0.526834 -147.6
8.45000000 0.528486 -147.9 0.848933 -57.92 0.848933 -57.92 0.528493 -147.9
8.50000000 0.530127 -148.2 0.847909 -58.20 0.847909 -58.20 0.530137 -148.2
8.55000000 0.531753 -148.5 0.846891 -58.47 0.846891 -58.47 0.531765 -148.5
8.60000000 0.533364 -148.7 0.845879 -58.75 0.845879 -58.75 0.533378 -148.7
8.65000000 0.534960 -149.0 0.844874 -59.03 0.844874 -59.03 0.534976 -149.0
8.70000000 0.536540 -149.3 0.843875 -59.30 0.843875 -59.30 0.536559 -149.3
8.75000000 0.538105 -149.6 0.842882 -59.58 0.842882 -59.58 0.538127 -149.6
8.80000000 0.539656 -149.8 0.841896 -59.85 0.841896 -59.85 0.539680 -149.8
8.85000000 0.541191 -150.1 0.840917 -60.12 0.840917 -60.12 0.541218 -150.1
8.90000000 0.542712 -150.4 0.839944 -60.39 0.839944 -60.39 0.542741 -150.4
8.95000000 0.544218 -150.7 0.838978 -60.66 0.838978 -60.66 0.544250 -150.7
9.00000000 0.545709 -150.9 0.838019 -60.94 0.838019 -60.94 0.545743 -150.9
9.05000000 0.547185 -151.2 0.837067 -61.21 0.837067 -61.21 0.547223 -151.2
9.10000000 0.548646 -151.5 0.836122 -61.47 0.836122 -61.47 0.548687 -151.5
9.15000000 0.550094 -151.7 0.835184 -61.74 0.835184 -61.74 0.550137 -151.7
9.20000000 0.551526 -152.0 0.834253 -62.01 0.834253 -62.01 0.551572 -152.0
9.25000000 0.552944 -152.3 0.833330 -62.28 0.833330 -62.28 0.552993 -152.3
9.30000000 0.554348 -152.5 0.832414 -62.55 0.832414 -62.55 0.554399 -152.5
9.35000000 0.555737 -152.8 0.831505 -62.81 0.831505 -62.81 0.555792 -152.8
9.40000000 0.557112 -153.1 0.830604 -63.08 0.830604 -63.08 0.557169 -153.1
9.45000000 0.558473 -153.3 0.829710 -63.34 0.829710 -63.34 0.558533 -153.3
9.50000000 0.559819 -153.6 0.828824 -63.61 0.828824 -63.61 0.559882 -153.6
9.55000000 0.561151 -153.9 0.827946 -63.87 0.827946 -63.87 0.561217 -153.9
9.60000000 0.562469 -154.1 0.827075 -64.13 0.827075 -64.13 0.562538 -154.1
9.65000000 0.563773 -154.4 0.826212 -64.40 0.826212 -64.40 0.563845 -154.4
9.70000000 0.565063 -154.7 0.825357 -64.66 0.825357 -64.66 0.565138 -154.7
9.75000000 0.566339 -154.9 0.824510 -64.92 0.824510 -64.92 0.566416 -154.9
9.80000000 0.567601 -155.2 0.823671 -65.18 0.823671 -65.18 0.567681 -155.2
9.85000000 0.568849 -155.4 0.822839 -65.44 0.822839 -65.44 0.568932 -155.4
9.90000000 0.570083 -155.7 0.822016 -65.70 0.822016 -65.70 0.570169 -155.7
9.95000000 0.571303 -156.0 0.821201 -65.96 0.821201 -65.96 0.571391 -156.0
10.0000000 0.572509 -156.2 0.820394 -66.22 0.820394 -66.22 0.572600 -156.2
10.0500000 0.573702 -156.5 0.819595 -66.48 0.819595 -66.48 0.573796 -156.5
10.1000000 0.574880 -156.7 0.818804 -66.74 0.818804 -66.74 0.574977 -156.8
10.1500000 0.576045 -157.0 0.818021 -66.99 0.818021 -66.99 0.576145 -157.0
10.2000000 0.577196 -157.3 0.817247 -67.25 0.817247 -67.25 0.577298 -157.3
10.2500000 0.578334 -157.5 0.816481 -67.51 0.816481 -67.51 0.578438 -157.5
10.3000000 0.579458 -157.8 0.815723 -67.76 0.815723 -67.76 0.579565 -157.8
10.3500000 0.580568 -158.0 0.814974 -68.02 0.814974 -68.02 0.580677 -158.0
10.4000000 0.581664 -158.3 0.814233 -68.27 0.814233 -68.27 0.581776 -158.3
10.4500000 0.582747 -158.5 0.813501 -68.53 0.813501 -68.53 0.582862 -158.6
10.5000000 0.583817 -158.8 0.812777 -68.78 0.812777 -68.78 0.583933 -158.8
10.5500000 0.584872 -159.1 0.812061 -69.03 0.812061 -69.03 0.584991 -159.1
10.6000000 0.585915 -159.3 0.811355 -69.29 0.811355 -69.29 0.586036 -159.3
10.6500000 0.586943 -159.6 0.810656 -69.54 0.810656 -69.54 0.587067 -159.6
10.7000000 0.587958 -159.8 0.809966 -69.79 0.809966 -69.79 0.588084 -159.8
10.7500000 0.588960 -160.1 0.809285 -70.04 0.809285 -70.04 0.589088 -160.1
10.8000000 0.589948 -160.3 0.808612 -70.30 0.808612 -70.30 0.590078 -160.3
10.8500000 0.590923 -160.6 0.807948 -70.55 0.807948 -70.55 0.591055 -160.6
10.9000000 0.591884 -160.8 0.807293 -70.80 0.807293 -70.80 0.592018 -160.9
10.9500000 0.592832 -161.1 0.806646 -71.05 0.806646 -71.05 0.592967 -161.1
11.0000000 0.593766 -161.3 0.806008 -71.30 0.806008 -71.30 0.593903 -161.4
11.0500000 0.594687 -161.6 0.805378 -71.55 0.805378 -71.55 0.594826 -161.6
11.1000000 0.595594 -161.8 0.804758 -71.80 0.804758 -71.80 0.595735 -161.9
11.1500000 0.596488 -162.1 0.804146 -72.05 0.804146 -72.05 0.596630 -162.1
11.2000000 0.597368 -162.3 0.803542 -72.30 0.803542 -72.30 0.597512 -162.4
11.2500000 0.598236 -162.6 0.802947 -72.54 0.802947 -72.54 0.598381 -162.6
11.3000000 0.599089 -162.9 0.802361 -72.79 0.802361 -72.79 0.599236 -162.9
11.3500000 0.599929 -163.1 0.801784 -73.04 0.801784 -73.04 0.600077 -163.1
11.4000000 0.600756 -163.4 0.801215 -73.29 0.801215 -73.29 0.600905 -163.4
11.4500000 0.601570 -163.6 0.800655 -73.54 0.800655 -73.54 0.601720 -163.6
11.5000000 0.602370 -163.9 0.800104 -73.78 0.800104 -73.78 0.602521 -163.9
11.5500000 0.603156 -164.1 0.799561 -74.03 0.799561 -74.03 0.603308 -164.1
11.6000000 0.603929 -164.4 0.799027 -74.28 0.799027 -74.28 0.604082 -164.4
11.6500000 0.604689 -164.6 0.798502 -74.52 0.798502 -74.52 0.604843 -164.6
11.7000000 0.605435 -164.9 0.797985 -74.77 0.797985 -74.77 0.605590 -164.9
11.7500000 0.606168 -165.1 0.797477 -75.01 0.797477 -75.01 0.606323 -165.1
11.8000000 0.606887 -165.3 0.796978 -75.26 0.796978 -75.26 0.607043 -165.4
11.8500000 0.607593 -165.6 0.796487 -75.51 0.796487 -75.51 0.607749 -165.6
11.9000000 0.608285 -165.8 0.796005 -75.75 0.796005 -75.75 0.608442 -165.9
11.9500000 0.608964 -166.1 0.795531 -76.00 0.795531 -76.00 0.609121 -166.1
12.0000000 0.609630 -166.3 0.795066 -76.24 0.795066 -76.24 0.609786 -166.4
12.0500000 0.610282 -166.6 0.794609 -76.48 0.794609 -76.48 0.610438 -166.6
12.1000000 0.610920 -166.8 0.794161 -76.73 0.794161 -76.73 0.611077 -166.9
12.1500000 0.611545 -167.1 0.793722 -76.97 0.793722 -76.97 0.611701 -167.1
12.2000000 0.612156 -167.3 0.793291 -77.22 0.793291 -77.22 0.612312 -167.4
12.2500000 0.612754 -167.6 0.792868 -77.46 0.792868 -77.46 0.612910 -167.6
12.3000000 0.613338 -167.8 0.792454 -77.71 0.792454 -77.71 0.613493 -167.8
12.3500000 0.613908 -168.1 0.792049 -77.95 0.792049 -77.95 0.614063 -168.1
12.4000000 0.614465 -168.3 0.791651 -78.19 0.791651 -78.19 0.614620 -168.3
12.4500000 0.615009 -168.6 0.791262 -78.44 0.791262 -78.44 0.615162 -168.6
12.5000000 0.615538 -168.8 0.790882 -78.68 0.790882 -78.68 0.615691 -168.8
