! Sonnet Data File
! From: emgraph Version : 16.52
! From Emgraph Data: Waveguide2
! Data File Written: 09/24/2017 15:18:26
!< HDATE 09/24/2017 13:01:43
!< MDATE 09/24/2017 13:01:43
!< PARAMS
!< hWid = 5.0
!< gap = 6.0
!< Pwid = 145.0
!< END PARAMS
# GHZ S MA R 50.00000
4.00000000 0.500199 -165.3 0.865907 -75.26 0.865907 -75.26 0.500199 -165.3
!< P1 F=4.0 Eeff=(6.40005269 -2.9448e-5) Z0=(28.2046892 6.49252e-5) R=0.00231674 C=0.07967323 
!< P2 F=4.0 Eeff=(6.40005269 -2.9448e-5) Z0=(28.2046892 6.49252e-5) R=0.00231674 C=0.07967323 
4.02000000 0.500925 -165.6 0.865485 -75.58 0.865485 -75.58 0.500925 -165.6
4.04000000 0.501635 -165.9 0.865072 -75.90 0.865072 -75.90 0.501635 -165.9
4.06000000 0.502329 -166.2 0.864668 -76.21 0.864668 -76.21 0.502329 -166.2
4.08000000 0.503007 -166.5 0.864272 -76.53 0.864272 -76.53 0.503007 -166.5
4.10000000 0.503669 -166.8 0.863886 -76.85 0.863886 -76.85 0.503669 -166.8
4.12000000 0.504315 -167.2 0.863508 -77.17 0.863508 -77.17 0.504315 -167.2
4.14000000 0.504946 -167.5 0.863139 -77.49 0.863139 -77.49 0.504946 -167.5
4.16000000 0.505560 -167.8 0.862779 -77.80 0.862779 -77.80 0.505560 -167.8
4.18000000 0.506159 -168.1 0.862427 -78.12 0.862427 -78.12 0.506159 -168.1
4.20000000 0.506742 -168.4 0.862085 -78.44 0.862085 -78.44 0.506742 -168.4
4.22000000 0.507309 -168.8 0.861752 -78.75 0.861752 -78.75 0.507309 -168.8
4.24000000 0.507860 -169.1 0.861427 -79.07 0.861427 -79.07 0.507860 -169.1
4.26000000 0.508395 -169.4 0.861111 -79.39 0.861111 -79.39 0.508395 -169.4
4.28000000 0.508915 -169.7 0.860805 -79.70 0.860805 -79.70 0.508915 -169.7
4.30000000 0.509419 -170.0 0.860507 -80.02 0.860507 -80.02 0.509419 -170.0
4.32000000 0.509907 -170.3 0.860219 -80.33 0.860219 -80.33 0.509907 -170.3
4.34000000 0.510380 -170.6 0.859939 -80.65 0.859939 -80.65 0.510380 -170.6
4.36000000 0.510837 -171.0 0.859668 -80.96 0.859668 -80.96 0.510837 -171.0
4.38000000 0.511278 -171.3 0.859407 -81.28 0.859407 -81.28 0.511278 -171.3
4.40000000 0.511704 -171.6 0.859154 -81.59 0.859154 -81.59 0.511704 -171.6
4.42000000 0.512114 -171.9 0.858911 -81.91 0.858911 -81.91 0.512114 -171.9
4.44000000 0.512508 -172.2 0.858677 -82.22 0.858677 -82.22 0.512508 -172.2
4.46000000 0.512887 -172.5 0.858451 -82.54 0.858451 -82.54 0.512887 -172.5
4.48000000 0.513250 -172.8 0.858235 -82.85 0.858235 -82.85 0.513250 -172.8
4.50000000 0.513597 -173.2 0.858028 -83.16 0.858028 -83.16 0.513597 -173.2
!< P1 F=4.5 Eeff=(6.40045149 -2.9449e-5) Z0=(28.2027596 6.493e-5) R=0.00206096 C=0.07966696 
!< P2 F=4.5 Eeff=(6.40045149 -2.9449e-5) Z0=(28.2027596 6.493e-5) R=0.00206096 C=0.07966696 
4.52000000 0.513930 -173.5 0.857830 -83.48 0.857830 -83.48 0.513930 -173.5
4.54000000 0.514246 -173.8 0.857641 -83.79 0.857641 -83.79 0.514246 -173.8
4.56000000 0.514547 -174.1 0.857461 -84.10 0.857461 -84.10 0.514547 -174.1
4.58000000 0.514833 -174.4 0.857290 -84.42 0.857290 -84.42 0.514833 -174.4
4.60000000 0.515103 -174.7 0.857129 -84.73 0.857129 -84.73 0.515103 -174.7
4.62000000 0.515357 -175.0 0.856977 -85.04 0.856977 -85.04 0.515357 -175.0
4.64000000 0.515596 -175.4 0.856833 -85.36 0.856833 -85.36 0.515596 -175.4
4.66000000 0.515820 -175.7 0.856699 -85.67 0.856699 -85.67 0.515820 -175.7
4.68000000 0.516028 -176.0 0.856575 -85.98 0.856575 -85.98 0.516028 -176.0
4.70000000 0.516221 -176.3 0.856459 -86.29 0.856459 -86.29 0.516221 -176.3
4.72000000 0.516398 -176.6 0.856353 -86.61 0.856353 -86.61 0.516398 -176.6
4.74000000 0.516560 -176.9 0.856255 -86.92 0.856255 -86.92 0.516560 -176.9
4.76000000 0.516707 -177.2 0.856167 -87.23 0.856167 -87.23 0.516707 -177.2
4.78000000 0.516838 -177.5 0.856089 -87.54 0.856089 -87.54 0.516838 -177.5
4.80000000 0.516953 -177.9 0.856019 -87.86 0.856019 -87.86 0.516953 -177.9
4.82000000 0.517054 -178.2 0.855959 -88.17 0.855959 -88.17 0.517054 -178.2
4.84000000 0.517138 -178.5 0.855908 -88.48 0.855908 -88.48 0.517138 -178.5
4.86000000 0.517208 -178.8 0.855866 -88.79 0.855866 -88.79 0.517208 -178.8
4.88000000 0.517262 -179.1 0.855833 -89.11 0.855833 -89.11 0.517262 -179.1
4.90000000 0.517301 -179.4 0.855810 -89.42 0.855810 -89.42 0.517301 -179.4
4.92000000 0.517324 -179.7 0.855796 -89.73 0.855796 -89.73 0.517324 -179.7
4.94000000 0.517332 179.96 0.855791 -90.04 0.855791 -90.04 0.517332 179.96
4.96000000 0.517325 179.64 0.855796 -90.35 0.855796 -90.35 0.517325 179.64
4.98000000 0.517302 179.33 0.855809 -90.67 0.855809 -90.67 0.517302 179.33
5.00000000 0.517264 179.02 0.855832 -90.98 0.855832 -90.98 0.517264 179.02
5.02000000 0.517210 178.71 0.855864 -91.29 0.855864 -91.29 0.517210 178.71
5.04000000 0.517141 178.40 0.855906 -91.60 0.855906 -91.60 0.517141 178.40
5.06000000 0.517057 178.08 0.855956 -91.92 0.855956 -91.92 0.517057 178.08
5.08000000 0.516957 177.77 0.856016 -92.23 0.856016 -92.23 0.516957 177.77
5.10000000 0.516842 177.46 0.856086 -92.54 0.856086 -92.54 0.516842 177.46
5.12000000 0.516712 177.15 0.856164 -92.85 0.856164 -92.85 0.516712 177.15
5.14000000 0.516566 176.83 0.856252 -93.16 0.856252 -93.16 0.516566 176.83
5.16000000 0.516405 176.52 0.856349 -93.48 0.856349 -93.48 0.516405 176.52
5.18000000 0.516228 176.21 0.856455 -93.79 0.856455 -93.79 0.516228 176.21
5.20000000 0.516036 175.90 0.856570 -94.10 0.856570 -94.10 0.516036 175.90
5.22000000 0.515828 175.58 0.856695 -94.41 0.856695 -94.41 0.515828 175.58
5.24000000 0.515605 175.27 0.856829 -94.73 0.856829 -94.73 0.515605 175.27
5.26000000 0.515367 174.96 0.856972 -95.04 0.856972 -95.04 0.515367 174.96
5.28000000 0.515113 174.65 0.857124 -95.35 0.857124 -95.35 0.515113 174.65
5.30000000 0.514843 174.33 0.857285 -95.67 0.857285 -95.67 0.514843 174.33
5.32000000 0.514558 174.02 0.857456 -95.98 0.857456 -95.98 0.514558 174.02
5.34000000 0.514258 173.71 0.857636 -96.29 0.857636 -96.29 0.514258 173.71
5.36000000 0.513942 173.39 0.857824 -96.61 0.857824 -96.61 0.513942 173.39
5.38000000 0.513610 173.08 0.858023 -96.92 0.858023 -96.92 0.513610 173.08
5.40000000 0.513263 172.77 0.858230 -97.23 0.858230 -97.23 0.513263 172.77
5.42000000 0.512901 172.45 0.858446 -97.55 0.858446 -97.55 0.512901 172.45
5.44000000 0.512522 172.14 0.858672 -97.86 0.858672 -97.86 0.512522 172.14
5.46000000 0.512129 171.82 0.858906 -98.18 0.858906 -98.18 0.512129 171.82
5.48000000 0.511719 171.51 0.859150 -98.49 0.859150 -98.49 0.511719 171.51
5.50000000 0.511294 171.19 0.859403 -98.81 0.859403 -98.81 0.511294 171.19
5.52000000 0.510853 170.88 0.859664 -99.12 0.859664 -99.12 0.510853 170.88
!< P1 F=5.52 Eeff=(6.40138138 -2.9463e-5) Z0=(28.198135 6.49523e-5) R=0.00167832 C=0.07965285 
!< P2 F=5.52 Eeff=(6.40138138 -2.9463e-5) Z0=(28.198135 6.49523e-5) R=0.00167832 C=0.07965285 
5.54000000 0.510396 170.56 0.859935 -99.44 0.859935 -99.44 0.510396 170.56
5.56000000 0.509924 170.25 0.860215 -99.75 0.860215 -99.75 0.509924 170.25
5.58000000 0.509436 169.93 0.860504 -100.1 0.860504 -100.1 0.509436 169.93
5.60000000 0.508932 169.62 0.860802 -100.4 0.860802 -100.4 0.508932 169.62
5.62000000 0.508412 169.30 0.861108 -100.7 0.861108 -100.7 0.508412 169.30
5.64000000 0.507876 168.99 0.861424 -101.0 0.861424 -101.0 0.507876 168.99
5.66000000 0.507324 168.67 0.861748 -101.3 0.861748 -101.3 0.507324 168.67
5.68000000 0.506757 168.35 0.862082 -101.6 0.862082 -101.6 0.506757 168.35
5.70000000 0.506173 168.04 0.862424 -102.0 0.862424 -102.0 0.506173 168.04
5.72000000 0.505574 167.72 0.862775 -102.3 0.862775 -102.3 0.505574 167.72
5.74000000 0.504958 167.40 0.863135 -102.6 0.863135 -102.6 0.504958 167.40
5.76000000 0.504327 167.08 0.863504 -102.9 0.863504 -102.9 0.504327 167.08
5.78000000 0.503679 166.77 0.863881 -103.2 0.863881 -103.2 0.503679 166.77
5.80000000 0.503015 166.45 0.864268 -103.6 0.864268 -103.6 0.503015 166.45
5.82000000 0.502335 166.13 0.864662 -103.9 0.864662 -103.9 0.502335 166.13
5.84000000 0.501639 165.81 0.865066 -104.2 0.865066 -104.2 0.501639 165.81
5.86000000 0.500927 165.49 0.865478 -104.5 0.865478 -104.5 0.500927 165.49
5.88000000 0.500198 165.17 0.865899 -104.8 0.865899 -104.8 0.500198 165.17
5.90000000 0.499453 164.85 0.866328 -105.1 0.866328 -105.1 0.499453 164.85
5.92000000 0.498692 164.53 0.866766 -105.5 0.866766 -105.5 0.498692 164.53
5.94000000 0.497915 164.21 0.867213 -105.8 0.867213 -105.8 0.497915 164.21
5.96000000 0.497121 163.89 0.867667 -106.1 0.867667 -106.1 0.497121 163.89
5.98000000 0.496310 163.57 0.868131 -106.4 0.868131 -106.4 0.496310 163.57
6.00000000 0.495483 163.25 0.868602 -106.8 0.868602 -106.8 0.495483 163.25
6.02000000 0.494640 162.93 0.869082 -107.1 0.869082 -107.1 0.494640 162.93
6.04000000 0.493780 162.61 0.869571 -107.4 0.869571 -107.4 0.493780 162.61
6.06000000 0.492903 162.28 0.870068 -107.7 0.870068 -107.7 0.492903 162.28
6.08000000 0.492010 161.96 0.870572 -108.0 0.870572 -108.0 0.492010 161.96
6.10000000 0.491100 161.64 0.871086 -108.4 0.871086 -108.4 0.491100 161.64
6.12000000 0.490173 161.31 0.871607 -108.7 0.871607 -108.7 0.490173 161.31
6.14000000 0.489230 160.99 0.872136 -109.0 0.872136 -109.0 0.489230 160.99
6.16000000 0.488270 160.66 0.872674 -109.3 0.872674 -109.3 0.488270 160.66
6.18000000 0.487293 160.34 0.873219 -109.7 0.873219 -109.7 0.487293 160.34
6.20000000 0.486299 160.01 0.873773 -110.0 0.873773 -110.0 0.486299 160.01
6.22000000 0.485288 159.69 0.874334 -110.3 0.874334 -110.3 0.485288 159.69
6.24000000 0.484260 159.36 0.874904 -110.6 0.874904 -110.6 0.484260 159.36
6.26000000 0.483215 159.04 0.875481 -111.0 0.875481 -111.0 0.483215 159.04
6.28000000 0.482153 158.71 0.876066 -111.3 0.876066 -111.3 0.482153 158.71
6.30000000 0.481073 158.38 0.876658 -111.6 0.876658 -111.6 0.481073 158.38
6.32000000 0.479977 158.05 0.877259 -111.9 0.877259 -111.9 0.479977 158.05
6.34000000 0.478863 157.73 0.877867 -112.3 0.877867 -112.3 0.478863 157.73
6.36000000 0.477732 157.40 0.878483 -112.6 0.878483 -112.6 0.477732 157.40
6.38000000 0.476584 157.07 0.879106 -112.9 0.879106 -112.9 0.476584 157.07
6.40000000 0.475419 156.74 0.879736 -113.3 0.879736 -113.3 0.475419 156.74
6.42000000 0.474236 156.41 0.880375 -113.6 0.880375 -113.6 0.474236 156.41
6.44000000 0.473035 156.08 0.881020 -113.9 0.881020 -113.9 0.473035 156.08
6.46000000 0.471817 155.75 0.881673 -114.3 0.881673 -114.3 0.471817 155.75
6.48000000 0.470582 155.41 0.882333 -114.6 0.882333 -114.6 0.470582 155.41
6.50000000 0.469328 155.08 0.883000 -114.9 0.883000 -114.9 0.469328 155.08
6.52000000 0.468058 154.75 0.883674 -115.3 0.883674 -115.3 0.468058 154.75
6.54000000 0.466769 154.42 0.884356 -115.6 0.884356 -115.6 0.466769 154.42
6.56000000 0.465463 154.08 0.885044 -115.9 0.885044 -115.9 0.465463 154.08
6.58000000 0.464138 153.75 0.885740 -116.3 0.885740 -116.3 0.464138 153.75
6.60000000 0.462796 153.41 0.886442 -116.6 0.886442 -116.6 0.462796 153.41
6.62000000 0.461436 153.08 0.887151 -116.9 0.887151 -116.9 0.461436 153.08
6.64000000 0.460059 152.74 0.887867 -117.3 0.887867 -117.3 0.460059 152.74
6.66000000 0.458663 152.41 0.888589 -117.6 0.888589 -117.6 0.458663 152.41
6.68000000 0.457249 152.07 0.889318 -117.9 0.889318 -117.9 0.457249 152.07
6.70000000 0.455816 151.73 0.890053 -118.3 0.890053 -118.3 0.455816 151.73
6.72000000 0.454366 151.39 0.890795 -118.6 0.890795 -118.6 0.454366 151.39
6.74000000 0.452897 151.05 0.891544 -118.9 0.891544 -118.9 0.452897 151.05
6.76000000 0.451411 150.72 0.892298 -119.3 0.892298 -119.3 0.451411 150.72
6.78000000 0.449905 150.38 0.893059 -119.6 0.893059 -119.6 0.449905 150.38
6.80000000 0.448382 150.04 0.893826 -120.0 0.893826 -120.0 0.448382 150.04
6.82000000 0.446840 149.69 0.894599 -120.3 0.894599 -120.3 0.446840 149.69
6.84000000 0.445280 149.35 0.895378 -120.6 0.895378 -120.6 0.445280 149.35
6.86000000 0.443701 149.01 0.896163 -121.0 0.896163 -121.0 0.443701 149.01
6.88000000 0.442103 148.67 0.896954 -121.3 0.896954 -121.3 0.442103 148.67
6.90000000 0.440487 148.32 0.897751 -121.7 0.897751 -121.7 0.440487 148.32
6.92000000 0.438852 147.98 0.898553 -122.0 0.898553 -122.0 0.438852 147.98
6.94000000 0.437198 147.64 0.899360 -122.4 0.899360 -122.4 0.437198 147.64
!< P1 F=6.94 Eeff=(6.4029679 -2.9481e-5) Z0=(28.1901274 6.49812e-5) R=0.00133462 C=0.07962787 
!< P2 F=6.94 Eeff=(6.4029679 -2.9481e-5) Z0=(28.1901274 6.49812e-5) R=0.00133462 C=0.07962787 
6.96000000 0.435526 147.29 0.900174 -122.7 0.900174 -122.7 0.435526 147.29
6.98000000 0.433834 146.94 0.900992 -123.1 0.900992 -123.1 0.433834 146.94
7.00000000 0.432124 146.60 0.901816 -123.4 0.901816 -123.4 0.432124 146.60
7.02000000 0.430395 146.25 0.902644 -123.7 0.902644 -123.7 0.430395 146.25
7.04000000 0.428646 145.90 0.903478 -124.1 0.903478 -124.1 0.428646 145.90
7.06000000 0.426879 145.55 0.904316 -124.4 0.904316 -124.4 0.426879 145.55
7.08000000 0.425092 145.21 0.905160 -124.8 0.905160 -124.8 0.425092 145.21
7.10000000 0.423287 144.86 0.906008 -125.1 0.906008 -125.1 0.423287 144.86
7.12000000 0.421461 144.51 0.906860 -125.5 0.906860 -125.5 0.421461 144.51
7.14000000 0.419617 144.15 0.907717 -125.8 0.907717 -125.8 0.419617 144.15
7.16000000 0.417753 143.80 0.908579 -126.2 0.908579 -126.2 0.417753 143.80
7.18000000 0.415870 143.45 0.909444 -126.5 0.909444 -126.5 0.415870 143.45
7.20000000 0.413967 143.10 0.910314 -126.9 0.910314 -126.9 0.413967 143.10
7.22000000 0.412045 142.74 0.911187 -127.3 0.911187 -127.3 0.412045 142.74
7.24000000 0.410104 142.39 0.912065 -127.6 0.912065 -127.6 0.410104 142.39
7.26000000 0.408143 142.03 0.912946 -128.0 0.912946 -128.0 0.408143 142.03
7.28000000 0.406162 141.68 0.913831 -128.3 0.913831 -128.3 0.406162 141.68
7.30000000 0.404161 141.32 0.914719 -128.7 0.914719 -128.7 0.404161 141.32
7.32000000 0.402141 140.96 0.915610 -129.0 0.915610 -129.0 0.402141 140.96
7.34000000 0.400101 140.61 0.916505 -129.4 0.916505 -129.4 0.400101 140.61
7.36000000 0.398042 140.25 0.917403 -129.7 0.917403 -129.7 0.398042 140.25
7.38000000 0.395962 139.89 0.918304 -130.1 0.918304 -130.1 0.395962 139.89
7.40000000 0.393863 139.53 0.919208 -130.5 0.919208 -130.5 0.393863 139.53
7.42000000 0.391744 139.17 0.920114 -130.8 0.920114 -130.8 0.391744 139.17
7.44000000 0.389604 138.81 0.921023 -131.2 0.921023 -131.2 0.389604 138.81
7.46000000 0.387445 138.44 0.921934 -131.6 0.921934 -131.6 0.387445 138.44
7.48000000 0.385266 138.08 0.922848 -131.9 0.922848 -131.9 0.385266 138.08
7.50000000 0.383067 137.72 0.923764 -132.3 0.923764 -132.3 0.383067 137.72
7.52000000 0.380848 137.35 0.924681 -132.6 0.924681 -132.6 0.380848 137.35
7.54000000 0.378609 136.99 0.925601 -133.0 0.925601 -133.0 0.378609 136.99
7.56000000 0.376350 136.62 0.926522 -133.4 0.926522 -133.4 0.376350 136.62
7.58000000 0.374071 136.25 0.927445 -133.7 0.927445 -133.7 0.374071 136.25
7.60000000 0.371772 135.89 0.928369 -134.1 0.928369 -134.1 0.371772 135.89
7.62000000 0.369453 135.52 0.929294 -134.5 0.929294 -134.5 0.369453 135.52
7.64000000 0.367113 135.15 0.930220 -134.8 0.930220 -134.8 0.367113 135.15
7.66000000 0.364753 134.78 0.931147 -135.2 0.931147 -135.2 0.364753 134.78
7.68000000 0.362374 134.41 0.932075 -135.6 0.932075 -135.6 0.362374 134.41
7.70000000 0.359974 134.04 0.933004 -136.0 0.933004 -136.0 0.359974 134.04
7.72000000 0.357554 133.67 0.933933 -136.3 0.933933 -136.3 0.357554 133.67
7.74000000 0.355113 133.30 0.934862 -136.7 0.934862 -136.7 0.355113 133.30
7.76000000 0.352653 132.92 0.935791 -137.1 0.935791 -137.1 0.352653 132.92
7.78000000 0.350172 132.55 0.936720 -137.4 0.936720 -137.4 0.350172 132.55
7.80000000 0.347672 132.18 0.937649 -137.8 0.937649 -137.8 0.347672 132.18
7.82000000 0.345151 131.80 0.938577 -138.2 0.938577 -138.2 0.345151 131.80
7.84000000 0.342610 131.42 0.939505 -138.6 0.939505 -138.6 0.342610 131.42
7.86000000 0.340049 131.05 0.940432 -138.9 0.940432 -138.9 0.340049 131.05
7.88000000 0.337467 130.67 0.941358 -139.3 0.941358 -139.3 0.337467 130.67
7.90000000 0.334866 130.29 0.942283 -139.7 0.942283 -139.7 0.334866 130.29
7.92000000 0.332245 129.91 0.943207 -140.1 0.943207 -140.1 0.332245 129.91
7.94000000 0.329603 129.53 0.944129 -140.5 0.944129 -140.5 0.329603 129.53
7.96000000 0.326942 129.15 0.945049 -140.8 0.945049 -140.8 0.326942 129.15
7.98000000 0.324260 128.77 0.945967 -141.2 0.945967 -141.2 0.324260 128.77
8.00000000 0.321559 128.39 0.946884 -141.6 0.946884 -141.6 0.321559 128.39
!< P1 F=8.0 Eeff=(6.40438497 -2.9496e-5) Z0=(28.183027 6.50088e-5) R=0.0011573 C=0.07960511 
!< P2 F=8.0 Eeff=(6.40438497 -2.9496e-5) Z0=(28.183027 6.50088e-5) R=0.0011573 C=0.07960511 
