! Sonnet Data File
! From: emgraph Version : 16.52
! From Emgraph Data: Waveguide2
! Data File Written: 09/24/2017 12:53:04
!< HDATE 09/24/2017 12:38:44
!< MDATE 09/24/2017 12:39:05
!< PARAMS
!< hWid = 5.0
!< gap = 6.0
!< Pwid = 299.0
!< END PARAMS
# GHZ S MA R 50.00000
4.00000000 0.310216 -119.9 0.950664 -29.93 0.950664 -29.93 0.310216 -119.9
!< P1 F=4.0 Eeff=(6.38581787 -2.9305e-5) Z0=(24.1500619 5.54163e-5) R=0.00106977 C=0.17234699 
!< P2 F=4.0 Eeff=(6.38581787 -2.9305e-5) Z0=(24.1500619 5.54163e-5) R=0.00106977 C=0.17234699 
4.02000000 0.311498 -120.1 0.950188 -30.08 0.950188 -30.08 0.311499 -120.1
4.04000000 0.312780 -120.2 0.949713 -30.22 0.949713 -30.22 0.312780 -120.2
4.06000000 0.314060 -120.3 0.949239 -30.36 0.949239 -30.36 0.314060 -120.3
4.08000000 0.315339 -120.5 0.948765 -30.50 0.948765 -30.50 0.315339 -120.5
4.10000000 0.316618 -120.6 0.948292 -30.64 0.948292 -30.64 0.316618 -120.6
4.12000000 0.317895 -120.7 0.947820 -30.78 0.947820 -30.78 0.317895 -120.7
4.14000000 0.319170 -120.9 0.947349 -30.92 0.947349 -30.92 0.319170 -120.9
4.16000000 0.320444 -121.0 0.946879 -31.06 0.946879 -31.06 0.320445 -121.0
4.18000000 0.321717 -121.1 0.946409 -31.20 0.946409 -31.20 0.321717 -121.1
4.20000000 0.322989 -121.3 0.945940 -31.34 0.945940 -31.34 0.322989 -121.3
4.22000000 0.324258 -121.4 0.945472 -31.48 0.945472 -31.48 0.324258 -121.4
4.24000000 0.325526 -121.5 0.945005 -31.62 0.945005 -31.62 0.325527 -121.5
4.26000000 0.326793 -121.7 0.944538 -31.75 0.944538 -31.75 0.326793 -121.7
4.28000000 0.328058 -121.8 0.944072 -31.89 0.944072 -31.89 0.328058 -121.8
4.30000000 0.329320 -122.0 0.943606 -32.03 0.943606 -32.03 0.329321 -122.0
4.32000000 0.330581 -122.1 0.943142 -32.17 0.943142 -32.17 0.330581 -122.1
4.34000000 0.331840 -122.2 0.942677 -32.31 0.942677 -32.31 0.331840 -122.2
4.36000000 0.333097 -122.4 0.942214 -32.45 0.942214 -32.45 0.333097 -122.4
4.38000000 0.334352 -122.5 0.941751 -32.58 0.941751 -32.58 0.334352 -122.5
4.40000000 0.335605 -122.6 0.941288 -32.72 0.941288 -32.72 0.335605 -122.6
4.42000000 0.336856 -122.8 0.940826 -32.86 0.940826 -32.86 0.336856 -122.8
4.44000000 0.338104 -122.9 0.940365 -33.00 0.940365 -33.00 0.338104 -122.9
4.46000000 0.339350 -123.0 0.939904 -33.13 0.939904 -33.13 0.339351 -123.0
4.48000000 0.340594 -123.2 0.939443 -33.27 0.939443 -33.27 0.340594 -123.2
4.50000000 0.341836 -123.3 0.938983 -33.41 0.938983 -33.41 0.341836 -123.3
4.52000000 0.343075 -123.4 0.938524 -33.54 0.938524 -33.54 0.343075 -123.4
4.54000000 0.344311 -123.6 0.938065 -33.68 0.938065 -33.68 0.344312 -123.6
4.56000000 0.345546 -123.7 0.937606 -33.82 0.937606 -33.82 0.345546 -123.7
4.58000000 0.346777 -123.9 0.937148 -33.95 0.937148 -33.95 0.346778 -123.9
4.60000000 0.348006 -124.0 0.936690 -34.09 0.936690 -34.09 0.348007 -124.0
4.62000000 0.349233 -124.1 0.936233 -34.22 0.936233 -34.22 0.349233 -124.1
4.64000000 0.350457 -124.3 0.935775 -34.36 0.935775 -34.36 0.350457 -124.3
4.66000000 0.351678 -124.4 0.935319 -34.50 0.935319 -34.50 0.351678 -124.4
4.68000000 0.352896 -124.5 0.934862 -34.63 0.934862 -34.63 0.352896 -124.5
4.70000000 0.354112 -124.7 0.934406 -34.77 0.934406 -34.77 0.354112 -124.7
4.72000000 0.355325 -124.8 0.933950 -34.90 0.933950 -34.90 0.355325 -124.8
4.74000000 0.356535 -124.9 0.933494 -35.04 0.933494 -35.04 0.356535 -124.9
4.76000000 0.357742 -125.1 0.933039 -35.17 0.933039 -35.17 0.357742 -125.1
4.78000000 0.358946 -125.2 0.932583 -35.31 0.932583 -35.31 0.358946 -125.2
4.80000000 0.360148 -125.4 0.932128 -35.44 0.932128 -35.44 0.360148 -125.4
4.82000000 0.361346 -125.5 0.931673 -35.58 0.931673 -35.58 0.361346 -125.5
4.84000000 0.362542 -125.6 0.931219 -35.71 0.931219 -35.71 0.362542 -125.6
4.86000000 0.363734 -125.8 0.930764 -35.84 0.930764 -35.84 0.363734 -125.8
4.88000000 0.364924 -125.9 0.930310 -35.98 0.930310 -35.98 0.364924 -125.9
4.90000000 0.366110 -126.0 0.929856 -36.11 0.929856 -36.11 0.366110 -126.0
4.92000000 0.367293 -126.2 0.929402 -36.25 0.929402 -36.25 0.367294 -126.2
4.94000000 0.368474 -126.3 0.928948 -36.38 0.928948 -36.38 0.368474 -126.3
4.96000000 0.369651 -126.4 0.928494 -36.51 0.928494 -36.51 0.369651 -126.4
4.98000000 0.370825 -126.6 0.928040 -36.65 0.928040 -36.65 0.370825 -126.6
5.00000000 0.371996 -126.7 0.927586 -36.78 0.927586 -36.78 0.371996 -126.7
5.02000000 0.373164 -126.8 0.927132 -36.91 0.927132 -36.91 0.373164 -126.8
5.04000000 0.374328 -127.0 0.926679 -37.05 0.926679 -37.05 0.374328 -127.0
5.06000000 0.375489 -127.1 0.926225 -37.18 0.926225 -37.18 0.375490 -127.1
5.08000000 0.376648 -127.2 0.925771 -37.31 0.925771 -37.31 0.376648 -127.2
5.10000000 0.377803 -127.4 0.925317 -37.45 0.925317 -37.45 0.377803 -127.4
5.12000000 0.378954 -127.5 0.924864 -37.58 0.924864 -37.58 0.378954 -127.5
5.14000000 0.380103 -127.7 0.924410 -37.71 0.924410 -37.71 0.380103 -127.7
5.16000000 0.381248 -127.8 0.923956 -37.84 0.923956 -37.84 0.381248 -127.8
5.18000000 0.382390 -127.9 0.923502 -37.97 0.923502 -37.97 0.382390 -127.9
5.20000000 0.383528 -128.1 0.923048 -38.11 0.923048 -38.11 0.383528 -128.1
5.22000000 0.384663 -128.2 0.922594 -38.24 0.922594 -38.24 0.384663 -128.2
5.24000000 0.385795 -128.3 0.922140 -38.37 0.922140 -38.37 0.385795 -128.3
5.26000000 0.386924 -128.5 0.921686 -38.50 0.921686 -38.50 0.386924 -128.5
5.28000000 0.388049 -128.6 0.921231 -38.63 0.921231 -38.63 0.388049 -128.6
5.30000000 0.389171 -128.7 0.920777 -38.77 0.920777 -38.77 0.389171 -128.7
5.32000000 0.390290 -128.9 0.920322 -38.90 0.920322 -38.90 0.390290 -128.9
5.34000000 0.391405 -129.0 0.919868 -39.03 0.919868 -39.03 0.391405 -129.0
5.36000000 0.392517 -129.1 0.919413 -39.16 0.919413 -39.16 0.392517 -129.1
5.38000000 0.393625 -129.3 0.918958 -39.29 0.918958 -39.29 0.393625 -129.3
5.40000000 0.394730 -129.4 0.918502 -39.42 0.918502 -39.42 0.394730 -129.4
5.42000000 0.395832 -129.5 0.918047 -39.55 0.918047 -39.55 0.395832 -129.5
5.44000000 0.396930 -129.7 0.917591 -39.68 0.917591 -39.68 0.396930 -129.7
5.46000000 0.398025 -129.8 0.917136 -39.81 0.917136 -39.81 0.398025 -129.8
5.48000000 0.399117 -129.9 0.916679 -39.94 0.916679 -39.94 0.399117 -129.9
5.50000000 0.400205 -130.1 0.916223 -40.07 0.916223 -40.07 0.400205 -130.1
5.52000000 0.401290 -130.2 0.915767 -40.20 0.915767 -40.20 0.401290 -130.2
5.54000000 0.402371 -130.3 0.915310 -40.33 0.915310 -40.33 0.402371 -130.3
5.56000000 0.403449 -130.4 0.914853 -40.46 0.914853 -40.46 0.403449 -130.4
5.58000000 0.404523 -130.6 0.914396 -40.59 0.914396 -40.59 0.404523 -130.6
5.60000000 0.405595 -130.7 0.913939 -40.72 0.913939 -40.72 0.405595 -130.7
5.62000000 0.406662 -130.8 0.913481 -40.85 0.913481 -40.85 0.406662 -130.8
5.64000000 0.407727 -131.0 0.913023 -40.98 0.913023 -40.98 0.407727 -131.0
5.66000000 0.408788 -131.1 0.912565 -41.11 0.912565 -41.11 0.408788 -131.1
5.68000000 0.409845 -131.2 0.912107 -41.24 0.912107 -41.24 0.409845 -131.2
5.70000000 0.410900 -131.4 0.911648 -41.37 0.911648 -41.37 0.410900 -131.4
5.72000000 0.411950 -131.5 0.911189 -41.50 0.911189 -41.50 0.411950 -131.5
5.74000000 0.412998 -131.6 0.910730 -41.63 0.910730 -41.63 0.412998 -131.6
!< P1 F=5.74 Eeff=(6.38786457 -2.9341e-5) Z0=(24.1489908 5.54465e-5) R=7.44956e-4 C=0.17238377 
!< P2 F=5.74 Eeff=(6.38786457 -2.9341e-5) Z0=(24.1489908 5.54465e-5) R=7.44956e-4 C=0.17238377 
5.76000000 0.414042 -131.8 0.910270 -41.76 0.910270 -41.76 0.414042 -131.8
5.78000000 0.415083 -131.9 0.909809 -41.89 0.909809 -41.89 0.415083 -131.9
5.80000000 0.416121 -132.0 0.909347 -42.01 0.909347 -42.01 0.416121 -132.0
5.82000000 0.417155 -132.1 0.908885 -42.14 0.908885 -42.14 0.417155 -132.1
5.84000000 0.418187 -132.3 0.908421 -42.27 0.908421 -42.27 0.418187 -132.3
5.86000000 0.419215 -132.4 0.907957 -42.40 0.907957 -42.40 0.419215 -132.4
5.88000000 0.420240 -132.5 0.907492 -42.53 0.907492 -42.53 0.420240 -132.5
5.90000000 0.421262 -132.7 0.907027 -42.65 0.907027 -42.65 0.421262 -132.7
5.92000000 0.422280 -132.8 0.906560 -42.78 0.906560 -42.78 0.422280 -132.8
5.94000000 0.423296 -132.9 0.906093 -42.91 0.906093 -42.91 0.423296 -132.9
5.96000000 0.424308 -133.0 0.905626 -43.04 0.905626 -43.04 0.424308 -133.0
5.98000000 0.425317 -133.2 0.905157 -43.16 0.905157 -43.16 0.425317 -133.2
6.00000000 0.426323 -133.3 0.904689 -43.29 0.904689 -43.29 0.426323 -133.3
6.02000000 0.427326 -133.4 0.904219 -43.42 0.904219 -43.42 0.427326 -133.4
6.04000000 0.428325 -133.6 0.903750 -43.54 0.903750 -43.54 0.428325 -133.6
6.06000000 0.429322 -133.7 0.903279 -43.67 0.903279 -43.67 0.429321 -133.7
6.08000000 0.430315 -133.8 0.902809 -43.80 0.902809 -43.80 0.430315 -133.8
6.10000000 0.431305 -133.9 0.902338 -43.92 0.902338 -43.92 0.431305 -133.9
6.12000000 0.432292 -134.1 0.901866 -44.05 0.901866 -44.05 0.432292 -134.1
6.14000000 0.433275 -134.2 0.901395 -44.18 0.901395 -44.18 0.433275 -134.2
6.16000000 0.434256 -134.3 0.900923 -44.30 0.900923 -44.30 0.434256 -134.3
6.18000000 0.435233 -134.4 0.900450 -44.43 0.900450 -44.43 0.435233 -134.4
6.20000000 0.436208 -134.6 0.899978 -44.55 0.899978 -44.55 0.436207 -134.6
6.22000000 0.437179 -134.7 0.899505 -44.68 0.899505 -44.68 0.437179 -134.7
6.24000000 0.438147 -134.8 0.899033 -44.80 0.899033 -44.80 0.438146 -134.8
6.26000000 0.439111 -134.9 0.898560 -44.93 0.898560 -44.93 0.439111 -134.9
6.28000000 0.440073 -135.1 0.898087 -45.05 0.898087 -45.05 0.440073 -135.1
6.30000000 0.441031 -135.2 0.897614 -45.18 0.897614 -45.18 0.441031 -135.2
6.32000000 0.441987 -135.3 0.897141 -45.30 0.897141 -45.30 0.441987 -135.3
6.34000000 0.442939 -135.4 0.896668 -45.43 0.896668 -45.43 0.442939 -135.4
6.36000000 0.443888 -135.6 0.896195 -45.55 0.896195 -45.55 0.443888 -135.6
6.38000000 0.444834 -135.7 0.895722 -45.68 0.895722 -45.68 0.444834 -135.7
6.40000000 0.445776 -135.8 0.895249 -45.80 0.895249 -45.80 0.445776 -135.8
6.42000000 0.446716 -135.9 0.894777 -45.93 0.894777 -45.93 0.446716 -135.9
6.44000000 0.447652 -136.1 0.894304 -46.05 0.894304 -46.05 0.447652 -136.1
6.46000000 0.448586 -136.2 0.893832 -46.17 0.893832 -46.17 0.448585 -136.2
6.48000000 0.449516 -136.3 0.893360 -46.30 0.893360 -46.30 0.449516 -136.3
6.50000000 0.450442 -136.4 0.892889 -46.42 0.892889 -46.42 0.450442 -136.4
6.52000000 0.451366 -136.6 0.892417 -46.54 0.892417 -46.54 0.451366 -136.6
6.54000000 0.452287 -136.7 0.891947 -46.67 0.891947 -46.67 0.452287 -136.7
6.56000000 0.453204 -136.8 0.891476 -46.79 0.891476 -46.79 0.453204 -136.8
6.58000000 0.454118 -136.9 0.891006 -46.91 0.891006 -46.91 0.454118 -136.9
6.60000000 0.455030 -137.0 0.890536 -47.04 0.890536 -47.04 0.455029 -137.0
6.62000000 0.455937 -137.2 0.890067 -47.16 0.890067 -47.16 0.455937 -137.2
6.64000000 0.456842 -137.3 0.889598 -47.28 0.889598 -47.28 0.456842 -137.3
6.66000000 0.457744 -137.4 0.889130 -47.41 0.889130 -47.41 0.457744 -137.4
6.68000000 0.458642 -137.5 0.888663 -47.53 0.888663 -47.53 0.458642 -137.5
6.70000000 0.459537 -137.7 0.888196 -47.65 0.888196 -47.65 0.459537 -137.7
6.72000000 0.460429 -137.8 0.887729 -47.77 0.887729 -47.77 0.460429 -137.8
6.74000000 0.461318 -137.9 0.887264 -47.90 0.887264 -47.90 0.461318 -137.9
6.76000000 0.462204 -138.0 0.886799 -48.02 0.886799 -48.02 0.462204 -138.0
6.78000000 0.463086 -138.1 0.886334 -48.14 0.886334 -48.14 0.463086 -138.1
6.80000000 0.463965 -138.3 0.885871 -48.26 0.885871 -48.26 0.463965 -138.3
6.82000000 0.464841 -138.4 0.885408 -48.38 0.885408 -48.38 0.464841 -138.4
6.84000000 0.465714 -138.5 0.884946 -48.50 0.884946 -48.50 0.465714 -138.5
6.86000000 0.466584 -138.6 0.884485 -48.63 0.884485 -48.63 0.466584 -138.6
6.88000000 0.467450 -138.7 0.884025 -48.75 0.884025 -48.75 0.467450 -138.7
6.90000000 0.468313 -138.9 0.883566 -48.87 0.883566 -48.87 0.468313 -138.9
6.92000000 0.469173 -139.0 0.883108 -48.99 0.883108 -48.99 0.469173 -139.0
6.94000000 0.470030 -139.1 0.882650 -49.11 0.882650 -49.11 0.470030 -139.1
6.96000000 0.470883 -139.2 0.882194 -49.23 0.882194 -49.23 0.470883 -139.2
6.98000000 0.471733 -139.4 0.881739 -49.35 0.881739 -49.35 0.471733 -139.4
!< P1 F=6.98 Eeff=(6.38975811 -2.9369e-5) Z0=(24.148099 5.54619e-5) R=6.12513e-4 C=0.17241917 
!< P2 F=6.98 Eeff=(6.38975811 -2.9369e-5) Z0=(24.148099 5.54619e-5) R=6.12513e-4 C=0.17241917 
7.00000000 0.472580 -139.5 0.881284 -49.47 0.881284 -49.47 0.472580 -139.5
7.02000000 0.473424 -139.6 0.880830 -49.60 0.880830 -49.60 0.473424 -139.6
7.04000000 0.474265 -139.7 0.880376 -49.72 0.880376 -49.72 0.474265 -139.7
7.06000000 0.475104 -139.8 0.879923 -49.84 0.879923 -49.84 0.475104 -139.8
7.08000000 0.475939 -140.0 0.879471 -49.96 0.879471 -49.96 0.475939 -140.0
7.10000000 0.476771 -140.1 0.879018 -50.08 0.879018 -50.08 0.476771 -140.1
7.12000000 0.477601 -140.2 0.878567 -50.20 0.878567 -50.20 0.477601 -140.2
7.14000000 0.478428 -140.3 0.878116 -50.32 0.878116 -50.32 0.478428 -140.3
7.16000000 0.479251 -140.4 0.877665 -50.44 0.877665 -50.44 0.479251 -140.4
7.18000000 0.480072 -140.6 0.877215 -50.56 0.877215 -50.56 0.480072 -140.6
7.20000000 0.480890 -140.7 0.876765 -50.68 0.876765 -50.68 0.480890 -140.7
7.22000000 0.481706 -140.8 0.876316 -50.80 0.876316 -50.80 0.481706 -140.8
7.24000000 0.482518 -140.9 0.875868 -50.91 0.875868 -50.91 0.482518 -140.9
7.26000000 0.483328 -141.0 0.875420 -51.03 0.875420 -51.03 0.483328 -141.0
7.28000000 0.484135 -141.2 0.874972 -51.15 0.874972 -51.15 0.484135 -141.2
7.30000000 0.484939 -141.3 0.874525 -51.27 0.874525 -51.27 0.484939 -141.3
7.32000000 0.485741 -141.4 0.874079 -51.39 0.874079 -51.39 0.485741 -141.4
7.34000000 0.486540 -141.5 0.873633 -51.51 0.873633 -51.51 0.486540 -141.5
7.36000000 0.487336 -141.6 0.873188 -51.63 0.873188 -51.63 0.487336 -141.6
7.38000000 0.488129 -141.7 0.872743 -51.75 0.872743 -51.75 0.488129 -141.7
7.40000000 0.488920 -141.9 0.872299 -51.86 0.872299 -51.86 0.488920 -141.9
7.42000000 0.489708 -142.0 0.871856 -51.98 0.871856 -51.98 0.489708 -142.0
7.44000000 0.490493 -142.1 0.871413 -52.10 0.871413 -52.10 0.490493 -142.1
7.46000000 0.491276 -142.2 0.870971 -52.22 0.870971 -52.22 0.491276 -142.2
7.48000000 0.492056 -142.3 0.870529 -52.34 0.870529 -52.34 0.492056 -142.3
7.50000000 0.492834 -142.5 0.870088 -52.45 0.870088 -52.45 0.492834 -142.5
7.52000000 0.493609 -142.6 0.869648 -52.57 0.869648 -52.57 0.493609 -142.6
7.54000000 0.494381 -142.7 0.869208 -52.69 0.869208 -52.69 0.494381 -142.7
7.56000000 0.495151 -142.8 0.868769 -52.81 0.868769 -52.81 0.495151 -142.8
7.58000000 0.495919 -142.9 0.868331 -52.92 0.868331 -52.92 0.495919 -142.9
7.60000000 0.496684 -143.0 0.867893 -53.04 0.867893 -53.04 0.496684 -143.0
7.62000000 0.497446 -143.2 0.867456 -53.16 0.867456 -53.16 0.497446 -143.2
7.64000000 0.498206 -143.3 0.867020 -53.27 0.867020 -53.27 0.498206 -143.3
7.66000000 0.498963 -143.4 0.866584 -53.39 0.866584 -53.39 0.498963 -143.4
7.68000000 0.499718 -143.5 0.866149 -53.51 0.866149 -53.51 0.499718 -143.5
7.70000000 0.500471 -143.6 0.865715 -53.62 0.865715 -53.62 0.500471 -143.6
7.72000000 0.501221 -143.7 0.865282 -53.74 0.865282 -53.74 0.501221 -143.7
7.74000000 0.501968 -143.9 0.864849 -53.86 0.864849 -53.86 0.501969 -143.9
7.76000000 0.502714 -144.0 0.864417 -53.97 0.864417 -53.97 0.502714 -144.0
7.78000000 0.503457 -144.1 0.863986 -54.09 0.863986 -54.09 0.503457 -144.1
7.80000000 0.504197 -144.2 0.863555 -54.20 0.863555 -54.20 0.504197 -144.2
7.82000000 0.504936 -144.3 0.863125 -54.32 0.863125 -54.32 0.504936 -144.3
7.84000000 0.505672 -144.4 0.862696 -54.43 0.862696 -54.43 0.505672 -144.4
7.86000000 0.506405 -144.5 0.862268 -54.55 0.862268 -54.55 0.506405 -144.5
7.88000000 0.507137 -144.7 0.861841 -54.66 0.861841 -54.66 0.507137 -144.7
7.90000000 0.507866 -144.8 0.861414 -54.78 0.861414 -54.78 0.507866 -144.8
7.92000000 0.508593 -144.9 0.860988 -54.89 0.860988 -54.89 0.508593 -144.9
7.94000000 0.509317 -145.0 0.860564 -55.01 0.860564 -55.01 0.509317 -145.0
7.96000000 0.510040 -145.1 0.860139 -55.12 0.860139 -55.12 0.510040 -145.1
7.98000000 0.510760 -145.2 0.859716 -55.24 0.859716 -55.24 0.510760 -145.2
8.00000000 0.511478 -145.4 0.859294 -55.35 0.859294 -55.35 0.511478 -145.4
!< P1 F=8.0 Eeff=(6.39158198 -2.9381e-5) Z0=(24.1473324 5.54629e-5) R=5.34592e-4 C=0.17245456 
!< P2 F=8.0 Eeff=(6.39158198 -2.9381e-5) Z0=(24.1473324 5.54629e-5) R=5.34592e-4 C=0.17245456 
