! Sonnet Data File
! From: emgraph Version : 16.52
! From Emgraph Data: Waveguide
! Data File Written: 09/24/2017 17:22:02
!< HDATE 09/24/2017 16:48:35
!< MDATE 09/24/2017 16:48:35
# GHZ S MA R 50.00000
0.00000000 1.0e-100 -90.00 0.999982 0.0000 0.999982 0.0000 1.0e-100 -90.00
0.05000000 5.581e-4 89.696 1.000000 -0.305 1.000000 -0.305 5.581e-4 89.696
!< P1 F=0.05 Eeff=(undefined: mp) Z0=(undefined: mp) R=0.0 C=0.0 
!< P2 F=0.05 Eeff=(undefined: mp) Z0=(undefined: mp) R=0.0 C=0.0 
0.10000000 0.001149 89.397 0.999999 -0.611 0.999999 -0.611 0.001149 89.396
0.15000000 0.001739 89.092 0.999999 -0.918 0.999999 -0.918 0.001739 89.090
0.20000000 0.002329 88.785 0.999998 -1.225 0.999998 -1.225 0.002329 88.783
0.25000000 0.002919 88.478 0.999996 -1.531 0.999996 -1.531 0.002919 88.476
0.30000000 0.003509 88.171 0.999994 -1.838 0.999994 -1.838 0.003509 88.168
0.35000000 0.004099 87.863 0.999992 -2.145 0.999992 -2.145 0.004099 87.861
0.40000000 0.004688 87.556 0.999989 -2.451 0.999989 -2.451 0.004688 87.554
0.45000000 0.005277 87.248 0.999986 -2.758 0.999986 -2.758 0.005277 87.246
0.50000000 0.005866 86.941 0.999983 -3.064 0.999983 -3.064 0.005866 86.939
0.55000000 0.006454 86.633 0.999979 -3.371 0.999979 -3.371 0.006455 86.632
0.60000000 0.007043 86.326 0.999975 -3.678 0.999975 -3.678 0.007043 86.324
0.65000000 0.007631 86.019 0.999971 -3.984 0.999971 -3.984 0.007631 86.017
0.70000000 0.008218 85.712 0.999966 -4.291 0.999966 -4.291 0.008219 85.710
0.75000000 0.008806 85.405 0.999961 -4.597 0.999961 -4.597 0.008806 85.403
0.80000000 0.009393 85.098 0.999956 -4.904 0.999956 -4.904 0.009393 85.096
0.85000000 0.009979 84.791 0.999950 -5.210 0.999950 -5.210 0.009980 84.789
0.90000000 0.010566 84.484 0.999944 -5.517 0.999944 -5.517 0.010566 84.483
0.95000000 0.011152 84.177 0.999937 -5.824 0.999937 -5.824 0.011152 84.176
1.00000000 0.011737 83.870 0.999931 -6.130 0.999931 -6.130 0.011738 83.869
1.05000000 0.012322 83.563 0.999924 -6.437 0.999924 -6.437 0.012323 83.562
1.10000000 0.012907 83.257 0.999916 -6.743 0.999916 -6.743 0.012907 83.256
1.15000000 0.013491 82.950 0.999908 -7.050 0.999908 -7.050 0.013492 82.949
1.20000000 0.014075 82.643 0.999900 -7.356 0.999900 -7.356 0.014075 82.643
1.25000000 0.014658 82.337 0.999892 -7.663 0.999892 -7.663 0.014659 82.336
1.30000000 0.015241 82.030 0.999883 -7.969 0.999883 -7.969 0.015242 82.030
1.35000000 0.015824 81.724 0.999874 -8.276 0.999874 -8.276 0.015824 81.723
1.40000000 0.016406 81.417 0.999865 -8.582 0.999865 -8.582 0.016406 81.417
1.45000000 0.016987 81.111 0.999855 -8.889 0.999855 -8.889 0.016987 81.110
1.50000000 0.017568 80.805 0.999845 -9.195 0.999845 -9.195 0.017568 80.804
1.55000000 0.018148 80.498 0.999834 -9.501 0.999834 -9.501 0.018148 80.498
1.60000000 0.018728 80.192 0.999824 -9.808 0.999824 -9.808 0.018728 80.191
1.65000000 0.019307 79.885 0.999813 -10.11 0.999813 -10.11 0.019307 79.885
1.70000000 0.019886 79.579 0.999801 -10.42 0.999801 -10.42 0.019886 79.579
1.75000000 0.020463 79.273 0.999790 -10.73 0.999790 -10.73 0.020464 79.273
1.80000000 0.021041 78.966 0.999778 -11.03 0.999778 -11.03 0.021041 78.966
1.85000000 0.021617 78.660 0.999766 -11.34 0.999766 -11.34 0.021618 78.660
1.90000000 0.022193 78.354 0.999753 -11.65 0.999753 -11.65 0.022194 78.354
1.95000000 0.022769 78.048 0.999740 -11.95 0.999740 -11.95 0.022769 78.048
2.00000000 0.023343 77.741 0.999727 -12.26 0.999727 -12.26 0.023344 77.741
2.05000000 0.023917 77.435 0.999713 -12.57 0.999713 -12.57 0.023917 77.435
2.10000000 0.024491 77.129 0.999699 -12.87 0.999699 -12.87 0.024491 77.129
2.15000000 0.025063 76.823 0.999685 -13.18 0.999685 -13.18 0.025063 76.823
2.20000000 0.025635 76.516 0.999671 -13.48 0.999671 -13.48 0.025635 76.516
!< P1 F=2.2 Eeff=(undefined: mp) Z0=(undefined: mp) R=0.0 C=0.0 
!< P2 F=2.2 Eeff=(undefined: mp) Z0=(undefined: mp) R=0.0 C=0.0 
2.25000000 0.026206 76.210 0.999656 -13.79 0.999656 -13.79 0.026206 76.210
2.30000000 0.026776 75.904 0.999641 -14.10 0.999641 -14.10 0.026776 75.904
2.35000000 0.027345 75.598 0.999626 -14.40 0.999626 -14.40 0.027345 75.598
2.40000000 0.027914 75.292 0.999610 -14.71 0.999610 -14.71 0.027914 75.292
2.45000000 0.028482 74.985 0.999594 -15.02 0.999594 -15.02 0.028482 74.985
2.50000000 0.029049 74.679 0.999578 -15.32 0.999578 -15.32 0.029049 74.679
2.55000000 0.029615 74.373 0.999561 -15.63 0.999561 -15.63 0.029615 74.373
2.60000000 0.030180 74.067 0.999544 -15.94 0.999544 -15.94 0.030180 74.067
2.65000000 0.030744 73.761 0.999527 -16.24 0.999527 -16.24 0.030744 73.761
2.70000000 0.031307 73.454 0.999510 -16.55 0.999510 -16.55 0.031307 73.455
2.75000000 0.031870 73.148 0.999492 -16.85 0.999492 -16.85 0.031870 73.148
2.80000000 0.032431 72.842 0.999474 -17.16 0.999474 -17.16 0.032431 72.842
2.85000000 0.032992 72.536 0.999456 -17.47 0.999456 -17.47 0.032992 72.536
2.90000000 0.033551 72.230 0.999437 -17.77 0.999437 -17.77 0.033551 72.230
2.95000000 0.034110 71.924 0.999418 -18.08 0.999418 -18.08 0.034110 71.924
3.00000000 0.034667 71.617 0.999399 -18.38 0.999399 -18.38 0.034667 71.618
3.05000000 0.035224 71.311 0.999380 -18.69 0.999380 -18.69 0.035224 71.311
3.10000000 0.035779 71.005 0.999360 -19.00 0.999360 -19.00 0.035779 71.005
3.15000000 0.036333 70.699 0.999340 -19.30 0.999340 -19.30 0.036333 70.699
3.20000000 0.036887 70.393 0.999320 -19.61 0.999320 -19.61 0.036887 70.393
3.25000000 0.037439 70.087 0.999299 -19.92 0.999299 -19.92 0.037439 70.087
3.30000000 0.037990 69.781 0.999278 -20.22 0.999278 -20.22 0.037990 69.781
3.35000000 0.038540 69.474 0.999257 -20.53 0.999257 -20.53 0.038540 69.474
3.40000000 0.039089 69.168 0.999236 -20.83 0.999236 -20.83 0.039089 69.168
3.45000000 0.039636 68.862 0.999214 -21.14 0.999214 -21.14 0.039636 68.862
3.50000000 0.040183 68.556 0.999193 -21.45 0.999193 -21.45 0.040183 68.556
3.55000000 0.040728 68.250 0.999170 -21.75 0.999170 -21.75 0.040728 68.250
3.60000000 0.041272 67.944 0.999148 -22.06 0.999148 -22.06 0.041272 67.944
3.65000000 0.041815 67.638 0.999125 -22.36 0.999125 -22.36 0.041815 67.638
3.70000000 0.042357 67.332 0.999103 -22.67 0.999103 -22.67 0.042357 67.332
3.75000000 0.042897 67.025 0.999079 -22.98 0.999079 -22.98 0.042897 67.026
3.80000000 0.043436 66.719 0.999056 -23.28 0.999056 -23.28 0.043436 66.719
3.85000000 0.043974 66.413 0.999033 -23.59 0.999033 -23.59 0.043974 66.413
3.90000000 0.044511 66.107 0.999009 -23.89 0.999009 -23.89 0.044510 66.107
3.95000000 0.045046 65.801 0.998985 -24.20 0.998985 -24.20 0.045046 65.801
4.00000000 0.045580 65.495 0.998960 -24.51 0.998960 -24.51 0.045579 65.495
4.05000000 0.046112 65.189 0.998936 -24.81 0.998936 -24.81 0.046112 65.189
4.10000000 0.046643 64.883 0.998911 -25.12 0.998911 -25.12 0.046643 64.883
4.15000000 0.047173 64.577 0.998886 -25.42 0.998886 -25.42 0.047173 64.577
4.20000000 0.047701 64.271 0.998861 -25.73 0.998861 -25.73 0.047701 64.271
4.25000000 0.048228 63.965 0.998836 -26.04 0.998836 -26.04 0.048228 63.965
4.30000000 0.048754 63.659 0.998810 -26.34 0.998810 -26.34 0.048754 63.659
4.35000000 0.049278 63.353 0.998784 -26.65 0.998784 -26.65 0.049278 63.353
4.40000000 0.049800 63.047 0.998758 -26.95 0.998758 -26.95 0.049800 63.047
!< P1 F=4.4 Eeff=(undefined: mp) Z0=(undefined: mp) R=0.0 C=0.0 
!< P2 F=4.4 Eeff=(undefined: mp) Z0=(undefined: mp) R=0.0 C=0.0 
4.45000000 0.050322 62.741 0.998732 -27.26 0.998732 -27.26 0.050322 62.741
4.50000000 0.050841 62.435 0.998706 -27.57 0.998706 -27.57 0.050841 62.435
4.55000000 0.051359 62.130 0.998679 -27.87 0.998679 -27.87 0.051359 62.130
4.60000000 0.051876 61.824 0.998652 -28.18 0.998652 -28.18 0.051876 61.824
4.65000000 0.052391 61.518 0.998625 -28.48 0.998625 -28.48 0.052391 61.518
4.70000000 0.052905 61.212 0.998598 -28.79 0.998598 -28.79 0.052905 61.212
4.75000000 0.053416 60.906 0.998571 -29.09 0.998571 -29.09 0.053417 60.906
4.80000000 0.053927 60.600 0.998543 -29.40 0.998543 -29.40 0.053927 60.600
4.85000000 0.054436 60.295 0.998515 -29.71 0.998515 -29.71 0.054436 60.295
4.90000000 0.054943 59.989 0.998488 -30.01 0.998488 -30.01 0.054943 59.989
4.95000000 0.055448 59.683 0.998460 -30.32 0.998460 -30.32 0.055449 59.683
5.00000000 0.055952 59.377 0.998431 -30.62 0.998431 -30.62 0.055953 59.377
5.05000000 0.056455 59.072 0.998403 -30.93 0.998403 -30.93 0.056455 59.072
5.10000000 0.056955 58.766 0.998374 -31.23 0.998374 -31.23 0.056955 58.766
5.15000000 0.057454 58.460 0.998346 -31.54 0.998346 -31.54 0.057454 58.460
5.20000000 0.057951 58.155 0.998317 -31.85 0.998317 -31.85 0.057952 58.155
5.25000000 0.058447 57.849 0.998288 -32.15 0.998288 -32.15 0.058447 57.849
5.30000000 0.058941 57.543 0.998259 -32.46 0.998259 -32.46 0.058941 57.543
5.35000000 0.059433 57.238 0.998230 -32.76 0.998230 -32.76 0.059433 57.238
5.40000000 0.059923 56.932 0.998200 -33.07 0.998200 -33.07 0.059923 56.932
5.45000000 0.060412 56.626 0.998171 -33.37 0.998171 -33.37 0.060412 56.626
5.50000000 0.060898 56.321 0.998141 -33.68 0.998141 -33.68 0.060899 56.321
5.55000000 0.061383 56.015 0.998111 -33.98 0.998111 -33.98 0.061384 56.015
5.60000000 0.061867 55.710 0.998081 -34.29 0.998081 -34.29 0.061867 55.710
5.65000000 0.062348 55.404 0.998051 -34.60 0.998051 -34.60 0.062348 55.404
5.70000000 0.062827 55.099 0.998021 -34.90 0.998021 -34.90 0.062828 55.099
5.75000000 0.063305 54.793 0.997991 -35.21 0.997991 -35.21 0.063305 54.793
5.80000000 0.063781 54.488 0.997961 -35.51 0.997961 -35.51 0.063781 54.488
5.85000000 0.064255 54.183 0.997930 -35.82 0.997930 -35.82 0.064255 54.183
5.90000000 0.064727 53.877 0.997900 -36.12 0.997900 -36.12 0.064727 53.877
5.95000000 0.065197 53.572 0.997869 -36.43 0.997869 -36.43 0.065197 53.572
6.00000000 0.065665 53.267 0.997838 -36.73 0.997838 -36.73 0.065666 53.266
6.05000000 0.066132 52.961 0.997807 -37.04 0.997807 -37.04 0.066132 52.961
6.10000000 0.066596 52.656 0.997777 -37.34 0.997777 -37.34 0.066596 52.656
6.15000000 0.067058 52.351 0.997746 -37.65 0.997746 -37.65 0.067059 52.351
6.20000000 0.067519 52.045 0.997714 -37.95 0.997714 -37.95 0.067519 52.045
6.25000000 0.067977 51.740 0.997683 -38.26 0.997683 -38.26 0.067978 51.740
6.30000000 0.068434 51.435 0.997652 -38.56 0.997652 -38.56 0.068434 51.435
6.35000000 0.068888 51.130 0.997621 -38.87 0.997621 -38.87 0.068889 51.130
6.40000000 0.069341 50.824 0.997590 -39.18 0.997590 -39.18 0.069341 50.824
6.45000000 0.069791 50.519 0.997558 -39.48 0.997558 -39.48 0.069792 50.519
6.50000000 0.070239 50.214 0.997527 -39.79 0.997527 -39.79 0.070240 50.214
6.55000000 0.070686 49.909 0.997495 -40.09 0.997495 -40.09 0.070686 49.909
6.60000000 0.071130 49.604 0.997464 -40.40 0.997464 -40.40 0.071131 49.604
6.65000000 0.071572 49.299 0.997432 -40.70 0.997432 -40.70 0.071573 49.299
6.70000000 0.072012 48.994 0.997400 -41.01 0.997400 -41.01 0.072013 48.994
6.75000000 0.072450 48.689 0.997369 -41.31 0.997369 -41.31 0.072451 48.689
6.80000000 0.072886 48.384 0.997337 -41.62 0.997337 -41.62 0.072887 48.384
6.85000000 0.073320 48.079 0.997305 -41.92 0.997305 -41.92 0.073320 48.079
6.90000000 0.073752 47.774 0.997273 -42.23 0.997273 -42.23 0.073752 47.774
6.95000000 0.074181 47.469 0.997242 -42.53 0.997242 -42.53 0.074181 47.469
7.00000000 0.074608 47.164 0.997210 -42.84 0.997210 -42.84 0.074609 47.164
7.05000000 0.075033 46.859 0.997178 -43.14 0.997178 -43.14 0.075034 46.859
7.10000000 0.075456 46.554 0.997146 -43.45 0.997146 -43.45 0.075457 46.554
7.15000000 0.075877 46.249 0.997114 -43.75 0.997114 -43.75 0.075877 46.249
7.20000000 0.076296 45.944 0.997082 -44.06 0.997082 -44.06 0.076296 45.944
7.25000000 0.076712 45.639 0.997050 -44.36 0.997050 -44.36 0.076712 45.639
7.30000000 0.077126 45.334 0.997019 -44.67 0.997019 -44.67 0.077126 45.334
7.35000000 0.077538 45.029 0.996987 -44.97 0.996987 -44.97 0.077538 45.029
7.40000000 0.077947 44.725 0.996955 -45.28 0.996955 -45.28 0.077947 44.725
7.45000000 0.078354 44.420 0.996923 -45.58 0.996923 -45.58 0.078355 44.420
7.50000000 0.078759 44.115 0.996891 -45.89 0.996891 -45.89 0.078760 44.115
7.55000000 0.079162 43.810 0.996859 -46.19 0.996859 -46.19 0.079162 43.810
7.60000000 0.079563 43.506 0.996827 -46.50 0.996827 -46.50 0.079563 43.506
7.65000000 0.079961 43.201 0.996796 -46.80 0.996796 -46.80 0.079961 43.201
7.70000000 0.080356 42.896 0.996764 -47.10 0.996764 -47.10 0.080357 42.896
7.75000000 0.080750 42.591 0.996732 -47.41 0.996732 -47.41 0.080750 42.591
7.80000000 0.081141 42.287 0.996701 -47.71 0.996701 -47.71 0.081141 42.287
7.85000000 0.081530 41.982 0.996669 -48.02 0.996669 -48.02 0.081530 41.982
7.90000000 0.081916 41.677 0.996637 -48.32 0.996637 -48.32 0.081916 41.677
7.95000000 0.082300 41.373 0.996606 -48.63 0.996606 -48.63 0.082300 41.373
!< P1 F=7.95 Eeff=(undefined: mp) Z0=(undefined: mp) R=0.0 C=0.0 
!< P2 F=7.95 Eeff=(undefined: mp) Z0=(undefined: mp) R=0.0 C=0.0 
8.00000000 0.082682 41.068 0.996574 -48.93 0.996574 -48.93 0.082682 41.068
8.05000000 0.083061 40.764 0.996543 -49.24 0.996543 -49.24 0.083061 40.764
8.10000000 0.083438 40.459 0.996511 -49.54 0.996511 -49.54 0.083438 40.459
8.15000000 0.083812 40.154 0.996480 -49.85 0.996480 -49.85 0.083812 40.154
8.20000000 0.084184 39.850 0.996449 -50.15 0.996449 -50.15 0.084184 39.850
8.25000000 0.084553 39.545 0.996418 -50.46 0.996418 -50.46 0.084553 39.545
8.30000000 0.084920 39.241 0.996386 -50.76 0.996386 -50.76 0.084920 39.241
8.35000000 0.085285 38.936 0.996355 -51.07 0.996355 -51.07 0.085285 38.936
8.40000000 0.085647 38.632 0.996324 -51.37 0.996324 -51.37 0.085647 38.632
8.45000000 0.086007 38.327 0.996294 -51.67 0.996294 -51.67 0.086007 38.327
8.50000000 0.086364 38.023 0.996263 -51.98 0.996263 -51.98 0.086364 38.023
8.55000000 0.086719 37.718 0.996232 -52.28 0.996232 -52.28 0.086718 37.718
8.60000000 0.087071 37.414 0.996201 -52.59 0.996201 -52.59 0.087070 37.414
8.65000000 0.087420 37.110 0.996171 -52.89 0.996171 -52.89 0.087420 37.110
8.70000000 0.087768 36.805 0.996140 -53.20 0.996140 -53.20 0.087767 36.805
8.75000000 0.088112 36.501 0.996110 -53.50 0.996110 -53.50 0.088112 36.501
8.80000000 0.088454 36.196 0.996080 -53.81 0.996080 -53.81 0.088454 36.196
8.85000000 0.088794 35.892 0.996050 -54.11 0.996050 -54.11 0.088793 35.892
8.90000000 0.089130 35.588 0.996019 -54.41 0.996019 -54.41 0.089130 35.588
8.95000000 0.089465 35.283 0.995990 -54.72 0.995990 -54.72 0.089464 35.283
9.00000000 0.089796 34.979 0.995960 -55.02 0.995960 -55.02 0.089796 34.979
9.05000000 0.090126 34.675 0.995930 -55.33 0.995930 -55.33 0.090125 34.675
9.10000000 0.090452 34.370 0.995901 -55.63 0.995901 -55.63 0.090451 34.371
9.15000000 0.090776 34.066 0.995871 -55.94 0.995871 -55.94 0.090775 34.066
9.20000000 0.091097 33.762 0.995842 -56.24 0.995842 -56.24 0.091097 33.762
9.25000000 0.091416 33.458 0.995813 -56.54 0.995813 -56.54 0.091415 33.458
9.30000000 0.091732 33.153 0.995784 -56.85 0.995784 -56.85 0.091731 33.153
9.35000000 0.092046 32.849 0.995755 -57.15 0.995755 -57.15 0.092045 32.849
9.40000000 0.092356 32.545 0.995726 -57.46 0.995726 -57.46 0.092355 32.545
9.45000000 0.092664 32.241 0.995697 -57.76 0.995697 -57.76 0.092664 32.241
9.50000000 0.092970 31.936 0.995669 -58.07 0.995669 -58.07 0.092969 31.937
9.55000000 0.093273 31.632 0.995640 -58.37 0.995640 -58.37 0.093272 31.632
9.60000000 0.093573 31.328 0.995612 -58.67 0.995612 -58.67 0.093572 31.328
9.65000000 0.093870 31.024 0.995584 -58.98 0.995584 -58.98 0.093869 31.024
9.70000000 0.094165 30.720 0.995556 -59.28 0.995556 -59.28 0.094164 30.720
9.75000000 0.094456 30.415 0.995529 -59.59 0.995529 -59.59 0.094456 30.416
9.80000000 0.094746 30.111 0.995501 -59.89 0.995501 -59.89 0.094745 30.112
9.85000000 0.095032 29.807 0.995474 -60.20 0.995474 -60.20 0.095031 29.807
9.90000000 0.095316 29.503 0.995447 -60.50 0.995447 -60.50 0.095315 29.503
9.95000000 0.095597 29.199 0.995420 -60.80 0.995420 -60.80 0.095596 29.199
10.0000000 0.095875 28.895 0.995393 -61.11 0.995393 -61.11 0.095874 28.895
10.0500000 0.096151 28.591 0.995366 -61.41 0.995366 -61.41 0.096150 28.591
10.1000000 0.096424 28.287 0.995340 -61.72 0.995340 -61.72 0.096423 28.287
10.1500000 0.096693 27.983 0.995314 -62.02 0.995314 -62.02 0.096693 27.983
10.2000000 0.096961 27.678 0.995288 -62.32 0.995288 -62.32 0.096960 27.679
10.2500000 0.097225 27.374 0.995262 -62.63 0.995262 -62.63 0.097224 27.375
10.3000000 0.097487 27.070 0.995236 -62.93 0.995236 -62.93 0.097486 27.071
10.3500000 0.097746 26.766 0.995211 -63.24 0.995211 -63.24 0.097745 26.767
10.4000000 0.098002 26.462 0.995185 -63.54 0.995185 -63.54 0.098001 26.463
10.4500000 0.098255 26.158 0.995160 -63.84 0.995160 -63.84 0.098254 26.159
10.5000000 0.098505 25.854 0.995136 -64.15 0.995136 -64.15 0.098504 25.854
10.5500000 0.098753 25.550 0.995111 -64.45 0.995111 -64.45 0.098752 25.550
10.6000000 0.098997 25.246 0.995086 -64.76 0.995086 -64.76 0.098997 25.246
10.6500000 0.099239 24.942 0.995062 -65.06 0.995062 -65.06 0.099239 24.942
10.7000000 0.099478 24.638 0.995038 -65.36 0.995038 -65.36 0.099478 24.638
10.7500000 0.099715 24.334 0.995015 -65.67 0.995015 -65.67 0.099714 24.334
10.8000000 0.099948 24.030 0.994991 -65.97 0.994991 -65.97 0.099947 24.031
10.8500000 0.100178 23.726 0.994968 -66.28 0.994968 -66.28 0.100178 23.727
10.9000000 0.100406 23.422 0.994945 -66.58 0.994945 -66.58 0.100406 23.423
10.9500000 0.100631 23.118 0.994922 -66.88 0.994922 -66.88 0.100630 23.119
11.0000000 0.100852 22.815 0.994899 -67.19 0.994899 -67.19 0.100852 22.815
11.0500000 0.101071 22.511 0.994877 -67.49 0.994877 -67.49 0.101071 22.511
11.1000000 0.101287 22.207 0.994855 -67.79 0.994855 -67.79 0.101287 22.207
11.1500000 0.101501 21.903 0.994833 -68.10 0.994833 -68.10 0.101501 21.903
11.2000000 0.101711 21.599 0.994811 -68.40 0.994811 -68.40 0.101711 21.599
11.2500000 0.101918 21.295 0.994790 -68.71 0.994790 -68.71 0.101918 21.295
!< P1 F=11.25 Eeff=(undefined: mp) Z0=(undefined: mp) R=0.0 C=0.0 
!< P2 F=11.25 Eeff=(undefined: mp) Z0=(undefined: mp) R=0.0 C=0.0 
11.3000000 0.102123 20.991 0.994769 -69.01 0.994769 -69.01 0.102123 20.991
11.3500000 0.102324 20.687 0.994748 -69.31 0.994748 -69.31 0.102324 20.687
11.4000000 0.102523 20.383 0.994728 -69.62 0.994728 -69.62 0.102523 20.383
11.4500000 0.102718 20.080 0.994707 -69.92 0.994707 -69.92 0.102719 20.080
11.5000000 0.102911 19.776 0.994687 -70.23 0.994687 -70.23 0.102911 19.776
11.5500000 0.103101 19.472 0.994668 -70.53 0.994668 -70.53 0.103101 19.472
11.6000000 0.103288 19.168 0.994648 -70.83 0.994648 -70.83 0.103288 19.168
11.6500000 0.103472 18.864 0.994629 -71.14 0.994629 -71.14 0.103472 18.864
11.7000000 0.103653 18.561 0.994610 -71.44 0.994610 -71.44 0.103653 18.560
11.7500000 0.103831 18.257 0.994591 -71.74 0.994591 -71.74 0.103831 18.257
11.8000000 0.104006 17.953 0.994573 -72.05 0.994573 -72.05 0.104007 17.953
11.8500000 0.104178 17.649 0.994555 -72.35 0.994555 -72.35 0.104179 17.649
11.9000000 0.104347 17.346 0.994537 -72.66 0.994537 -72.66 0.104348 17.345
11.9500000 0.104514 17.042 0.994520 -72.96 0.994520 -72.96 0.104514 17.042
12.0000000 0.104677 16.738 0.994503 -73.26 0.994503 -73.26 0.104677 16.738
12.0500000 0.104837 16.435 0.994486 -73.57 0.994486 -73.57 0.104838 16.434
12.1000000 0.104995 16.131 0.994469 -73.87 0.994469 -73.87 0.104995 16.131
12.1500000 0.105149 15.827 0.994453 -74.17 0.994453 -74.17 0.105149 15.827
12.2000000 0.105300 15.523 0.994437 -74.48 0.994437 -74.48 0.105301 15.523
12.2500000 0.105449 15.220 0.994421 -74.78 0.994421 -74.78 0.105449 15.220
12.3000000 0.105594 14.916 0.994406 -75.08 0.994406 -75.08 0.105594 14.916
12.3500000 0.105736 14.613 0.994391 -75.39 0.994391 -75.39 0.105737 14.612
12.4000000 0.105876 14.309 0.994376 -75.69 0.994376 -75.69 0.105876 14.309
12.4500000 0.106012 14.005 0.994361 -76.00 0.994361 -76.00 0.106013 14.005
12.5000000 0.106146 13.702 0.994347 -76.30 0.994347 -76.30 0.106146 13.701
12.5500000 0.106276 13.398 0.994333 -76.60 0.994333 -76.60 0.106276 13.398
12.6000000 0.106403 13.094 0.994320 -76.91 0.994320 -76.91 0.106404 13.094
12.6500000 0.106528 12.791 0.994306 -77.21 0.994306 -77.21 0.106528 12.790
12.7000000 0.106649 12.487 0.994293 -77.51 0.994293 -77.51 0.106649 12.487
