! Sonnet Data File
! From: emgraph Version : 16.52
! From Emgraph Data: Waveguide
! Data File Written: 09/13/2017 14:16:36
!< HDATE 09/13/2017 14:07:04
!< MDATE 09/13/2017 14:07:04
# GHZ S MA R 50.00000
4.00000000 0.007594 77.797 0.999971 -12.21 0.999971 -12.21 0.007594 77.797
!< P1 F=4.0 Eeff=(6.44988538 -2.9748e-5) Z0=(51.8300796 1.19533e-4) R=0.0 C=0.0 
!< P2 F=4.0 Eeff=(6.44988538 -2.9748e-5) Z0=(51.8300796 1.19533e-4) R=0.0 C=0.0 
4.02000000 0.007631 77.736 0.999970 -12.27 0.999970 -12.27 0.007631 77.736
4.04000000 0.007669 77.675 0.999970 -12.33 0.999970 -12.33 0.007669 77.675
4.06000000 0.007706 77.614 0.999970 -12.39 0.999970 -12.39 0.007706 77.614
4.08000000 0.007743 77.553 0.999970 -12.45 0.999970 -12.45 0.007743 77.553
4.10000000 0.007781 77.492 0.999969 -12.51 0.999969 -12.51 0.007781 77.492
4.12000000 0.007818 77.431 0.999969 -12.57 0.999969 -12.57 0.007818 77.431
4.14000000 0.007855 77.370 0.999969 -12.63 0.999969 -12.63 0.007855 77.370
4.16000000 0.007892 77.309 0.999968 -12.69 0.999968 -12.69 0.007892 77.309
4.18000000 0.007930 77.248 0.999968 -12.76 0.999968 -12.76 0.007930 77.248
4.20000000 0.007967 77.187 0.999968 -12.82 0.999968 -12.82 0.007967 77.187
4.22000000 0.008004 77.126 0.999967 -12.88 0.999967 -12.88 0.008004 77.126
4.24000000 0.008041 77.065 0.999967 -12.94 0.999967 -12.94 0.008041 77.065
4.26000000 0.008078 77.004 0.999967 -13.00 0.999967 -13.00 0.008078 77.004
4.28000000 0.008116 76.943 0.999967 -13.06 0.999967 -13.06 0.008116 76.943
4.30000000 0.008153 76.882 0.999966 -13.12 0.999966 -13.12 0.008153 76.882
4.32000000 0.008190 76.821 0.999966 -13.18 0.999966 -13.18 0.008190 76.821
4.34000000 0.008227 76.760 0.999966 -13.24 0.999966 -13.24 0.008227 76.760
4.36000000 0.008264 76.699 0.999965 -13.30 0.999965 -13.30 0.008264 76.699
4.38000000 0.008301 76.638 0.999965 -13.37 0.999965 -13.37 0.008301 76.638
4.40000000 0.008339 76.577 0.999965 -13.43 0.999965 -13.43 0.008339 76.577
4.42000000 0.008376 76.516 0.999964 -13.49 0.999964 -13.49 0.008376 76.516
4.44000000 0.008413 76.455 0.999964 -13.55 0.999964 -13.55 0.008413 76.455
4.46000000 0.008450 76.394 0.999964 -13.61 0.999964 -13.61 0.008450 76.394
4.48000000 0.008487 76.333 0.999963 -13.67 0.999963 -13.67 0.008487 76.333
4.50000000 0.008524 76.272 0.999963 -13.73 0.999963 -13.73 0.008524 76.272
4.52000000 0.008561 76.211 0.999963 -13.79 0.999963 -13.79 0.008561 76.211
4.54000000 0.008598 76.150 0.999962 -13.85 0.999962 -13.85 0.008598 76.150
4.56000000 0.008635 76.089 0.999962 -13.91 0.999962 -13.91 0.008635 76.089
4.58000000 0.008672 76.028 0.999962 -13.98 0.999962 -13.98 0.008672 76.028
4.60000000 0.008709 75.967 0.999962 -14.04 0.999962 -14.04 0.008709 75.967
4.62000000 0.008746 75.906 0.999961 -14.10 0.999961 -14.10 0.008746 75.906
4.64000000 0.008783 75.845 0.999961 -14.16 0.999961 -14.16 0.008783 75.845
4.66000000 0.008820 75.783 0.999961 -14.22 0.999961 -14.22 0.008820 75.783
4.68000000 0.008857 75.722 0.999960 -14.28 0.999960 -14.28 0.008857 75.722
!< P1 F=4.68 Eeff=(6.44983016 -2.9748e-5) Z0=(51.8298037 1.19534e-4) R=0.0 C=0.0 
!< P2 F=4.68 Eeff=(6.44983016 -2.9748e-5) Z0=(51.8298037 1.19534e-4) R=0.0 C=0.0 
4.70000000 0.008894 75.661 0.999960 -14.34 0.999960 -14.34 0.008894 75.661
4.72000000 0.008931 75.600 0.999960 -14.40 0.999960 -14.40 0.008931 75.600
4.74000000 0.008968 75.539 0.999959 -14.46 0.999959 -14.46 0.008968 75.539
4.76000000 0.009005 75.478 0.999959 -14.53 0.999959 -14.53 0.009005 75.478
4.78000000 0.009042 75.417 0.999959 -14.59 0.999959 -14.59 0.009042 75.417
4.80000000 0.009079 75.356 0.999958 -14.65 0.999958 -14.65 0.009079 75.356
4.82000000 0.009116 75.295 0.999958 -14.71 0.999958 -14.71 0.009116 75.295
4.84000000 0.009153 75.234 0.999958 -14.77 0.999958 -14.77 0.009153 75.234
4.86000000 0.009190 75.173 0.999957 -14.83 0.999957 -14.83 0.009190 75.173
4.88000000 0.009227 75.112 0.999957 -14.89 0.999957 -14.89 0.009227 75.112
4.90000000 0.009263 75.051 0.999957 -14.95 0.999957 -14.95 0.009263 75.051
4.92000000 0.009300 74.990 0.999956 -15.01 0.999956 -15.01 0.009300 74.990
4.94000000 0.009337 74.929 0.999956 -15.07 0.999956 -15.07 0.009337 74.929
4.96000000 0.009374 74.868 0.999955 -15.14 0.999955 -15.14 0.009374 74.868
4.98000000 0.009411 74.807 0.999955 -15.20 0.999955 -15.20 0.009411 74.807
5.00000000 0.009447 74.746 0.999955 -15.26 0.999955 -15.26 0.009447 74.746
5.02000000 0.009484 74.685 0.999954 -15.32 0.999954 -15.32 0.009484 74.685
5.04000000 0.009521 74.624 0.999954 -15.38 0.999954 -15.38 0.009521 74.624
5.06000000 0.009558 74.563 0.999954 -15.44 0.999954 -15.44 0.009558 74.563
5.08000000 0.009595 74.502 0.999953 -15.50 0.999953 -15.50 0.009595 74.502
5.10000000 0.009631 74.441 0.999953 -15.56 0.999953 -15.56 0.009631 74.441
5.12000000 0.009668 74.380 0.999953 -15.62 0.999953 -15.62 0.009668 74.380
5.14000000 0.009705 74.319 0.999952 -15.68 0.999952 -15.68 0.009705 74.319
5.16000000 0.009741 74.258 0.999952 -15.75 0.999952 -15.75 0.009741 74.258
5.18000000 0.009778 74.197 0.999952 -15.81 0.999952 -15.81 0.009778 74.197
5.20000000 0.009815 74.136 0.999951 -15.87 0.999951 -15.87 0.009815 74.136
5.22000000 0.009851 74.075 0.999951 -15.93 0.999951 -15.93 0.009851 74.075
5.24000000 0.009888 74.014 0.999950 -15.99 0.999950 -15.99 0.009888 74.014
5.26000000 0.009925 73.953 0.999950 -16.05 0.999950 -16.05 0.009925 73.953
5.28000000 0.009961 73.892 0.999950 -16.11 0.999950 -16.11 0.009961 73.892
5.30000000 0.009998 73.831 0.999949 -16.17 0.999949 -16.17 0.009998 73.831
5.32000000 0.010035 73.770 0.999949 -16.23 0.999949 -16.23 0.010035 73.770
5.34000000 0.010071 73.709 0.999949 -16.29 0.999949 -16.29 0.010071 73.709
5.36000000 0.010108 73.648 0.999948 -16.36 0.999948 -16.36 0.010108 73.648
5.38000000 0.010144 73.587 0.999948 -16.42 0.999948 -16.42 0.010144 73.587
5.40000000 0.010181 73.526 0.999948 -16.48 0.999948 -16.48 0.010181 73.526
5.42000000 0.010217 73.465 0.999947 -16.54 0.999947 -16.54 0.010217 73.465
5.44000000 0.010254 73.404 0.999947 -16.60 0.999947 -16.60 0.010254 73.404
5.46000000 0.010290 73.343 0.999946 -16.66 0.999946 -16.66 0.010290 73.343
5.48000000 0.010327 73.282 0.999946 -16.72 0.999946 -16.72 0.010327 73.282
5.50000000 0.010363 73.221 0.999946 -16.78 0.999946 -16.78 0.010363 73.221
5.52000000 0.010400 73.160 0.999945 -16.84 0.999945 -16.84 0.010400 73.160
5.54000000 0.010436 73.098 0.999945 -16.90 0.999945 -16.90 0.010436 73.098
5.56000000 0.010473 73.037 0.999944 -16.97 0.999944 -16.97 0.010473 73.037
5.58000000 0.010509 72.976 0.999944 -17.03 0.999944 -17.03 0.010509 72.976
5.60000000 0.010546 72.915 0.999944 -17.09 0.999944 -17.09 0.010546 72.915
5.62000000 0.010582 72.854 0.999943 -17.15 0.999943 -17.15 0.010582 72.854
5.64000000 0.010618 72.793 0.999943 -17.21 0.999943 -17.21 0.010618 72.793
5.66000000 0.010655 72.732 0.999943 -17.27 0.999943 -17.27 0.010655 72.732
5.68000000 0.010691 72.671 0.999942 -17.33 0.999942 -17.33 0.010691 72.671
5.70000000 0.010727 72.610 0.999942 -17.39 0.999942 -17.39 0.010727 72.610
5.72000000 0.010764 72.549 0.999941 -17.45 0.999941 -17.45 0.010764 72.549
5.74000000 0.010800 72.488 0.999941 -17.52 0.999941 -17.52 0.010800 72.488
5.76000000 0.010836 72.427 0.999941 -17.58 0.999941 -17.58 0.010836 72.427
5.78000000 0.010873 72.366 0.999940 -17.64 0.999940 -17.64 0.010873 72.366
5.80000000 0.010909 72.305 0.999940 -17.70 0.999940 -17.70 0.010909 72.305
5.82000000 0.010945 72.244 0.999939 -17.76 0.999939 -17.76 0.010945 72.244
5.84000000 0.010982 72.183 0.999939 -17.82 0.999939 -17.82 0.010982 72.183
5.86000000 0.011018 72.122 0.999939 -17.88 0.999939 -17.88 0.011018 72.122
5.88000000 0.011054 72.061 0.999938 -17.94 0.999938 -17.94 0.011054 72.061
5.90000000 0.011090 72.000 0.999938 -18.00 0.999938 -18.00 0.011090 72.000
5.92000000 0.011126 71.939 0.999937 -18.06 0.999937 -18.06 0.011126 71.939
5.94000000 0.011163 71.878 0.999937 -18.13 0.999937 -18.13 0.011163 71.878
5.96000000 0.011199 71.817 0.999937 -18.19 0.999937 -18.19 0.011199 71.817
5.98000000 0.011235 71.756 0.999936 -18.25 0.999936 -18.25 0.011235 71.756
6.00000000 0.011271 71.695 0.999936 -18.31 0.999936 -18.31 0.011271 71.695
!< P1 F=6.0 Eeff=(6.44969834 -2.9747e-5) Z0=(51.8291441 1.19537e-4) R=0.0 C=0.0 
!< P2 F=6.0 Eeff=(6.44969834 -2.9747e-5) Z0=(51.8291441 1.19537e-4) R=0.0 C=0.0 
6.02000000 0.011307 71.634 0.999935 -18.37 0.999935 -18.37 0.011307 71.634
6.04000000 0.011343 71.573 0.999935 -18.43 0.999935 -18.43 0.011343 71.573
6.06000000 0.011379 71.512 0.999935 -18.49 0.999935 -18.49 0.011379 71.512
6.08000000 0.011415 71.451 0.999934 -18.55 0.999934 -18.55 0.011415 71.451
6.10000000 0.011452 71.390 0.999934 -18.61 0.999934 -18.61 0.011452 71.390
6.12000000 0.011488 71.329 0.999933 -18.67 0.999933 -18.67 0.011488 71.329
6.14000000 0.011524 71.268 0.999933 -18.74 0.999933 -18.74 0.011524 71.268
6.16000000 0.011560 71.207 0.999932 -18.80 0.999932 -18.80 0.011560 71.207
6.18000000 0.011596 71.146 0.999932 -18.86 0.999932 -18.86 0.011596 71.146
6.20000000 0.011632 71.085 0.999932 -18.92 0.999932 -18.92 0.011632 71.085
6.22000000 0.011668 71.024 0.999931 -18.98 0.999931 -18.98 0.011668 71.024
6.24000000 0.011704 70.963 0.999931 -19.04 0.999931 -19.04 0.011704 70.963
6.26000000 0.011740 70.902 0.999930 -19.10 0.999930 -19.10 0.011740 70.902
6.28000000 0.011776 70.841 0.999930 -19.16 0.999930 -19.16 0.011776 70.841
6.30000000 0.011811 70.780 0.999930 -19.22 0.999930 -19.22 0.011811 70.780
6.32000000 0.011847 70.719 0.999929 -19.28 0.999929 -19.28 0.011847 70.719
6.34000000 0.011883 70.658 0.999929 -19.35 0.999929 -19.35 0.011883 70.658
6.36000000 0.011919 70.597 0.999928 -19.41 0.999928 -19.41 0.011919 70.597
6.38000000 0.011955 70.536 0.999928 -19.47 0.999928 -19.47 0.011955 70.536
6.40000000 0.011991 70.475 0.999927 -19.53 0.999927 -19.53 0.011991 70.475
6.42000000 0.012027 70.414 0.999927 -19.59 0.999927 -19.59 0.012027 70.414
6.44000000 0.012063 70.353 0.999926 -19.65 0.999926 -19.65 0.012063 70.353
6.46000000 0.012098 70.292 0.999926 -19.71 0.999926 -19.71 0.012098 70.292
6.48000000 0.012134 70.231 0.999926 -19.77 0.999926 -19.77 0.012134 70.231
6.50000000 0.012170 70.170 0.999925 -19.83 0.999925 -19.83 0.012170 70.170
6.52000000 0.012206 70.109 0.999925 -19.89 0.999925 -19.89 0.012206 70.109
6.54000000 0.012241 70.048 0.999924 -19.96 0.999924 -19.96 0.012241 70.048
6.56000000 0.012277 69.987 0.999924 -20.02 0.999924 -20.02 0.012277 69.987
6.58000000 0.012313 69.926 0.999923 -20.08 0.999923 -20.08 0.012313 69.926
6.60000000 0.012348 69.865 0.999923 -20.14 0.999923 -20.14 0.012348 69.865
6.62000000 0.012384 69.804 0.999923 -20.20 0.999923 -20.20 0.012384 69.804
6.64000000 0.012420 69.743 0.999922 -20.26 0.999922 -20.26 0.012420 69.743
6.66000000 0.012455 69.682 0.999922 -20.32 0.999922 -20.32 0.012455 69.682
6.68000000 0.012491 69.621 0.999921 -20.38 0.999921 -20.38 0.012491 69.621
6.70000000 0.012527 69.560 0.999921 -20.44 0.999921 -20.44 0.012527 69.560
6.72000000 0.012562 69.499 0.999920 -20.50 0.999920 -20.50 0.012562 69.499
6.74000000 0.012598 69.438 0.999920 -20.57 0.999920 -20.57 0.012598 69.438
6.76000000 0.012633 69.377 0.999919 -20.63 0.999919 -20.63 0.012633 69.377
6.78000000 0.012669 69.316 0.999919 -20.69 0.999919 -20.69 0.012669 69.316
6.80000000 0.012705 69.255 0.999918 -20.75 0.999918 -20.75 0.012705 69.255
6.82000000 0.012740 69.194 0.999918 -20.81 0.999918 -20.81 0.012740 69.194
6.84000000 0.012776 69.133 0.999918 -20.87 0.999918 -20.87 0.012776 69.133
6.86000000 0.012811 69.072 0.999917 -20.93 0.999917 -20.93 0.012811 69.072
6.88000000 0.012847 69.011 0.999917 -20.99 0.999917 -20.99 0.012847 69.011
6.90000000 0.012882 68.950 0.999916 -21.05 0.999916 -21.05 0.012882 68.950
6.92000000 0.012917 68.889 0.999916 -21.11 0.999916 -21.11 0.012917 68.889
6.94000000 0.012953 68.828 0.999915 -21.18 0.999915 -21.18 0.012953 68.828
6.96000000 0.012988 68.767 0.999915 -21.24 0.999915 -21.24 0.012988 68.767
6.98000000 0.013024 68.706 0.999914 -21.30 0.999914 -21.30 0.013024 68.706
7.00000000 0.013059 68.645 0.999914 -21.36 0.999914 -21.36 0.013059 68.645
7.02000000 0.013094 68.584 0.999913 -21.42 0.999913 -21.42 0.013094 68.584
7.04000000 0.013130 68.523 0.999913 -21.48 0.999913 -21.48 0.013130 68.523
7.06000000 0.013165 68.462 0.999912 -21.54 0.999912 -21.54 0.013165 68.462
7.08000000 0.013200 68.401 0.999912 -21.60 0.999912 -21.60 0.013200 68.401
7.10000000 0.013236 68.340 0.999912 -21.66 0.999912 -21.66 0.013236 68.340
7.12000000 0.013271 68.279 0.999911 -21.72 0.999911 -21.72 0.013271 68.279
7.14000000 0.013306 68.218 0.999911 -21.79 0.999911 -21.79 0.013306 68.218
!< P1 F=7.14 Eeff=(6.44955831 -2.9745e-5) Z0=(51.8284419 1.19537e-4) R=0.0 C=0.0 
!< P2 F=7.14 Eeff=(6.44955831 -2.9745e-5) Z0=(51.8284419 1.19537e-4) R=0.0 C=0.0 
7.16000000 0.013341 68.157 0.999910 -21.85 0.999910 -21.85 0.013341 68.157
7.18000000 0.013377 68.096 0.999910 -21.91 0.999910 -21.91 0.013377 68.096
7.20000000 0.013412 68.035 0.999909 -21.97 0.999909 -21.97 0.013412 68.035
7.22000000 0.013447 67.974 0.999909 -22.03 0.999909 -22.03 0.013447 67.974
7.24000000 0.013482 67.913 0.999908 -22.09 0.999908 -22.09 0.013482 67.913
7.26000000 0.013517 67.852 0.999908 -22.15 0.999908 -22.15 0.013517 67.852
7.28000000 0.013553 67.791 0.999907 -22.21 0.999907 -22.21 0.013553 67.791
7.30000000 0.013588 67.730 0.999907 -22.27 0.999907 -22.27 0.013588 67.730
7.32000000 0.013623 67.669 0.999906 -22.34 0.999906 -22.34 0.013623 67.669
7.34000000 0.013658 67.608 0.999906 -22.40 0.999906 -22.40 0.013658 67.608
7.36000000 0.013693 67.547 0.999905 -22.46 0.999905 -22.46 0.013693 67.547
7.38000000 0.013728 67.486 0.999905 -22.52 0.999905 -22.52 0.013728 67.486
7.40000000 0.013763 67.425 0.999904 -22.58 0.999904 -22.58 0.013763 67.425
7.42000000 0.013798 67.364 0.999904 -22.64 0.999904 -22.64 0.013798 67.364
7.44000000 0.013833 67.303 0.999903 -22.70 0.999903 -22.70 0.013833 67.303
7.46000000 0.013868 67.242 0.999903 -22.76 0.999903 -22.76 0.013868 67.242
7.48000000 0.013903 67.181 0.999902 -22.82 0.999902 -22.82 0.013903 67.181
7.50000000 0.013938 67.120 0.999902 -22.88 0.999902 -22.88 0.013938 67.120
7.52000000 0.013973 67.059 0.999902 -22.95 0.999902 -22.95 0.013973 67.059
7.54000000 0.014008 66.998 0.999901 -23.01 0.999901 -23.01 0.014008 66.998
7.56000000 0.014043 66.937 0.999901 -23.07 0.999901 -23.07 0.014043 66.937
7.58000000 0.014078 66.876 0.999900 -23.13 0.999900 -23.13 0.014078 66.876
7.60000000 0.014112 66.815 0.999900 -23.19 0.999900 -23.19 0.014112 66.815
7.62000000 0.014147 66.754 0.999899 -23.25 0.999899 -23.25 0.014147 66.754
7.64000000 0.014182 66.693 0.999899 -23.31 0.999899 -23.31 0.014182 66.693
7.66000000 0.014217 66.632 0.999898 -23.37 0.999898 -23.37 0.014217 66.632
7.68000000 0.014252 66.571 0.999898 -23.43 0.999898 -23.43 0.014252 66.571
7.70000000 0.014286 66.510 0.999897 -23.49 0.999897 -23.49 0.014286 66.510
7.72000000 0.014321 66.449 0.999897 -23.56 0.999897 -23.56 0.014321 66.449
7.74000000 0.014356 66.388 0.999896 -23.62 0.999896 -23.62 0.014356 66.388
7.76000000 0.014391 66.327 0.999896 -23.68 0.999896 -23.68 0.014391 66.327
7.78000000 0.014425 66.266 0.999895 -23.74 0.999895 -23.74 0.014425 66.266
7.80000000 0.014460 66.205 0.999895 -23.80 0.999895 -23.80 0.014460 66.205
7.82000000 0.014495 66.144 0.999894 -23.86 0.999894 -23.86 0.014495 66.144
7.84000000 0.014529 66.083 0.999894 -23.92 0.999894 -23.92 0.014529 66.083
7.86000000 0.014564 66.021 0.999893 -23.98 0.999893 -23.98 0.014564 66.021
7.88000000 0.014599 65.960 0.999893 -24.04 0.999893 -24.04 0.014599 65.960
7.90000000 0.014633 65.899 0.999892 -24.10 0.999892 -24.10 0.014633 65.899
7.92000000 0.014668 65.838 0.999891 -24.17 0.999891 -24.17 0.014668 65.838
7.94000000 0.014702 65.777 0.999891 -24.23 0.999891 -24.23 0.014702 65.777
7.96000000 0.014737 65.716 0.999890 -24.29 0.999890 -24.29 0.014737 65.716
7.98000000 0.014771 65.655 0.999890 -24.35 0.999890 -24.35 0.014771 65.655
8.00000000 0.014806 65.594 0.999889 -24.41 0.999889 -24.41 0.014806 65.594
!< P1 F=8.0 Eeff=(6.44943662 -2.9744e-5) Z0=(51.8278305 1.19538e-4) R=0.0 C=0.0 
!< P2 F=8.0 Eeff=(6.44943662 -2.9744e-5) Z0=(51.8278305 1.19538e-4) R=0.0 C=0.0 
