! Sonnet Data File
! From: emgraph Version : 16.52
! From Project: transmon_trial
! Data is De-embedded 
! Data File Written: 10/20/2017 09:13:07
!< HDATE 10/19/2017 20:03:37
!< MDATE 10/19/2017 20:10:25
!< PARAMS
!< Lj = 15.24
!< Gap = 16.0
!< Width = 30.0
!< Airgap = 18.0
!< Pwidth = 2000.0
!< END PARAMS
# GHZ S MA R 51.00000
8.65000000 0.010082 -170.3 0.999945 -80.38 0.999945 -80.38 0.010082 -170.5
!< P1 F=8.65 Eeff=(6.44482017 -3.0292e-5) Z0=(50.6172123 1.12884e-4) R=0.0 C=0.0 
!< P2 F=8.65 Eeff=(6.44482017 -3.0292e-5) Z0=(50.6172123 1.12884e-4) R=0.0 C=0.0 
8.65010000 0.010089 -170.3 0.999945 -80.38 0.999945 -80.38 0.010089 -170.5
8.65020000 0.010097 -170.3 0.999944 -80.38 0.999944 -80.38 0.010097 -170.5
8.65030000 0.010104 -170.3 0.999944 -80.38 0.999944 -80.38 0.010104 -170.5
8.65040000 0.010111 -170.3 0.999944 -80.38 0.999944 -80.38 0.010111 -170.5
8.65050000 0.010118 -170.3 0.999944 -80.38 0.999944 -80.38 0.010118 -170.5
8.65060000 0.010125 -170.3 0.999944 -80.38 0.999944 -80.38 0.010125 -170.5
8.65070000 0.010132 -170.3 0.999944 -80.39 0.999944 -80.39 0.010132 -170.5
8.65080000 0.010139 -170.3 0.999944 -80.39 0.999944 -80.39 0.010139 -170.5
8.65090000 0.010146 -170.3 0.999944 -80.39 0.999944 -80.39 0.010146 -170.5
8.65100000 0.010154 -170.3 0.999944 -80.39 0.999944 -80.39 0.010154 -170.5
8.65110000 0.010161 -170.3 0.999944 -80.39 0.999944 -80.39 0.010161 -170.5
8.65120000 0.010168 -170.3 0.999944 -80.39 0.999944 -80.39 0.010168 -170.5
8.65130000 0.010175 -170.3 0.999944 -80.39 0.999944 -80.39 0.010175 -170.5
8.65140000 0.010182 -170.3 0.999944 -80.39 0.999944 -80.39 0.010182 -170.5
8.65150000 0.010189 -170.3 0.999944 -80.40 0.999944 -80.40 0.010189 -170.5
8.65160000 0.010197 -170.3 0.999943 -80.40 0.999943 -80.40 0.010197 -170.5
8.65170000 0.010204 -170.3 0.999943 -80.40 0.999943 -80.40 0.010204 -170.5
8.65180000 0.010211 -170.3 0.999943 -80.40 0.999943 -80.40 0.010211 -170.5
8.65190000 0.010218 -170.3 0.999943 -80.40 0.999943 -80.40 0.010218 -170.5
8.65200000 0.010225 -170.3 0.999943 -80.40 0.999943 -80.40 0.010225 -170.5
8.65210000 0.010233 -170.3 0.999943 -80.40 0.999943 -80.40 0.010233 -170.5
8.65220000 0.010240 -170.3 0.999943 -80.41 0.999943 -80.41 0.010240 -170.5
8.65230000 0.010247 -170.3 0.999943 -80.41 0.999943 -80.41 0.010247 -170.5
8.65240000 0.010254 -170.3 0.999943 -80.41 0.999943 -80.41 0.010254 -170.5
8.65250000 0.010261 -170.3 0.999943 -80.41 0.999943 -80.41 0.010261 -170.5
8.65260000 0.010269 -170.3 0.999943 -80.41 0.999943 -80.41 0.010269 -170.5
8.65270000 0.010276 -170.3 0.999943 -80.41 0.999943 -80.41 0.010276 -170.5
8.65280000 0.010283 -170.3 0.999943 -80.41 0.999943 -80.41 0.010283 -170.5
8.65290000 0.010290 -170.3 0.999942 -80.42 0.999942 -80.42 0.010290 -170.5
8.65300000 0.010298 -170.3 0.999942 -80.42 0.999942 -80.42 0.010298 -170.5
8.65310000 0.010305 -170.3 0.999942 -80.42 0.999942 -80.42 0.010305 -170.5
8.65320000 0.010312 -170.3 0.999942 -80.42 0.999942 -80.42 0.010312 -170.5
8.65330000 0.010320 -170.3 0.999942 -80.42 0.999942 -80.42 0.010320 -170.5
8.65340000 0.010327 -170.3 0.999942 -80.42 0.999942 -80.42 0.010327 -170.5
8.65350000 0.010334 -170.3 0.999942 -80.42 0.999942 -80.42 0.010334 -170.5
8.65360000 0.010342 -170.3 0.999942 -80.42 0.999942 -80.42 0.010342 -170.5
8.65370000 0.010349 -170.3 0.999942 -80.43 0.999942 -80.43 0.010349 -170.5
8.65380000 0.010356 -170.3 0.999942 -80.43 0.999942 -80.43 0.010356 -170.5
8.65390000 0.010363 -170.3 0.999942 -80.43 0.999942 -80.43 0.010363 -170.5
8.65400000 0.010371 -170.3 0.999942 -80.43 0.999942 -80.43 0.010371 -170.5
8.65410000 0.010378 -170.4 0.999942 -80.43 0.999942 -80.43 0.010378 -170.6
8.65420000 0.010385 -170.4 0.999941 -80.43 0.999941 -80.43 0.010385 -170.6
8.65430000 0.010393 -170.4 0.999941 -80.43 0.999941 -80.43 0.010393 -170.6
8.65440000 0.010400 -170.4 0.999941 -80.44 0.999941 -80.44 0.010400 -170.6
8.65450000 0.010408 -170.4 0.999941 -80.44 0.999941 -80.44 0.010408 -170.6
8.65460000 0.010415 -170.4 0.999941 -80.44 0.999941 -80.44 0.010415 -170.6
8.65470000 0.010422 -170.4 0.999941 -80.44 0.999941 -80.44 0.010422 -170.6
8.65480000 0.010430 -170.4 0.999941 -80.44 0.999941 -80.44 0.010430 -170.6
8.65490000 0.010437 -170.4 0.999941 -80.44 0.999941 -80.44 0.010437 -170.6
8.65500000 0.010444 -170.4 0.999941 -80.44 0.999941 -80.44 0.010444 -170.6
8.65510000 0.010452 -170.4 0.999941 -80.44 0.999941 -80.44 0.010452 -170.6
8.65520000 0.010459 -170.4 0.999941 -80.45 0.999941 -80.45 0.010459 -170.6
8.65530000 0.010467 -170.4 0.999941 -80.45 0.999941 -80.45 0.010467 -170.6
8.65540000 0.010474 -170.4 0.999941 -80.45 0.999941 -80.45 0.010474 -170.6
8.65550000 0.010481 -170.4 0.999940 -80.45 0.999940 -80.45 0.010481 -170.6
8.65560000 0.010489 -170.4 0.999940 -80.45 0.999940 -80.45 0.010489 -170.6
8.65570000 0.010496 -170.4 0.999940 -80.45 0.999940 -80.45 0.010496 -170.6
8.65580000 0.010504 -170.4 0.999940 -80.45 0.999940 -80.45 0.010504 -170.6
8.65590000 0.010511 -170.4 0.999940 -80.46 0.999940 -80.46 0.010511 -170.6
8.65600000 0.010519 -170.4 0.999940 -80.46 0.999940 -80.46 0.010519 -170.6
8.65610000 0.010526 -170.4 0.999940 -80.46 0.999940 -80.46 0.010526 -170.6
8.65620000 0.010534 -170.4 0.999940 -80.46 0.999940 -80.46 0.010534 -170.6
8.65630000 0.010541 -170.4 0.999940 -80.46 0.999940 -80.46 0.010541 -170.6
8.65640000 0.010549 -170.4 0.999940 -80.46 0.999940 -80.46 0.010549 -170.6
8.65650000 0.010556 -170.4 0.999940 -80.46 0.999940 -80.46 0.010556 -170.6
8.65660000 0.010564 -170.4 0.999940 -80.46 0.999940 -80.46 0.010564 -170.6
8.65670000 0.010571 -170.4 0.999939 -80.47 0.999939 -80.47 0.010571 -170.6
8.65680000 0.010579 -170.4 0.999939 -80.47 0.999939 -80.47 0.010579 -170.6
8.65690000 0.010586 -170.4 0.999939 -80.47 0.999939 -80.47 0.010586 -170.6
8.65700000 0.010594 -170.4 0.999939 -80.47 0.999939 -80.47 0.010594 -170.6
8.65710000 0.010601 -170.4 0.999939 -80.47 0.999939 -80.47 0.010601 -170.6
8.65720000 0.010609 -170.4 0.999939 -80.47 0.999939 -80.47 0.010609 -170.6
8.65730000 0.010616 -170.4 0.999939 -80.47 0.999939 -80.47 0.010616 -170.6
8.65740000 0.010624 -170.4 0.999939 -80.48 0.999939 -80.48 0.010624 -170.6
8.65750000 0.010631 -170.4 0.999939 -80.48 0.999939 -80.48 0.010631 -170.6
8.65760000 0.010639 -170.4 0.999939 -80.48 0.999939 -80.48 0.010639 -170.6
8.65770000 0.010646 -170.4 0.999939 -80.48 0.999939 -80.48 0.010646 -170.6
8.65780000 0.010654 -170.4 0.999939 -80.48 0.999939 -80.48 0.010654 -170.6
8.65790000 0.010662 -170.4 0.999939 -80.48 0.999939 -80.48 0.010662 -170.6
8.65800000 0.010669 -170.4 0.999938 -80.48 0.999938 -80.48 0.010669 -170.6
8.65810000 0.010677 -170.4 0.999938 -80.49 0.999938 -80.49 0.010677 -170.6
8.65820000 0.010684 -170.4 0.999938 -80.49 0.999938 -80.49 0.010684 -170.6
8.65830000 0.010692 -170.4 0.999938 -80.49 0.999938 -80.49 0.010692 -170.6
8.65840000 0.010700 -170.4 0.999938 -80.49 0.999938 -80.49 0.010700 -170.6
8.65850000 0.010707 -170.4 0.999938 -80.49 0.999938 -80.49 0.010707 -170.6
8.65860000 0.010715 -170.4 0.999938 -80.49 0.999938 -80.49 0.010715 -170.6
8.65870000 0.010722 -170.4 0.999938 -80.49 0.999938 -80.49 0.010722 -170.6
8.65880000 0.010730 -170.4 0.999938 -80.49 0.999938 -80.49 0.010730 -170.6
8.65890000 0.010738 -170.4 0.999938 -80.50 0.999938 -80.50 0.010738 -170.6
8.65900000 0.010745 -170.4 0.999938 -80.50 0.999938 -80.50 0.010745 -170.6
8.65910000 0.010753 -170.4 0.999938 -80.50 0.999938 -80.50 0.010753 -170.6
8.65920000 0.010761 -170.4 0.999937 -80.50 0.999937 -80.50 0.010761 -170.6
8.65930000 0.010768 -170.4 0.999937 -80.50 0.999937 -80.50 0.010768 -170.6
8.65940000 0.010776 -170.4 0.999937 -80.50 0.999937 -80.50 0.010776 -170.6
8.65950000 0.010784 -170.4 0.999937 -80.50 0.999937 -80.50 0.010784 -170.6
8.65960000 0.010791 -170.4 0.999937 -80.51 0.999937 -80.51 0.010791 -170.6
8.65970000 0.010799 -170.4 0.999937 -80.51 0.999937 -80.51 0.010799 -170.6
8.65980000 0.010807 -170.4 0.999937 -80.51 0.999937 -80.51 0.010807 -170.6
8.65990000 0.010815 -170.4 0.999937 -80.51 0.999937 -80.51 0.010815 -170.6
8.66000000 0.010822 -170.4 0.999937 -80.51 0.999937 -80.51 0.010822 -170.6
8.66010000 0.010830 -170.4 0.999937 -80.51 0.999937 -80.51 0.010830 -170.6
8.66020000 0.010838 -170.4 0.999937 -80.51 0.999937 -80.51 0.010838 -170.6
8.66030000 0.010845 -170.4 0.999937 -80.52 0.999937 -80.52 0.010845 -170.6
8.66040000 0.010853 -170.4 0.999936 -80.52 0.999936 -80.52 0.010853 -170.6
8.66050000 0.010861 -170.4 0.999936 -80.52 0.999936 -80.52 0.010861 -170.6
8.66060000 0.010869 -170.4 0.999936 -80.52 0.999936 -80.52 0.010869 -170.6
8.66070000 0.010876 -170.4 0.999936 -80.52 0.999936 -80.52 0.010876 -170.6
8.66080000 0.010884 -170.4 0.999936 -80.52 0.999936 -80.52 0.010884 -170.6
8.66090000 0.010892 -170.4 0.999936 -80.52 0.999936 -80.52 0.010892 -170.7
8.66100000 0.010900 -170.4 0.999936 -80.52 0.999936 -80.52 0.010900 -170.7
8.66110000 0.010908 -170.4 0.999936 -80.53 0.999936 -80.53 0.010908 -170.7
8.66120000 0.010915 -170.4 0.999936 -80.53 0.999936 -80.53 0.010915 -170.7
8.66130000 0.010923 -170.4 0.999936 -80.53 0.999936 -80.53 0.010923 -170.7
8.66140000 0.010931 -170.4 0.999936 -80.53 0.999936 -80.53 0.010931 -170.7
8.66150000 0.010939 -170.4 0.999935 -80.53 0.999935 -80.53 0.010939 -170.7
8.66160000 0.010947 -170.4 0.999935 -80.53 0.999935 -80.53 0.010947 -170.7
8.66170000 0.010954 -170.4 0.999935 -80.53 0.999935 -80.53 0.010954 -170.7
8.66180000 0.010962 -170.4 0.999935 -80.54 0.999935 -80.54 0.010962 -170.7
8.66190000 0.010970 -170.4 0.999935 -80.54 0.999935 -80.54 0.010970 -170.7
8.66200000 0.010978 -170.4 0.999935 -80.54 0.999935 -80.54 0.010978 -170.7
8.66210000 0.010986 -170.4 0.999935 -80.54 0.999935 -80.54 0.010986 -170.7
8.66220000 0.010994 -170.4 0.999935 -80.54 0.999935 -80.54 0.010994 -170.7
8.66230000 0.011002 -170.5 0.999935 -80.54 0.999935 -80.54 0.011002 -170.7
8.66240000 0.011009 -170.5 0.999935 -80.54 0.999935 -80.54 0.011009 -170.7
8.66250000 0.011017 -170.5 0.999935 -80.55 0.999935 -80.55 0.011017 -170.7
8.66260000 0.011025 -170.5 0.999935 -80.55 0.999935 -80.55 0.011025 -170.7
8.66270000 0.011033 -170.5 0.999934 -80.55 0.999934 -80.55 0.011033 -170.7
8.66280000 0.011041 -170.5 0.999934 -80.55 0.999934 -80.55 0.011041 -170.7
8.66290000 0.011049 -170.5 0.999934 -80.55 0.999934 -80.55 0.011049 -170.7
8.66300000 0.011057 -170.5 0.999934 -80.55 0.999934 -80.55 0.011057 -170.7
8.66310000 0.011065 -170.5 0.999934 -80.55 0.999934 -80.55 0.011065 -170.7
8.66320000 0.011073 -170.5 0.999934 -80.56 0.999934 -80.56 0.011073 -170.7
8.66330000 0.011081 -170.5 0.999934 -80.56 0.999934 -80.56 0.011081 -170.7
8.66340000 0.011089 -170.5 0.999934 -80.56 0.999934 -80.56 0.011089 -170.7
8.66350000 0.011097 -170.5 0.999934 -80.56 0.999934 -80.56 0.011097 -170.7
8.66360000 0.011105 -170.5 0.999934 -80.56 0.999934 -80.56 0.011105 -170.7
8.66370000 0.011113 -170.5 0.999934 -80.56 0.999934 -80.56 0.011113 -170.7
8.66380000 0.011120 -170.5 0.999933 -80.56 0.999933 -80.56 0.011120 -170.7
8.66390000 0.011128 -170.5 0.999933 -80.56 0.999933 -80.56 0.011128 -170.7
8.66400000 0.011136 -170.5 0.999933 -80.57 0.999933 -80.57 0.011136 -170.7
8.66410000 0.011144 -170.5 0.999933 -80.57 0.999933 -80.57 0.011144 -170.7
8.66420000 0.011152 -170.5 0.999933 -80.57 0.999933 -80.57 0.011152 -170.7
8.66430000 0.011160 -170.5 0.999933 -80.57 0.999933 -80.57 0.011160 -170.7
8.66440000 0.011168 -170.5 0.999933 -80.57 0.999933 -80.57 0.011168 -170.7
8.66450000 0.011177 -170.5 0.999933 -80.57 0.999933 -80.57 0.011177 -170.7
8.66460000 0.011185 -170.5 0.999933 -80.57 0.999933 -80.57 0.011185 -170.7
8.66470000 0.011193 -170.5 0.999933 -80.58 0.999933 -80.58 0.011193 -170.7
8.66480000 0.011201 -170.5 0.999933 -80.58 0.999933 -80.58 0.011201 -170.7
8.66490000 0.011209 -170.5 0.999932 -80.58 0.999932 -80.58 0.011209 -170.7
8.66500000 0.011217 -170.5 0.999932 -80.58 0.999932 -80.58 0.011217 -170.7
8.66510000 0.011225 -170.5 0.999932 -80.58 0.999932 -80.58 0.011225 -170.7
8.66520000 0.011233 -170.5 0.999932 -80.58 0.999932 -80.58 0.011233 -170.7
8.66530000 0.011241 -170.5 0.999932 -80.58 0.999932 -80.58 0.011241 -170.7
8.66540000 0.011249 -170.5 0.999932 -80.59 0.999932 -80.59 0.011249 -170.7
8.66550000 0.011257 -170.5 0.999932 -80.59 0.999932 -80.59 0.011257 -170.7
8.66560000 0.011265 -170.5 0.999932 -80.59 0.999932 -80.59 0.011265 -170.7
8.66570000 0.011273 -170.5 0.999932 -80.59 0.999932 -80.59 0.011273 -170.7
8.66580000 0.011281 -170.5 0.999932 -80.59 0.999932 -80.59 0.011281 -170.7
8.66590000 0.011290 -170.5 0.999932 -80.59 0.999932 -80.59 0.011290 -170.7
8.66600000 0.011298 -170.5 0.999931 -80.59 0.999931 -80.59 0.011298 -170.7
8.66610000 0.011306 -170.5 0.999931 -80.60 0.999931 -80.60 0.011306 -170.7
8.66620000 0.011314 -170.5 0.999931 -80.60 0.999931 -80.60 0.011314 -170.7
8.66630000 0.011322 -170.5 0.999931 -80.60 0.999931 -80.60 0.011322 -170.7
8.66640000 0.011330 -170.5 0.999931 -80.60 0.999931 -80.60 0.011330 -170.7
8.66650000 0.011339 -170.5 0.999931 -80.60 0.999931 -80.60 0.011339 -170.7
8.66660000 0.011347 -170.5 0.999931 -80.60 0.999931 -80.60 0.011347 -170.7
8.66670000 0.011355 -170.5 0.999931 -80.60 0.999931 -80.60 0.011355 -170.7
8.66680000 0.011363 -170.5 0.999931 -80.61 0.999931 -80.61 0.011363 -170.7
8.66690000 0.011371 -170.5 0.999931 -80.61 0.999931 -80.61 0.011371 -170.7
8.66700000 0.011379 -170.5 0.999930 -80.61 0.999930 -80.61 0.011379 -170.7
8.66710000 0.011388 -170.5 0.999930 -80.61 0.999930 -80.61 0.011388 -170.7
8.66720000 0.011396 -170.5 0.999930 -80.61 0.999930 -80.61 0.011396 -170.7
8.66730000 0.011404 -170.5 0.999930 -80.61 0.999930 -80.61 0.011404 -170.7
8.66740000 0.011412 -170.5 0.999930 -80.61 0.999930 -80.61 0.011412 -170.7
8.66750000 0.011421 -170.5 0.999930 -80.61 0.999930 -80.61 0.011421 -170.8
8.66760000 0.011429 -170.5 0.999930 -80.62 0.999930 -80.62 0.011429 -170.8
8.66770000 0.011437 -170.5 0.999930 -80.62 0.999930 -80.62 0.011437 -170.8
8.66780000 0.011445 -170.5 0.999930 -80.62 0.999930 -80.62 0.011445 -170.8
8.66790000 0.011454 -170.5 0.999930 -80.62 0.999930 -80.62 0.011454 -170.8
8.66800000 0.011462 -170.5 0.999930 -80.62 0.999930 -80.62 0.011462 -170.8
8.66810000 0.011470 -170.5 0.999929 -80.62 0.999929 -80.62 0.011470 -170.8
8.66820000 0.011479 -170.5 0.999929 -80.62 0.999929 -80.62 0.011479 -170.8
8.66830000 0.011487 -170.5 0.999929 -80.63 0.999929 -80.63 0.011487 -170.8
8.66840000 0.011495 -170.5 0.999929 -80.63 0.999929 -80.63 0.011495 -170.8
8.66850000 0.011503 -170.5 0.999929 -80.63 0.999929 -80.63 0.011503 -170.8
8.66860000 0.011512 -170.5 0.999929 -80.63 0.999929 -80.63 0.011512 -170.8
8.66870000 0.011520 -170.5 0.999929 -80.63 0.999929 -80.63 0.011520 -170.8
8.66880000 0.011528 -170.5 0.999929 -80.63 0.999929 -80.63 0.011528 -170.8
8.66890000 0.011537 -170.5 0.999929 -80.63 0.999929 -80.63 0.011537 -170.8
8.66900000 0.011545 -170.5 0.999929 -80.64 0.999929 -80.64 0.011545 -170.8
8.66910000 0.011553 -170.5 0.999928 -80.64 0.999928 -80.64 0.011553 -170.8
8.66920000 0.011562 -170.5 0.999928 -80.64 0.999928 -80.64 0.011562 -170.8
8.66930000 0.011570 -170.5 0.999928 -80.64 0.999928 -80.64 0.011570 -170.8
8.66940000 0.011579 -170.5 0.999928 -80.64 0.999928 -80.64 0.011579 -170.8
8.66950000 0.011587 -170.5 0.999928 -80.64 0.999928 -80.64 0.011587 -170.8
8.66960000 0.011595 -170.5 0.999928 -80.64 0.999928 -80.64 0.011595 -170.8
8.66970000 0.011604 -170.5 0.999928 -80.65 0.999928 -80.65 0.011604 -170.8
8.66980000 0.011612 -170.5 0.999928 -80.65 0.999928 -80.65 0.011612 -170.8
8.66990000 0.011621 -170.5 0.999928 -80.65 0.999928 -80.65 0.011621 -170.8
8.67000000 0.011629 -170.5 0.999928 -80.65 0.999928 -80.65 0.011629 -170.8
8.67010000 0.011638 -170.5 0.999927 -80.65 0.999927 -80.65 0.011638 -170.8
8.67020000 0.011646 -170.5 0.999927 -80.65 0.999927 -80.65 0.011646 -170.8
8.67030000 0.011654 -170.6 0.999927 -80.65 0.999927 -80.65 0.011654 -170.8
8.67040000 0.011663 -170.6 0.999927 -80.66 0.999927 -80.66 0.011663 -170.8
8.67050000 0.011671 -170.6 0.999927 -80.66 0.999927 -80.66 0.011671 -170.8
8.67060000 0.011680 -170.6 0.999927 -80.66 0.999927 -80.66 0.011680 -170.8
8.67070000 0.011688 -170.6 0.999927 -80.66 0.999927 -80.66 0.011688 -170.8
8.67080000 0.011697 -170.6 0.999927 -80.66 0.999927 -80.66 0.011697 -170.8
8.67090000 0.011705 -170.6 0.999927 -80.66 0.999927 -80.66 0.011705 -170.8
8.67100000 0.011714 -170.6 0.999927 -80.66 0.999927 -80.66 0.011714 -170.8
8.67110000 0.011722 -170.6 0.999926 -80.67 0.999926 -80.67 0.011722 -170.8
8.67120000 0.011731 -170.6 0.999926 -80.67 0.999926 -80.67 0.011731 -170.8
8.67130000 0.011739 -170.6 0.999926 -80.67 0.999926 -80.67 0.011739 -170.8
8.67140000 0.011748 -170.6 0.999926 -80.67 0.999926 -80.67 0.011748 -170.8
8.67150000 0.011756 -170.6 0.999926 -80.67 0.999926 -80.67 0.011756 -170.8
8.67160000 0.011765 -170.6 0.999926 -80.67 0.999926 -80.67 0.011765 -170.8
8.67170000 0.011774 -170.6 0.999926 -80.67 0.999926 -80.67 0.011774 -170.8
8.67180000 0.011782 -170.6 0.999926 -80.68 0.999926 -80.68 0.011782 -170.8
8.67190000 0.011791 -170.6 0.999926 -80.68 0.999926 -80.68 0.011791 -170.8
8.67200000 0.011799 -170.6 0.999926 -80.68 0.999926 -80.68 0.011799 -170.8
8.67210000 0.011808 -170.6 0.999925 -80.68 0.999925 -80.68 0.011808 -170.8
8.67220000 0.011816 -170.6 0.999925 -80.68 0.999925 -80.68 0.011816 -170.8
8.67230000 0.011825 -170.6 0.999925 -80.68 0.999925 -80.68 0.011825 -170.8
8.67240000 0.011834 -170.6 0.999925 -80.68 0.999925 -80.68 0.011834 -170.8
8.67250000 0.011842 -170.6 0.999925 -80.69 0.999925 -80.69 0.011842 -170.8
8.67260000 0.011851 -170.6 0.999925 -80.69 0.999925 -80.69 0.011851 -170.8
8.67270000 0.011860 -170.6 0.999925 -80.69 0.999925 -80.69 0.011860 -170.8
8.67280000 0.011868 -170.6 0.999925 -80.69 0.999925 -80.69 0.011868 -170.8
8.67290000 0.011877 -170.6 0.999925 -80.69 0.999925 -80.69 0.011877 -170.8
8.67300000 0.011886 -170.6 0.999924 -80.69 0.999924 -80.69 0.011886 -170.8
8.67310000 0.011894 -170.6 0.999924 -80.69 0.999924 -80.69 0.011894 -170.8
8.67320000 0.011903 -170.6 0.999924 -80.70 0.999924 -80.70 0.011903 -170.8
8.67330000 0.011912 -170.6 0.999924 -80.70 0.999924 -80.70 0.011912 -170.8
8.67340000 0.011920 -170.6 0.999924 -80.70 0.999924 -80.70 0.011920 -170.8
8.67350000 0.011929 -170.6 0.999924 -80.70 0.999924 -80.70 0.011929 -170.8
8.67360000 0.011938 -170.6 0.999924 -80.70 0.999924 -80.70 0.011938 -170.8
8.67370000 0.011946 -170.6 0.999924 -80.70 0.999924 -80.70 0.011946 -170.8
8.67380000 0.011955 -170.6 0.999924 -80.70 0.999924 -80.70 0.011955 -170.8
8.67390000 0.011964 -170.6 0.999924 -80.71 0.999924 -80.71 0.011964 -170.8
8.67400000 0.011973 -170.6 0.999923 -80.71 0.999923 -80.71 0.011973 -170.9
8.67410000 0.011981 -170.6 0.999923 -80.71 0.999923 -80.71 0.011981 -170.9
8.67420000 0.011990 -170.6 0.999923 -80.71 0.999923 -80.71 0.011990 -170.9
8.67430000 0.011999 -170.6 0.999923 -80.71 0.999923 -80.71 0.011999 -170.9
8.67440000 0.012008 -170.6 0.999923 -80.71 0.999923 -80.71 0.012008 -170.9
8.67450000 0.012016 -170.6 0.999923 -80.71 0.999923 -80.71 0.012016 -170.9
8.67460000 0.012025 -170.6 0.999923 -80.72 0.999923 -80.72 0.012025 -170.9
8.67470000 0.012034 -170.6 0.999923 -80.72 0.999923 -80.72 0.012034 -170.9
8.67480000 0.012043 -170.6 0.999923 -80.72 0.999923 -80.72 0.012043 -170.9
8.67490000 0.012052 -170.6 0.999922 -80.72 0.999922 -80.72 0.012052 -170.9
8.67500000 0.012060 -170.6 0.999922 -80.72 0.999922 -80.72 0.012060 -170.9
8.67510000 0.012069 -170.6 0.999922 -80.72 0.999922 -80.72 0.012069 -170.9
8.67520000 0.012078 -170.6 0.999922 -80.72 0.999922 -80.72 0.012078 -170.9
8.67530000 0.012087 -170.6 0.999922 -80.73 0.999922 -80.73 0.012087 -170.9
8.67540000 0.012096 -170.6 0.999922 -80.73 0.999922 -80.73 0.012096 -170.9
8.67550000 0.012105 -170.6 0.999922 -80.73 0.999922 -80.73 0.012105 -170.9
8.67560000 0.012114 -170.6 0.999922 -80.73 0.999922 -80.73 0.012114 -170.9
8.67570000 0.012122 -170.6 0.999922 -80.73 0.999922 -80.73 0.012122 -170.9
8.67580000 0.012131 -170.6 0.999921 -80.73 0.999921 -80.73 0.012131 -170.9
8.67590000 0.012140 -170.6 0.999921 -80.73 0.999921 -80.73 0.012140 -170.9
