! Sonnet Data File
! From: emgraph Version : 16.52
! From Emgraph Data: transmon_trial
! Data File Written: 10/20/2017 14:29:51
!< HDATE 10/20/2017 14:13:03
!< MDATE 10/20/2017 14:13:03
!< PARAMS
!< Lj = 15.24
!< Gap = 6.0
!< Width = 10.0
!< Pwidth = 2000.0
!< END PARAMS
# GHZ S MA R 51.00000
8.75000000 0.099681 -178.3 0.994966 -88.63 0.994966 -88.63 0.099681 -179.0
!< P1 F=8.75 Eeff=(6.44679771 -2.9786e-5) Z0=(51.799172 1.19069e-4) R=0.0 C=0.0 
!< P2 F=8.75 Eeff=(6.44679771 -2.9786e-5) Z0=(51.799172 1.19069e-4) R=0.0 C=0.0 
8.75005000 0.099823 -178.3 0.994951 -88.64 0.994951 -88.64 0.099823 -179.1
8.75010000 0.099965 -178.3 0.994937 -88.65 0.994937 -88.65 0.099965 -179.1
8.75015000 0.100107 -178.3 0.994922 -88.66 0.994922 -88.66 0.100107 -179.1
8.75020000 0.100250 -178.3 0.994908 -88.67 0.994908 -88.67 0.100250 -179.1
8.75025000 0.100393 -178.3 0.994893 -88.67 0.994893 -88.67 0.100393 -179.1
8.75030000 0.100536 -178.3 0.994879 -88.68 0.994879 -88.68 0.100536 -179.1
8.75035000 0.100679 -178.3 0.994864 -88.69 0.994864 -88.69 0.100679 -179.1
8.75040000 0.100823 -178.4 0.994850 -88.70 0.994850 -88.70 0.100823 -179.1
8.75045000 0.100967 -178.4 0.994835 -88.71 0.994835 -88.71 0.100967 -179.1
8.75050000 0.101111 -178.4 0.994820 -88.72 0.994820 -88.72 0.101111 -179.1
8.75055000 0.101256 -178.4 0.994805 -88.73 0.994805 -88.73 0.101256 -179.1
8.75060000 0.101401 -178.4 0.994791 -88.74 0.994791 -88.74 0.101401 -179.1
8.75065000 0.101546 -178.4 0.994776 -88.74 0.994776 -88.74 0.101546 -179.2
8.75070000 0.101691 -178.4 0.994761 -88.75 0.994761 -88.75 0.101692 -179.2
8.75075000 0.101837 -178.4 0.994746 -88.76 0.994746 -88.76 0.101837 -179.2
8.75080000 0.101983 -178.4 0.994731 -88.77 0.994731 -88.77 0.101983 -179.2
8.75085000 0.102130 -178.4 0.994715 -88.78 0.994715 -88.78 0.102130 -179.2
8.75090000 0.102276 -178.4 0.994700 -88.79 0.994700 -88.79 0.102276 -179.2
8.75095000 0.102423 -178.4 0.994685 -88.80 0.994685 -88.80 0.102423 -179.2
8.75100000 0.102571 -178.5 0.994670 -88.81 0.994670 -88.81 0.102571 -179.2
8.75105000 0.102718 -178.5 0.994654 -88.82 0.994654 -88.82 0.102718 -179.2
8.75110000 0.102866 -178.5 0.994639 -88.82 0.994639 -88.82 0.102866 -179.2
8.75115000 0.103014 -178.5 0.994624 -88.83 0.994624 -88.83 0.103014 -179.2
8.75120000 0.103163 -178.5 0.994608 -88.84 0.994608 -88.84 0.103163 -179.3
8.75125000 0.103311 -178.5 0.994593 -88.85 0.994593 -88.85 0.103312 -179.3
8.75130000 0.103460 -178.5 0.994577 -88.86 0.994577 -88.86 0.103461 -179.3
8.75135000 0.103610 -178.5 0.994561 -88.87 0.994561 -88.87 0.103610 -179.3
8.75140000 0.103760 -178.5 0.994546 -88.88 0.994546 -88.88 0.103760 -179.3
8.75145000 0.103910 -178.5 0.994530 -88.89 0.994530 -88.89 0.103910 -179.3
8.75150000 0.104060 -178.6 0.994514 -88.90 0.994514 -88.90 0.104060 -179.3
8.75155000 0.104210 -178.6 0.994498 -88.91 0.994498 -88.91 0.104211 -179.3
8.75160000 0.104361 -178.6 0.994482 -88.92 0.994482 -88.92 0.104362 -179.3
8.75165000 0.104513 -178.6 0.994466 -88.92 0.994466 -88.92 0.104513 -179.3
8.75170000 0.104664 -178.6 0.994450 -88.93 0.994450 -88.93 0.104664 -179.3
8.75175000 0.104816 -178.6 0.994434 -88.94 0.994434 -88.94 0.104816 -179.4
8.75180000 0.104968 -178.6 0.994418 -88.95 0.994418 -88.95 0.104968 -179.4
8.75185000 0.105121 -178.6 0.994402 -88.96 0.994402 -88.96 0.105121 -179.4
8.75190000 0.105273 -178.6 0.994385 -88.97 0.994385 -88.97 0.105274 -179.4
8.75195000 0.105427 -178.6 0.994369 -88.98 0.994369 -88.98 0.105427 -179.4
8.75200000 0.105580 -178.6 0.994353 -88.99 0.994353 -88.99 0.105580 -179.4
8.75205000 0.105734 -178.7 0.994336 -89.00 0.994336 -89.00 0.105734 -179.4
8.75210000 0.105888 -178.7 0.994320 -89.01 0.994320 -89.01 0.105888 -179.4
8.75215000 0.106042 -178.7 0.994303 -89.02 0.994303 -89.02 0.106042 -179.4
8.75220000 0.106197 -178.7 0.994286 -89.03 0.994286 -89.03 0.106197 -179.4
8.75225000 0.106352 -178.7 0.994270 -89.04 0.994270 -89.04 0.106352 -179.4
8.75230000 0.106507 -178.7 0.994253 -89.05 0.994253 -89.05 0.106508 -179.5
8.75235000 0.106663 -178.7 0.994236 -89.06 0.994236 -89.06 0.106663 -179.5
8.75240000 0.106819 -178.7 0.994219 -89.06 0.994219 -89.06 0.106819 -179.5
8.75245000 0.106975 -178.7 0.994202 -89.07 0.994202 -89.07 0.106976 -179.5
8.75250000 0.107132 -178.7 0.994185 -89.08 0.994185 -89.08 0.107132 -179.5
8.75255000 0.107289 -178.7 0.994168 -89.09 0.994168 -89.09 0.107289 -179.5
8.75260000 0.107446 -178.8 0.994151 -89.10 0.994151 -89.10 0.107447 -179.5
8.75265000 0.107604 -178.8 0.994134 -89.11 0.994134 -89.11 0.107604 -179.5
8.75270000 0.107762 -178.8 0.994117 -89.12 0.994117 -89.12 0.107762 -179.5
8.75275000 0.107920 -178.8 0.994100 -89.13 0.994100 -89.13 0.107921 -179.5
8.75280000 0.108079 -178.8 0.994082 -89.14 0.994082 -89.14 0.108079 -179.5
8.75285000 0.108238 -178.8 0.994065 -89.15 0.994065 -89.15 0.108238 -179.6
8.75290000 0.108397 -178.8 0.994047 -89.16 0.994047 -89.16 0.108397 -179.6
8.75295000 0.108557 -178.8 0.994030 -89.17 0.994030 -89.17 0.108557 -179.6
8.75300000 0.108717 -178.8 0.994012 -89.18 0.994012 -89.18 0.108717 -179.6
8.75305000 0.108877 -178.8 0.993994 -89.19 0.993994 -89.19 0.108877 -179.6
8.75310000 0.109038 -178.9 0.993977 -89.20 0.993977 -89.20 0.109038 -179.6
8.75315000 0.109199 -178.9 0.993959 -89.21 0.993959 -89.21 0.109199 -179.6
8.75320000 0.109360 -178.9 0.993941 -89.22 0.993941 -89.22 0.109361 -179.6
8.75325000 0.109522 -178.9 0.993923 -89.23 0.993923 -89.23 0.109522 -179.6
8.75330000 0.109684 -178.9 0.993905 -89.24 0.993905 -89.24 0.109684 -179.6
8.75335000 0.109847 -178.9 0.993887 -89.25 0.993887 -89.25 0.109847 -179.7
8.75340000 0.110009 -178.9 0.993869 -89.26 0.993869 -89.26 0.110009 -179.7
8.75345000 0.110172 -178.9 0.993851 -89.27 0.993851 -89.27 0.110173 -179.7
8.75350000 0.110336 -178.9 0.993832 -89.28 0.993832 -89.28 0.110336 -179.7
8.75355000 0.110500 -178.9 0.993814 -89.29 0.993814 -89.29 0.110500 -179.7
8.75360000 0.110664 -179.0 0.993796 -89.30 0.993796 -89.30 0.110664 -179.7
8.75365000 0.110828 -179.0 0.993777 -89.31 0.993777 -89.31 0.110828 -179.7
8.75370000 0.110993 -179.0 0.993759 -89.32 0.993759 -89.32 0.110993 -179.7
8.75375000 0.111158 -179.0 0.993740 -89.33 0.993740 -89.33 0.111158 -179.7
8.75380000 0.111324 -179.0 0.993722 -89.34 0.993722 -89.34 0.111324 -179.7
8.75385000 0.111490 -179.0 0.993703 -89.35 0.993703 -89.35 0.111490 -179.8
8.75390000 0.111656 -179.0 0.993684 -89.36 0.993684 -89.36 0.111656 -179.8
8.75395000 0.111823 -179.0 0.993665 -89.37 0.993665 -89.37 0.111823 -179.8
8.75400000 0.111990 -179.0 0.993646 -89.38 0.993646 -89.38 0.111990 -179.8
8.75405000 0.112157 -179.0 0.993627 -89.39 0.993627 -89.39 0.112157 -179.8
8.75410000 0.112325 -179.1 0.993608 -89.40 0.993608 -89.40 0.112325 -179.8
8.75415000 0.112493 -179.1 0.993589 -89.41 0.993589 -89.41 0.112493 -179.8
8.75420000 0.112661 -179.1 0.993570 -89.42 0.993570 -89.42 0.112661 -179.8
8.75425000 0.112830 -179.1 0.993550 -89.43 0.993550 -89.43 0.112830 -179.8
8.75430000 0.112999 -179.1 0.993531 -89.44 0.993531 -89.44 0.112999 -179.8
8.75435000 0.113169 -179.1 0.993512 -89.45 0.993512 -89.45 0.113169 -179.9
8.75440000 0.113339 -179.1 0.993492 -89.46 0.993492 -89.46 0.113339 -179.9
8.75445000 0.113509 -179.1 0.993473 -89.47 0.993473 -89.47 0.113509 -179.9
8.75450000 0.113680 -179.1 0.993453 -89.48 0.993453 -89.48 0.113680 -179.9
8.75455000 0.113851 -179.2 0.993433 -89.49 0.993433 -89.49 0.113851 -179.9
8.75460000 0.114022 -179.2 0.993413 -89.50 0.993413 -89.50 0.114022 -179.9
8.75465000 0.114194 -179.2 0.993394 -89.51 0.993394 -89.51 0.114194 -179.9
8.75470000 0.114366 -179.2 0.993374 -89.52 0.993374 -89.52 0.114366 -179.9
8.75475000 0.114538 -179.2 0.993354 -89.53 0.993354 -89.53 0.114539 -179.9
8.75480000 0.114711 -179.2 0.993334 -89.54 0.993334 -89.54 0.114711 -179.9
8.75485000 0.114885 -179.2 0.993313 -89.55 0.993313 -89.55 0.114885 -180.0
8.75490000 0.115058 -179.2 0.993293 -89.56 0.993293 -89.56 0.115058 -180.0
8.75495000 0.115232 -179.2 0.993273 -89.57 0.993273 -89.57 0.115232 -180.0
8.75500000 0.115407 -179.2 0.993252 -89.58 0.993252 -89.58 0.115407 -180.0
8.75505000 0.115582 -179.3 0.993232 -89.59 0.993232 -89.59 0.115582 -180.0
8.75510000 0.115757 -179.3 0.993211 -89.61 0.993211 -89.61 0.115757 179.99
8.75515000 0.115932 -179.3 0.993191 -89.62 0.993191 -89.62 0.115933 179.98
8.75520000 0.116108 -179.3 0.993170 -89.63 0.993170 -89.63 0.116108 179.97
8.75525000 0.116285 -179.3 0.993149 -89.64 0.993149 -89.64 0.116285 179.96
8.75530000 0.116461 -179.3 0.993128 -89.65 0.993128 -89.65 0.116462 179.95
8.75535000 0.116639 -179.3 0.993108 -89.66 0.993108 -89.66 0.116639 179.94
8.75540000 0.116816 -179.3 0.993087 -89.67 0.993087 -89.67 0.116816 179.93
8.75545000 0.116994 -179.3 0.993065 -89.68 0.993065 -89.68 0.116994 179.92
8.75550000 0.117172 -179.4 0.993044 -89.69 0.993044 -89.69 0.117173 179.91
8.75555000 0.117351 -179.4 0.993023 -89.70 0.993023 -89.70 0.117351 179.90
8.75560000 0.117530 -179.4 0.993002 -89.71 0.993002 -89.71 0.117531 179.89
8.75565000 0.117710 -179.4 0.992980 -89.72 0.992980 -89.72 0.117710 179.87
8.75570000 0.117890 -179.4 0.992959 -89.73 0.992959 -89.73 0.117890 179.86
8.75575000 0.118070 -179.4 0.992937 -89.74 0.992937 -89.74 0.118070 179.85
8.75580000 0.118251 -179.4 0.992916 -89.76 0.992916 -89.76 0.118251 179.84
8.75585000 0.118432 -179.4 0.992894 -89.77 0.992894 -89.77 0.118432 179.83
8.75590000 0.118614 -179.4 0.992872 -89.78 0.992872 -89.78 0.118614 179.82
8.75595000 0.118796 -179.5 0.992850 -89.79 0.992850 -89.79 0.118796 179.81
8.75600000 0.118978 -179.5 0.992828 -89.80 0.992828 -89.80 0.118978 179.80
8.75605000 0.119161 -179.5 0.992806 -89.81 0.992806 -89.81 0.119161 179.79
8.75610000 0.119344 -179.5 0.992784 -89.82 0.992784 -89.82 0.119344 179.78
8.75615000 0.119528 -179.5 0.992762 -89.83 0.992762 -89.83 0.119528 179.77
8.75620000 0.119712 -179.5 0.992739 -89.84 0.992739 -89.84 0.119712 179.75
8.75625000 0.119896 -179.5 0.992717 -89.85 0.992717 -89.85 0.119896 179.74
8.75630000 0.120081 -179.5 0.992694 -89.87 0.992694 -89.87 0.120081 179.73
8.75635000 0.120266 -179.5 0.992672 -89.88 0.992672 -89.88 0.120266 179.72
8.75640000 0.120452 -179.6 0.992649 -89.89 0.992649 -89.89 0.120452 179.71
8.75645000 0.120638 -179.6 0.992626 -89.90 0.992626 -89.90 0.120638 179.70
8.75650000 0.120825 -179.6 0.992604 -89.91 0.992604 -89.91 0.120825 179.69
8.75655000 0.121012 -179.6 0.992581 -89.92 0.992581 -89.92 0.121012 179.68
8.75660000 0.121199 -179.6 0.992558 -89.93 0.992558 -89.93 0.121199 179.67
8.75665000 0.121387 -179.6 0.992534 -89.94 0.992534 -89.94 0.121387 179.65
8.75670000 0.121575 -179.6 0.992511 -89.96 0.992511 -89.96 0.121575 179.64
8.75675000 0.121764 -179.6 0.992488 -89.97 0.992488 -89.97 0.121764 179.63
8.75680000 0.121953 -179.6 0.992465 -89.98 0.992465 -89.98 0.121953 179.62
8.75685000 0.122143 -179.7 0.992441 -89.99 0.992441 -89.99 0.122143 179.61
8.75690000 0.122333 -179.7 0.992418 -90.00 0.992418 -90.00 0.122333 179.60
8.75695000 0.122523 -179.7 0.992394 -90.01 0.992394 -90.01 0.122523 179.59
8.75700000 0.122714 -179.7 0.992370 -90.02 0.992370 -90.02 0.122714 179.57
8.75705000 0.122905 -179.7 0.992346 -90.04 0.992346 -90.04 0.122905 179.56
8.75710000 0.123097 -179.7 0.992322 -90.05 0.992322 -90.05 0.123097 179.55
8.75715000 0.123289 -179.7 0.992298 -90.06 0.992298 -90.06 0.123289 179.54
8.75720000 0.123482 -179.7 0.992274 -90.07 0.992274 -90.07 0.123482 179.53
8.75725000 0.123675 -179.7 0.992250 -90.08 0.992250 -90.08 0.123675 179.52
8.75730000 0.123869 -179.8 0.992226 -90.09 0.992226 -90.09 0.123869 179.51
8.75735000 0.124063 -179.8 0.992201 -90.11 0.992201 -90.11 0.124063 179.49
8.75740000 0.124257 -179.8 0.992177 -90.12 0.992177 -90.12 0.124257 179.48
8.75745000 0.124452 -179.8 0.992152 -90.13 0.992152 -90.13 0.124452 179.47
8.75750000 0.124647 -179.8 0.992128 -90.14 0.992128 -90.14 0.124647 179.46
8.75755000 0.124843 -179.8 0.992103 -90.15 0.992103 -90.15 0.124843 179.45
8.75760000 0.125039 -179.8 0.992078 -90.16 0.992078 -90.16 0.125039 179.44
8.75765000 0.125236 -179.8 0.992053 -90.18 0.992053 -90.18 0.125236 179.42
8.75770000 0.125433 -179.9 0.992028 -90.19 0.992028 -90.19 0.125433 179.41
8.75775000 0.125631 -179.9 0.992003 -90.20 0.992003 -90.20 0.125631 179.40
8.75780000 0.125829 -179.9 0.991977 -90.21 0.991977 -90.21 0.125829 179.39
8.75785000 0.126028 -179.9 0.991952 -90.22 0.991952 -90.22 0.126028 179.38
8.75790000 0.126227 -179.9 0.991927 -90.24 0.991927 -90.24 0.126227 179.36
8.75795000 0.126426 -179.9 0.991901 -90.25 0.991901 -90.25 0.126426 179.35
8.75800000 0.126626 -179.9 0.991875 -90.26 0.991875 -90.26 0.126626 179.34
8.75805000 0.126826 -179.9 0.991849 -90.27 0.991849 -90.27 0.126827 179.33
8.75810000 0.127027 -180.0 0.991824 -90.28 0.991824 -90.28 0.127028 179.32
8.75815000 0.127229 -180.0 0.991798 -90.30 0.991798 -90.30 0.127229 179.30
8.75820000 0.127431 -180.0 0.991772 -90.31 0.991772 -90.31 0.127431 179.29
8.75825000 0.127633 -180.0 0.991745 -90.32 0.991745 -90.32 0.127633 179.28
8.75830000 0.127836 180.00 0.991719 -90.33 0.991719 -90.33 0.127836 179.27
8.75835000 0.128039 179.99 0.991693 -90.34 0.991693 -90.34 0.128039 179.26
8.75840000 0.128243 179.97 0.991666 -90.36 0.991666 -90.36 0.128243 179.24
8.75845000 0.128447 179.96 0.991639 -90.37 0.991639 -90.37 0.128447 179.23
8.75850000 0.128652 179.95 0.991613 -90.38 0.991613 -90.38 0.128652 179.22
8.75855000 0.128857 179.94 0.991586 -90.39 0.991586 -90.39 0.128857 179.21
8.75860000 0.129063 179.92 0.991559 -90.41 0.991559 -90.41 0.129063 179.20
8.75865000 0.129269 179.91 0.991532 -90.42 0.991532 -90.42 0.129269 179.18
8.75870000 0.129476 179.90 0.991505 -90.43 0.991505 -90.43 0.129476 179.17
8.75875000 0.129683 179.89 0.991478 -90.44 0.991478 -90.44 0.129683 179.16
8.75880000 0.129891 179.87 0.991450 -90.46 0.991450 -90.46 0.129891 179.15
8.75885000 0.130099 179.86 0.991423 -90.47 0.991423 -90.47 0.130099 179.13
8.75890000 0.130308 179.85 0.991395 -90.48 0.991395 -90.48 0.130308 179.12
8.75895000 0.130517 179.84 0.991367 -90.49 0.991367 -90.49 0.130517 179.11
8.75900000 0.130727 179.82 0.991340 -90.51 0.991340 -90.51 0.130727 179.10
8.75905000 0.130937 179.81 0.991312 -90.52 0.991312 -90.52 0.130937 179.08
8.75910000 0.131148 179.80 0.991284 -90.53 0.991284 -90.53 0.131148 179.07
8.75915000 0.131359 179.79 0.991255 -90.54 0.991255 -90.54 0.131359 179.06
8.75920000 0.131571 179.77 0.991227 -90.56 0.991227 -90.56 0.131571 179.05
8.75925000 0.131783 179.76 0.991199 -90.57 0.991199 -90.57 0.131783 179.03
8.75930000 0.131996 179.75 0.991170 -90.58 0.991170 -90.58 0.131996 179.02
8.75935000 0.132209 179.73 0.991142 -90.60 0.991142 -90.60 0.132209 179.01
8.75940000 0.132423 179.72 0.991113 -90.61 0.991113 -90.61 0.132423 178.99
8.75945000 0.132637 179.71 0.991084 -90.62 0.991084 -90.62 0.132638 178.98
8.75950000 0.132852 179.69 0.991055 -90.63 0.991055 -90.63 0.132852 178.97
8.75955000 0.133068 179.68 0.991026 -90.65 0.991026 -90.65 0.133068 178.96
8.75960000 0.133284 179.67 0.990997 -90.66 0.990997 -90.66 0.133284 178.94
8.75965000 0.133500 179.66 0.990967 -90.67 0.990967 -90.67 0.133500 178.93
8.75970000 0.133717 179.64 0.990938 -90.69 0.990938 -90.69 0.133717 178.92
8.75975000 0.133934 179.63 0.990908 -90.70 0.990908 -90.70 0.133935 178.90
8.75980000 0.134153 179.62 0.990879 -90.71 0.990879 -90.71 0.134153 178.89
8.75985000 0.134371 179.60 0.990849 -90.72 0.990849 -90.72 0.134371 178.88
8.75990000 0.134590 179.59 0.990819 -90.74 0.990819 -90.74 0.134590 178.87
8.75995000 0.134810 179.58 0.990789 -90.75 0.990789 -90.75 0.134810 178.85
8.76000000 0.135030 179.56 0.990759 -90.76 0.990759 -90.76 0.135030 178.84
8.76005000 0.135251 179.55 0.990728 -90.78 0.990728 -90.78 0.135251 178.83
8.76010000 0.135472 179.54 0.990698 -90.79 0.990698 -90.79 0.135472 178.81
8.76015000 0.135694 179.52 0.990667 -90.80 0.990667 -90.80 0.135694 178.80
8.76020000 0.135916 179.51 0.990637 -90.82 0.990637 -90.82 0.135916 178.79
8.76025000 0.136139 179.50 0.990606 -90.83 0.990606 -90.83 0.136139 178.77
8.76030000 0.136363 179.48 0.990575 -90.84 0.990575 -90.84 0.136363 178.76
8.76035000 0.136587 179.47 0.990544 -90.86 0.990544 -90.86 0.136587 178.75
8.76040000 0.136811 179.46 0.990513 -90.87 0.990513 -90.87 0.136812 178.73
8.76045000 0.137037 179.44 0.990481 -90.88 0.990481 -90.88 0.137037 178.72
8.76050000 0.137262 179.43 0.990450 -90.90 0.990450 -90.90 0.137262 178.71
8.76055000 0.137489 179.41 0.990418 -90.91 0.990418 -90.91 0.137489 178.69
8.76060000 0.137715 179.40 0.990387 -90.93 0.990387 -90.93 0.137716 178.68
8.76065000 0.137943 179.39 0.990355 -90.94 0.990355 -90.94 0.137943 178.67
8.76070000 0.138171 179.37 0.990323 -90.95 0.990323 -90.95 0.138171 178.65
8.76075000 0.138399 179.36 0.990291 -90.97 0.990291 -90.97 0.138400 178.64
8.76080000 0.138628 179.35 0.990258 -90.98 0.990258 -90.98 0.138629 178.62
8.76085000 0.138858 179.33 0.990226 -90.99 0.990226 -90.99 0.138858 178.61
8.76090000 0.139088 179.32 0.990193 -91.01 0.990193 -91.01 0.139089 178.60
8.76095000 0.139319 179.30 0.990161 -91.02 0.990161 -91.02 0.139320 178.58
8.76100000 0.139551 179.29 0.990128 -91.04 0.990128 -91.04 0.139551 178.57
8.76105000 0.139783 179.28 0.990095 -91.05 0.990095 -91.05 0.139783 178.56
8.76110000 0.140015 179.26 0.990062 -91.06 0.990062 -91.06 0.140016 178.54
8.76115000 0.140249 179.25 0.990029 -91.08 0.990029 -91.08 0.140249 178.53
8.76120000 0.140482 179.23 0.989995 -91.09 0.989995 -91.09 0.140483 178.51
8.76125000 0.140717 179.22 0.989962 -91.11 0.989962 -91.11 0.140717 178.50
8.76130000 0.140952 179.21 0.989928 -91.12 0.989928 -91.12 0.140952 178.49
8.76135000 0.141187 179.19 0.989894 -91.13 0.989894 -91.13 0.141188 178.47
8.76140000 0.141424 179.18 0.989861 -91.15 0.989861 -91.15 0.141424 178.46
8.76145000 0.141660 179.16 0.989826 -91.16 0.989826 -91.16 0.141661 178.44
8.76150000 0.141898 179.15 0.989792 -91.18 0.989792 -91.18 0.141898 178.43
8.76155000 0.142136 179.13 0.989758 -91.19 0.989758 -91.19 0.142136 178.41
8.76160000 0.142375 179.12 0.989723 -91.20 0.989723 -91.20 0.142375 178.40
8.76165000 0.142614 179.11 0.989689 -91.22 0.989689 -91.22 0.142614 178.39
8.76170000 0.142854 179.09 0.989654 -91.23 0.989654 -91.23 0.142854 178.37
8.76175000 0.143094 179.08 0.989619 -91.25 0.989619 -91.25 0.143094 178.36
8.76180000 0.143335 179.06 0.989584 -91.26 0.989584 -91.26 0.143335 178.34
8.76185000 0.143577 179.05 0.989548 -91.28 0.989548 -91.28 0.143577 178.33
8.76190000 0.143819 179.03 0.989513 -91.29 0.989513 -91.29 0.143819 178.31
8.76195000 0.144062 179.02 0.989477 -91.31 0.989477 -91.31 0.144062 178.30
8.76200000 0.144306 179.00 0.989442 -91.32 0.989442 -91.32 0.144306 178.29
8.76205000 0.144550 178.99 0.989406 -91.33 0.989406 -91.33 0.144550 178.27
8.76210000 0.144795 178.97 0.989370 -91.35 0.989370 -91.35 0.144795 178.26
8.76215000 0.145040 178.96 0.989334 -91.36 0.989334 -91.36 0.145040 178.24
8.76220000 0.145286 178.94 0.989297 -91.38 0.989297 -91.38 0.145287 178.23
8.76225000 0.145533 178.93 0.989261 -91.39 0.989261 -91.39 0.145533 178.21
8.76230000 0.145781 178.91 0.989224 -91.41 0.989224 -91.41 0.145781 178.20
8.76235000 0.146029 178.90 0.989187 -91.42 0.989187 -91.42 0.146029 178.18
8.76240000 0.146277 178.88 0.989150 -91.44 0.989150 -91.44 0.146277 178.17
8.76245000 0.146527 178.87 0.989113 -91.45 0.989113 -91.45 0.146527 178.15
8.76250000 0.146777 178.85 0.989076 -91.47 0.989076 -91.47 0.146777 178.14
8.76255000 0.147027 178.84 0.989038 -91.48 0.989038 -91.48 0.147027 178.12
8.76260000 0.147279 178.82 0.989001 -91.50 0.989001 -91.50 0.147279 178.11
8.76265000 0.147531 178.81 0.988963 -91.51 0.988963 -91.51 0.147531 178.09
8.76270000 0.147783 178.79 0.988925 -91.53 0.988925 -91.53 0.147783 178.08
8.76275000 0.148036 178.78 0.988887 -91.54 0.988887 -91.54 0.148037 178.06
8.76280000 0.148290 178.76 0.988849 -91.56 0.988849 -91.56 0.148291 178.05
8.76285000 0.148545 178.75 0.988810 -91.57 0.988810 -91.57 0.148545 178.03
8.76290000 0.148800 178.73 0.988771 -91.59 0.988771 -91.59 0.148801 178.02
8.76295000 0.149056 178.72 0.988733 -91.60 0.988733 -91.60 0.149057 178.00
