! Sonnet Data File
! From: emgraph Version : 16.52
! From Project: transmon_trial2
! Data is De-embedded 
! Data File Written: 10/20/2017 11:33:10
!< HDATE 10/20/2017 10:41:42
!< MDATE 10/20/2017 10:41:42
!< PARAMS
!< Lj = 15.24
!< Gap = 6.0
!< Width = 40.0
!< Airgap = 24.0
!< Pwidth = 2000.0
!< END PARAMS
# GHZ S MA R 43.50000
8.70000000 0.027330 -160.4 0.999614 -70.32 0.999614 -70.32 0.027330 -160.2
!< P1 F=8.7 Eeff=(4.81555861 -6.2189e-5) Z0=(43.3296017 -1.7655e-4) R=0.0 C=0.0 
!< P2 F=8.7 Eeff=(4.81555861 -6.2189e-5) Z0=(43.3296017 -1.7655e-4) R=0.0 C=0.0 
8.70010000 0.027355 -160.4 0.999614 -70.32 0.999614 -70.32 0.027355 -160.2
8.70020000 0.027381 -160.4 0.999613 -70.32 0.999613 -70.32 0.027381 -160.2
8.70030000 0.027407 -160.4 0.999612 -70.32 0.999612 -70.32 0.027407 -160.2
8.70040000 0.027432 -160.4 0.999612 -70.33 0.999612 -70.33 0.027432 -160.2
8.70050000 0.027458 -160.4 0.999611 -70.33 0.999611 -70.33 0.027458 -160.2
8.70060000 0.027484 -160.4 0.999610 -70.33 0.999610 -70.33 0.027484 -160.2
8.70070000 0.027510 -160.4 0.999609 -70.33 0.999609 -70.33 0.027510 -160.2
8.70080000 0.027535 -160.4 0.999609 -70.34 0.999609 -70.34 0.027535 -160.2
8.70090000 0.027561 -160.4 0.999608 -70.34 0.999608 -70.34 0.027561 -160.2
8.70100000 0.027587 -160.4 0.999607 -70.34 0.999607 -70.34 0.027587 -160.2
8.70110000 0.027613 -160.5 0.999607 -70.34 0.999607 -70.34 0.027613 -160.2
8.70120000 0.027639 -160.5 0.999606 -70.34 0.999606 -70.34 0.027639 -160.2
8.70130000 0.027665 -160.5 0.999605 -70.35 0.999605 -70.35 0.027665 -160.2
8.70140000 0.027692 -160.5 0.999604 -70.35 0.999604 -70.35 0.027691 -160.2
8.70150000 0.027718 -160.5 0.999604 -70.35 0.999604 -70.35 0.027718 -160.2
8.70160000 0.027744 -160.5 0.999603 -70.35 0.999603 -70.35 0.027744 -160.2
8.70170000 0.027770 -160.5 0.999602 -70.36 0.999602 -70.36 0.027770 -160.2
8.70180000 0.027797 -160.5 0.999601 -70.36 0.999601 -70.36 0.027797 -160.3
8.70190000 0.027823 -160.5 0.999601 -70.36 0.999601 -70.36 0.027823 -160.3
8.70200000 0.027849 -160.5 0.999600 -70.36 0.999600 -70.36 0.027849 -160.3
8.70210000 0.027876 -160.5 0.999599 -70.37 0.999599 -70.37 0.027876 -160.3
8.70220000 0.027902 -160.5 0.999598 -70.37 0.999598 -70.37 0.027902 -160.3
8.70230000 0.027929 -160.5 0.999598 -70.37 0.999598 -70.37 0.027929 -160.3
8.70240000 0.027956 -160.5 0.999597 -70.37 0.999597 -70.37 0.027956 -160.3
8.70250000 0.027982 -160.5 0.999596 -70.37 0.999596 -70.37 0.027982 -160.3
8.70260000 0.028009 -160.5 0.999595 -70.38 0.999595 -70.38 0.028009 -160.3
8.70270000 0.028036 -160.5 0.999595 -70.38 0.999595 -70.38 0.028036 -160.3
8.70280000 0.028063 -160.5 0.999594 -70.38 0.999594 -70.38 0.028063 -160.3
8.70290000 0.028090 -160.5 0.999593 -70.38 0.999593 -70.38 0.028090 -160.3
8.70300000 0.028117 -160.5 0.999592 -70.39 0.999592 -70.39 0.028117 -160.3
8.70310000 0.028144 -160.5 0.999592 -70.39 0.999592 -70.39 0.028144 -160.3
8.70320000 0.028171 -160.5 0.999591 -70.39 0.999591 -70.39 0.028171 -160.3
8.70330000 0.028198 -160.5 0.999590 -70.39 0.999590 -70.39 0.028198 -160.3
8.70340000 0.028225 -160.5 0.999589 -70.40 0.999589 -70.40 0.028225 -160.3
8.70350000 0.028252 -160.5 0.999588 -70.40 0.999588 -70.40 0.028252 -160.3
8.70360000 0.028280 -160.5 0.999588 -70.40 0.999588 -70.40 0.028280 -160.3
8.70370000 0.028307 -160.5 0.999587 -70.40 0.999587 -70.40 0.028307 -160.3
8.70380000 0.028334 -160.5 0.999586 -70.41 0.999586 -70.41 0.028334 -160.3
8.70390000 0.028362 -160.5 0.999585 -70.41 0.999585 -70.41 0.028362 -160.3
8.70400000 0.028389 -160.5 0.999585 -70.41 0.999585 -70.41 0.028389 -160.3
8.70410000 0.028417 -160.5 0.999584 -70.41 0.999584 -70.41 0.028417 -160.3
8.70420000 0.028444 -160.5 0.999583 -70.41 0.999583 -70.41 0.028444 -160.3
8.70430000 0.028472 -160.5 0.999582 -70.42 0.999582 -70.42 0.028472 -160.3
8.70440000 0.028500 -160.5 0.999581 -70.42 0.999581 -70.42 0.028500 -160.3
8.70450000 0.028527 -160.5 0.999581 -70.42 0.999581 -70.42 0.028527 -160.3
8.70460000 0.028555 -160.5 0.999580 -70.42 0.999580 -70.42 0.028555 -160.3
8.70470000 0.028583 -160.5 0.999579 -70.43 0.999579 -70.43 0.028583 -160.3
8.70480000 0.028611 -160.5 0.999578 -70.43 0.999578 -70.43 0.028611 -160.3
8.70490000 0.028639 -160.5 0.999577 -70.43 0.999577 -70.43 0.028639 -160.3
8.70500000 0.028667 -160.5 0.999577 -70.43 0.999577 -70.43 0.028667 -160.3
8.70510000 0.028695 -160.5 0.999576 -70.44 0.999576 -70.44 0.028695 -160.3
8.70520000 0.028723 -160.5 0.999575 -70.44 0.999575 -70.44 0.028723 -160.3
8.70530000 0.028751 -160.5 0.999574 -70.44 0.999574 -70.44 0.028751 -160.3
8.70540000 0.028780 -160.5 0.999573 -70.44 0.999573 -70.44 0.028780 -160.3
8.70550000 0.028808 -160.5 0.999572 -70.45 0.999572 -70.45 0.028808 -160.3
8.70560000 0.028836 -160.5 0.999572 -70.45 0.999572 -70.45 0.028836 -160.4
8.70570000 0.028865 -160.5 0.999571 -70.45 0.999571 -70.45 0.028865 -160.4
8.70580000 0.028893 -160.6 0.999570 -70.45 0.999570 -70.45 0.028893 -160.4
8.70590000 0.028922 -160.6 0.999569 -70.46 0.999569 -70.46 0.028922 -160.4
8.70600000 0.028950 -160.6 0.999568 -70.46 0.999568 -70.46 0.028950 -160.4
8.70610000 0.028979 -160.6 0.999567 -70.46 0.999567 -70.46 0.028979 -160.4
8.70620000 0.029008 -160.6 0.999567 -70.46 0.999567 -70.46 0.029008 -160.4
8.70630000 0.029037 -160.6 0.999566 -70.47 0.999566 -70.47 0.029037 -160.4
8.70640000 0.029065 -160.6 0.999565 -70.47 0.999565 -70.47 0.029065 -160.4
8.70650000 0.029094 -160.6 0.999564 -70.47 0.999564 -70.47 0.029094 -160.4
8.70660000 0.029123 -160.6 0.999563 -70.47 0.999563 -70.47 0.029123 -160.4
8.70670000 0.029152 -160.6 0.999562 -70.47 0.999562 -70.47 0.029152 -160.4
8.70680000 0.029181 -160.6 0.999561 -70.48 0.999561 -70.48 0.029181 -160.4
8.70690000 0.029210 -160.6 0.999561 -70.48 0.999561 -70.48 0.029210 -160.4
8.70700000 0.029240 -160.6 0.999560 -70.48 0.999560 -70.48 0.029240 -160.4
8.70710000 0.029269 -160.6 0.999559 -70.48 0.999559 -70.48 0.029269 -160.4
8.70720000 0.029298 -160.6 0.999558 -70.49 0.999558 -70.49 0.029298 -160.4
8.70730000 0.029327 -160.6 0.999557 -70.49 0.999557 -70.49 0.029327 -160.4
8.70740000 0.029357 -160.6 0.999556 -70.49 0.999556 -70.49 0.029357 -160.4
8.70750000 0.029386 -160.6 0.999555 -70.49 0.999555 -70.49 0.029386 -160.4
8.70760000 0.029416 -160.6 0.999554 -70.50 0.999554 -70.50 0.029416 -160.4
8.70770000 0.029445 -160.6 0.999554 -70.50 0.999554 -70.50 0.029445 -160.4
8.70780000 0.029475 -160.6 0.999553 -70.50 0.999553 -70.50 0.029475 -160.4
8.70790000 0.029505 -160.6 0.999552 -70.50 0.999552 -70.50 0.029505 -160.4
8.70800000 0.029535 -160.6 0.999551 -70.51 0.999551 -70.51 0.029535 -160.4
8.70810000 0.029564 -160.6 0.999550 -70.51 0.999550 -70.51 0.029564 -160.4
8.70820000 0.029594 -160.6 0.999549 -70.51 0.999549 -70.51 0.029594 -160.4
8.70830000 0.029624 -160.6 0.999548 -70.51 0.999548 -70.51 0.029624 -160.4
8.70840000 0.029654 -160.6 0.999547 -70.52 0.999547 -70.52 0.029654 -160.4
8.70850000 0.029684 -160.6 0.999546 -70.52 0.999546 -70.52 0.029684 -160.4
8.70860000 0.029714 -160.6 0.999546 -70.52 0.999546 -70.52 0.029714 -160.4
8.70870000 0.029745 -160.6 0.999545 -70.52 0.999545 -70.52 0.029745 -160.4
8.70880000 0.029775 -160.6 0.999544 -70.53 0.999544 -70.53 0.029775 -160.4
8.70890000 0.029805 -160.6 0.999543 -70.53 0.999543 -70.53 0.029805 -160.4
8.70900000 0.029836 -160.6 0.999542 -70.53 0.999542 -70.53 0.029836 -160.4
8.70910000 0.029866 -160.6 0.999541 -70.53 0.999541 -70.53 0.029866 -160.4
8.70920000 0.029897 -160.6 0.999540 -70.54 0.999540 -70.54 0.029897 -160.5
8.70930000 0.029927 -160.6 0.999539 -70.54 0.999539 -70.54 0.029927 -160.5
8.70940000 0.029958 -160.6 0.999538 -70.54 0.999538 -70.54 0.029958 -160.5
8.70950000 0.029988 -160.6 0.999537 -70.55 0.999537 -70.55 0.029988 -160.5
8.70960000 0.030019 -160.6 0.999536 -70.55 0.999536 -70.55 0.030019 -160.5
8.70970000 0.030050 -160.6 0.999535 -70.55 0.999535 -70.55 0.030050 -160.5
8.70980000 0.030081 -160.6 0.999534 -70.55 0.999534 -70.55 0.030081 -160.5
8.70990000 0.030112 -160.6 0.999533 -70.56 0.999533 -70.56 0.030112 -160.5
8.71000000 0.030143 -160.6 0.999533 -70.56 0.999533 -70.56 0.030143 -160.5
8.71010000 0.030174 -160.6 0.999532 -70.56 0.999532 -70.56 0.030174 -160.5
8.71020000 0.030205 -160.7 0.999531 -70.56 0.999531 -70.56 0.030205 -160.5
8.71030000 0.030236 -160.7 0.999530 -70.57 0.999530 -70.57 0.030236 -160.5
8.71040000 0.030268 -160.7 0.999529 -70.57 0.999529 -70.57 0.030268 -160.5
8.71050000 0.030299 -160.7 0.999528 -70.57 0.999528 -70.57 0.030299 -160.5
8.71060000 0.030330 -160.7 0.999527 -70.57 0.999527 -70.57 0.030330 -160.5
8.71070000 0.030362 -160.7 0.999526 -70.58 0.999526 -70.58 0.030362 -160.5
8.71080000 0.030393 -160.7 0.999525 -70.58 0.999525 -70.58 0.030393 -160.5
8.71090000 0.030425 -160.7 0.999524 -70.58 0.999524 -70.58 0.030425 -160.5
8.71100000 0.030457 -160.7 0.999523 -70.58 0.999523 -70.58 0.030457 -160.5
8.71110000 0.030488 -160.7 0.999522 -70.59 0.999522 -70.59 0.030488 -160.5
8.71120000 0.030520 -160.7 0.999521 -70.59 0.999521 -70.59 0.030520 -160.5
8.71130000 0.030552 -160.7 0.999520 -70.59 0.999520 -70.59 0.030552 -160.5
8.71140000 0.030584 -160.7 0.999519 -70.59 0.999519 -70.59 0.030584 -160.5
8.71150000 0.030616 -160.7 0.999518 -70.60 0.999518 -70.60 0.030616 -160.5
8.71160000 0.030648 -160.7 0.999517 -70.60 0.999517 -70.60 0.030648 -160.5
8.71170000 0.030680 -160.7 0.999516 -70.60 0.999516 -70.60 0.030680 -160.5
8.71180000 0.030712 -160.7 0.999515 -70.60 0.999515 -70.60 0.030712 -160.5
8.71190000 0.030745 -160.7 0.999514 -70.61 0.999514 -70.61 0.030745 -160.5
8.71200000 0.030777 -160.7 0.999513 -70.61 0.999513 -70.61 0.030777 -160.5
8.71210000 0.030810 -160.7 0.999512 -70.61 0.999512 -70.61 0.030810 -160.5
8.71220000 0.030842 -160.7 0.999511 -70.62 0.999511 -70.62 0.030842 -160.5
8.71230000 0.030875 -160.7 0.999510 -70.62 0.999510 -70.62 0.030875 -160.5
8.71240000 0.030907 -160.7 0.999509 -70.62 0.999509 -70.62 0.030907 -160.5
8.71250000 0.030940 -160.7 0.999508 -70.62 0.999508 -70.62 0.030940 -160.5
8.71260000 0.030973 -160.7 0.999507 -70.63 0.999507 -70.63 0.030973 -160.5
8.71270000 0.031005 -160.7 0.999506 -70.63 0.999506 -70.63 0.031005 -160.6
8.71280000 0.031038 -160.7 0.999505 -70.63 0.999505 -70.63 0.031038 -160.6
8.71290000 0.031071 -160.7 0.999504 -70.63 0.999504 -70.63 0.031071 -160.6
8.71300000 0.031104 -160.7 0.999503 -70.64 0.999503 -70.64 0.031104 -160.6
8.71310000 0.031138 -160.7 0.999502 -70.64 0.999502 -70.64 0.031138 -160.6
8.71320000 0.031171 -160.7 0.999501 -70.64 0.999501 -70.64 0.031171 -160.6
8.71330000 0.031204 -160.7 0.999500 -70.64 0.999500 -70.64 0.031204 -160.6
8.71340000 0.031237 -160.7 0.999499 -70.65 0.999499 -70.65 0.031237 -160.6
8.71350000 0.031271 -160.7 0.999497 -70.65 0.999497 -70.65 0.031271 -160.6
8.71360000 0.031304 -160.7 0.999496 -70.65 0.999496 -70.65 0.031304 -160.6
8.71370000 0.031338 -160.7 0.999495 -70.66 0.999495 -70.66 0.031338 -160.6
8.71380000 0.031371 -160.7 0.999494 -70.66 0.999494 -70.66 0.031371 -160.6
8.71390000 0.031405 -160.7 0.999493 -70.66 0.999493 -70.66 0.031405 -160.6
8.71400000 0.031439 -160.7 0.999492 -70.66 0.999492 -70.66 0.031439 -160.6
8.71410000 0.031473 -160.7 0.999491 -70.67 0.999491 -70.67 0.031473 -160.6
8.71420000 0.031507 -160.7 0.999490 -70.67 0.999490 -70.67 0.031507 -160.6
8.71430000 0.031541 -160.8 0.999489 -70.67 0.999489 -70.67 0.031541 -160.6
8.71440000 0.031575 -160.8 0.999488 -70.67 0.999488 -70.67 0.031575 -160.6
8.71450000 0.031609 -160.8 0.999487 -70.68 0.999487 -70.68 0.031609 -160.6
8.71460000 0.031643 -160.8 0.999486 -70.68 0.999486 -70.68 0.031643 -160.6
8.71470000 0.031677 -160.8 0.999485 -70.68 0.999485 -70.68 0.031677 -160.6
8.71480000 0.031712 -160.8 0.999483 -70.69 0.999483 -70.69 0.031712 -160.6
8.71490000 0.031746 -160.8 0.999482 -70.69 0.999482 -70.69 0.031746 -160.6
8.71500000 0.031781 -160.8 0.999481 -70.69 0.999481 -70.69 0.031781 -160.6
8.71510000 0.031815 -160.8 0.999480 -70.69 0.999480 -70.69 0.031815 -160.6
8.71520000 0.031850 -160.8 0.999479 -70.70 0.999479 -70.70 0.031850 -160.6
8.71530000 0.031885 -160.8 0.999478 -70.70 0.999478 -70.70 0.031885 -160.6
8.71540000 0.031919 -160.8 0.999477 -70.70 0.999477 -70.70 0.031919 -160.6
8.71550000 0.031954 -160.8 0.999476 -70.71 0.999476 -70.71 0.031954 -160.6
8.71560000 0.031989 -160.8 0.999474 -70.71 0.999474 -70.71 0.031989 -160.6
8.71570000 0.032024 -160.8 0.999473 -70.71 0.999473 -70.71 0.032024 -160.6
8.71580000 0.032059 -160.8 0.999472 -70.71 0.999472 -70.71 0.032059 -160.6
8.71590000 0.032095 -160.8 0.999471 -70.72 0.999471 -70.72 0.032095 -160.6
8.71600000 0.032130 -160.8 0.999470 -70.72 0.999470 -70.72 0.032130 -160.6
8.71610000 0.032165 -160.8 0.999469 -70.72 0.999469 -70.72 0.032165 -160.7
8.71620000 0.032201 -160.8 0.999468 -70.72 0.999468 -70.72 0.032201 -160.7
8.71630000 0.032236 -160.8 0.999466 -70.73 0.999466 -70.73 0.032236 -160.7
8.71640000 0.032272 -160.8 0.999465 -70.73 0.999465 -70.73 0.032272 -160.7
8.71650000 0.032308 -160.8 0.999464 -70.73 0.999464 -70.73 0.032308 -160.7
8.71660000 0.032343 -160.8 0.999463 -70.74 0.999463 -70.74 0.032343 -160.7
8.71670000 0.032379 -160.8 0.999462 -70.74 0.999462 -70.74 0.032379 -160.7
8.71680000 0.032415 -160.8 0.999461 -70.74 0.999461 -70.74 0.032415 -160.7
8.71690000 0.032451 -160.8 0.999459 -70.74 0.999459 -70.74 0.032451 -160.7
8.71700000 0.032487 -160.8 0.999458 -70.75 0.999458 -70.75 0.032487 -160.7
8.71710000 0.032523 -160.8 0.999457 -70.75 0.999457 -70.75 0.032523 -160.7
8.71720000 0.032560 -160.8 0.999456 -70.75 0.999456 -70.75 0.032560 -160.7
8.71730000 0.032596 -160.8 0.999455 -70.76 0.999455 -70.76 0.032596 -160.7
8.71740000 0.032632 -160.8 0.999453 -70.76 0.999453 -70.76 0.032632 -160.7
8.71750000 0.032669 -160.8 0.999452 -70.76 0.999452 -70.76 0.032669 -160.7
8.71760000 0.032705 -160.8 0.999451 -70.76 0.999451 -70.76 0.032705 -160.7
8.71770000 0.032742 -160.8 0.999450 -70.77 0.999450 -70.77 0.032742 -160.7
8.71780000 0.032779 -160.8 0.999449 -70.77 0.999449 -70.77 0.032779 -160.7
8.71790000 0.032816 -160.8 0.999447 -70.77 0.999447 -70.77 0.032816 -160.7
8.71800000 0.032853 -160.8 0.999446 -70.78 0.999446 -70.78 0.032853 -160.7
8.71810000 0.032890 -160.9 0.999445 -70.78 0.999445 -70.78 0.032890 -160.7
8.71820000 0.032927 -160.9 0.999444 -70.78 0.999444 -70.78 0.032927 -160.7
8.71830000 0.032964 -160.9 0.999442 -70.79 0.999442 -70.79 0.032964 -160.7
8.71840000 0.033001 -160.9 0.999441 -70.79 0.999441 -70.79 0.033001 -160.7
8.71850000 0.033038 -160.9 0.999440 -70.79 0.999440 -70.79 0.033038 -160.7
8.71860000 0.033076 -160.9 0.999439 -70.79 0.999439 -70.79 0.033076 -160.7
8.71870000 0.033113 -160.9 0.999437 -70.80 0.999437 -70.80 0.033113 -160.7
8.71880000 0.033151 -160.9 0.999436 -70.80 0.999436 -70.80 0.033151 -160.7
8.71890000 0.033188 -160.9 0.999435 -70.80 0.999435 -70.80 0.033188 -160.7
8.71900000 0.033226 -160.9 0.999434 -70.81 0.999434 -70.81 0.033226 -160.7
8.71910000 0.033264 -160.9 0.999432 -70.81 0.999432 -70.81 0.033264 -160.7
8.71920000 0.033302 -160.9 0.999431 -70.81 0.999431 -70.81 0.033302 -160.8
8.71930000 0.033340 -160.9 0.999430 -70.81 0.999430 -70.81 0.033340 -160.8
8.71940000 0.033378 -160.9 0.999428 -70.82 0.999428 -70.82 0.033378 -160.8
8.71950000 0.033416 -160.9 0.999427 -70.82 0.999427 -70.82 0.033416 -160.8
8.71960000 0.033455 -160.9 0.999426 -70.82 0.999426 -70.82 0.033455 -160.8
8.71970000 0.033493 -160.9 0.999425 -70.83 0.999425 -70.83 0.033493 -160.8
8.71980000 0.033531 -160.9 0.999423 -70.83 0.999423 -70.83 0.033531 -160.8
8.71990000 0.033570 -160.9 0.999422 -70.83 0.999422 -70.83 0.033570 -160.8
8.72000000 0.033609 -160.9 0.999421 -70.84 0.999421 -70.84 0.033609 -160.8
8.72010000 0.033647 -160.9 0.999419 -70.84 0.999419 -70.84 0.033647 -160.8
8.72020000 0.033686 -160.9 0.999418 -70.84 0.999418 -70.84 0.033686 -160.8
8.72030000 0.033725 -160.9 0.999417 -70.84 0.999417 -70.84 0.033725 -160.8
8.72040000 0.033764 -160.9 0.999415 -70.85 0.999415 -70.85 0.033764 -160.8
8.72050000 0.033803 -160.9 0.999414 -70.85 0.999414 -70.85 0.033803 -160.8
8.72060000 0.033842 -160.9 0.999413 -70.85 0.999413 -70.85 0.033842 -160.8
8.72070000 0.033882 -160.9 0.999411 -70.86 0.999411 -70.86 0.033882 -160.8
8.72080000 0.033921 -160.9 0.999410 -70.86 0.999410 -70.86 0.033921 -160.8
8.72090000 0.033961 -160.9 0.999409 -70.86 0.999409 -70.86 0.033961 -160.8
8.72100000 0.034000 -160.9 0.999407 -70.87 0.999407 -70.87 0.034000 -160.8
8.72110000 0.034040 -160.9 0.999406 -70.87 0.999406 -70.87 0.034040 -160.8
8.72120000 0.034079 -160.9 0.999405 -70.87 0.999405 -70.87 0.034080 -160.8
8.72130000 0.034119 -160.9 0.999403 -70.88 0.999403 -70.88 0.034119 -160.8
8.72140000 0.034159 -160.9 0.999402 -70.88 0.999402 -70.88 0.034159 -160.8
8.72150000 0.034199 -160.9 0.999400 -70.88 0.999400 -70.88 0.034199 -160.8
8.72160000 0.034239 -160.9 0.999399 -70.88 0.999399 -70.88 0.034239 -160.8
8.72170000 0.034280 -160.9 0.999398 -70.89 0.999398 -70.89 0.034280 -160.8
8.72180000 0.034320 -161.0 0.999396 -70.89 0.999396 -70.89 0.034320 -160.8
8.72190000 0.034360 -161.0 0.999395 -70.89 0.999395 -70.89 0.034360 -160.8
8.72200000 0.034401 -161.0 0.999393 -70.90 0.999393 -70.90 0.034401 -160.8
8.72210000 0.034441 -161.0 0.999392 -70.90 0.999392 -70.90 0.034441 -160.8
8.72220000 0.034482 -161.0 0.999391 -70.90 0.999391 -70.90 0.034482 -160.9
8.72230000 0.034523 -161.0 0.999389 -70.91 0.999389 -70.91 0.034523 -160.9
8.72240000 0.034564 -161.0 0.999388 -70.91 0.999388 -70.91 0.034564 -160.9
8.72250000 0.034605 -161.0 0.999386 -70.91 0.999386 -70.91 0.034605 -160.9
8.72260000 0.034646 -161.0 0.999385 -70.92 0.999385 -70.92 0.034646 -160.9
8.72270000 0.034687 -161.0 0.999383 -70.92 0.999383 -70.92 0.034687 -160.9
8.72280000 0.034728 -161.0 0.999382 -70.92 0.999382 -70.92 0.034728 -160.9
8.72290000 0.034770 -161.0 0.999380 -70.93 0.999380 -70.93 0.034770 -160.9
8.72300000 0.034811 -161.0 0.999379 -70.93 0.999379 -70.93 0.034811 -160.9
8.72310000 0.034853 -161.0 0.999378 -70.93 0.999378 -70.93 0.034853 -160.9
8.72320000 0.034895 -161.0 0.999376 -70.93 0.999376 -70.93 0.034895 -160.9
8.72330000 0.034936 -161.0 0.999375 -70.94 0.999375 -70.94 0.034936 -160.9
8.72340000 0.034978 -161.0 0.999373 -70.94 0.999373 -70.94 0.034978 -160.9
8.72350000 0.035020 -161.0 0.999372 -70.94 0.999372 -70.94 0.035020 -160.9
8.72360000 0.035062 -161.0 0.999370 -70.95 0.999370 -70.95 0.035062 -160.9
8.72370000 0.035105 -161.0 0.999369 -70.95 0.999369 -70.95 0.035105 -160.9
8.72380000 0.035147 -161.0 0.999367 -70.95 0.999367 -70.95 0.035147 -160.9
8.72390000 0.035189 -161.0 0.999366 -70.96 0.999366 -70.96 0.035189 -160.9
8.72400000 0.035232 -161.0 0.999364 -70.96 0.999364 -70.96 0.035232 -160.9
8.72410000 0.035274 -161.0 0.999363 -70.96 0.999363 -70.96 0.035274 -160.9
8.72420000 0.035317 -161.0 0.999361 -70.97 0.999361 -70.97 0.035317 -160.9
8.72430000 0.035360 -161.0 0.999360 -70.97 0.999360 -70.97 0.035360 -160.9
8.72440000 0.035403 -161.0 0.999358 -70.97 0.999358 -70.97 0.035403 -160.9
8.72450000 0.035446 -161.0 0.999356 -70.98 0.999356 -70.98 0.035446 -160.9
8.72460000 0.035489 -161.0 0.999355 -70.98 0.999355 -70.98 0.035489 -160.9
8.72470000 0.035532 -161.0 0.999353 -70.98 0.999353 -70.98 0.035532 -160.9
8.72480000 0.035576 -161.0 0.999352 -70.99 0.999352 -70.99 0.035576 -160.9
8.72490000 0.035619 -161.0 0.999350 -70.99 0.999350 -70.99 0.035619 -160.9
8.72500000 0.035663 -161.0 0.999349 -70.99 0.999349 -70.99 0.035663 -160.9
8.72510000 0.035706 -161.1 0.999347 -71.00 0.999347 -71.00 0.035706 -161.0
8.72520000 0.035750 -161.1 0.999346 -71.00 0.999346 -71.00 0.035750 -161.0
8.72530000 0.035794 -161.1 0.999344 -71.00 0.999344 -71.00 0.035794 -161.0
8.72540000 0.035838 -161.1 0.999342 -71.01 0.999342 -71.01 0.035838 -161.0
8.72550000 0.035882 -161.1 0.999341 -71.01 0.999341 -71.01 0.035882 -161.0
8.72560000 0.035926 -161.1 0.999339 -71.01 0.999339 -71.01 0.035926 -161.0
8.72570000 0.035971 -161.1 0.999337 -71.02 0.999337 -71.02 0.035971 -161.0
8.72580000 0.036015 -161.1 0.999336 -71.02 0.999336 -71.02 0.036015 -161.0
8.72590000 0.036060 -161.1 0.999334 -71.02 0.999334 -71.02 0.036060 -161.0
