! Sonnet Data File
! From: emgraph Version : 16.52
! From Project: transmon_trial2
! Data is De-embedded 
! Data File Written: 10/20/2017 10:41:09
!< HDATE 10/20/2017 09:51:02
!< MDATE 10/20/2017 09:51:02
!< PARAMS
!< Lj = 15.24
!< Gap = 6.0
!< Width = 30.0
!< Airgap = 18.0
!< Pwidth = 2000.0
!< END PARAMS
# GHZ S MA R 41.17000
8.70000000 0.021211 -160.9 0.999763 -70.92 0.999763 -70.92 0.021211 -160.9
!< P1 F=8.7 Eeff=(4.89554446 -6.0516e-5) Z0=(41.1855282 -1.5157e-4) R=0.0 C=0.0 
!< P2 F=8.7 Eeff=(4.89554446 -6.0516e-5) Z0=(41.1855282 -1.5157e-4) R=0.0 C=0.0 
8.70010000 0.021237 -160.9 0.999763 -70.92 0.999763 -70.92 0.021237 -160.9
8.70020000 0.021263 -160.9 0.999762 -70.92 0.999762 -70.92 0.021263 -160.9
8.70030000 0.021289 -160.9 0.999761 -70.92 0.999761 -70.92 0.021289 -161.0
8.70040000 0.021315 -160.9 0.999761 -70.93 0.999761 -70.93 0.021315 -161.0
8.70050000 0.021341 -160.9 0.999760 -70.93 0.999760 -70.93 0.021341 -161.0
8.70060000 0.021367 -160.9 0.999760 -70.93 0.999760 -70.93 0.021367 -161.0
8.70070000 0.021393 -160.9 0.999759 -70.93 0.999759 -70.93 0.021393 -161.0
8.70080000 0.021419 -160.9 0.999759 -70.93 0.999759 -70.93 0.021419 -161.0
8.70090000 0.021446 -160.9 0.999758 -70.94 0.999758 -70.94 0.021446 -161.0
8.70100000 0.021472 -160.9 0.999757 -70.94 0.999757 -70.94 0.021472 -161.0
8.70110000 0.021498 -160.9 0.999757 -70.94 0.999757 -70.94 0.021498 -161.0
8.70120000 0.021525 -160.9 0.999756 -70.94 0.999756 -70.94 0.021525 -161.0
8.70130000 0.021551 -160.9 0.999756 -70.95 0.999756 -70.95 0.021551 -161.0
8.70140000 0.021578 -160.9 0.999755 -70.95 0.999755 -70.95 0.021578 -161.0
8.70150000 0.021604 -160.9 0.999755 -70.95 0.999755 -70.95 0.021604 -161.0
8.70160000 0.021631 -160.9 0.999754 -70.95 0.999754 -70.95 0.021631 -161.0
8.70170000 0.021658 -160.9 0.999753 -70.96 0.999753 -70.96 0.021658 -161.0
8.70180000 0.021684 -160.9 0.999753 -70.96 0.999753 -70.96 0.021684 -161.0
8.70190000 0.021711 -160.9 0.999752 -70.96 0.999752 -70.96 0.021711 -161.0
8.70200000 0.021738 -160.9 0.999752 -70.96 0.999752 -70.96 0.021738 -161.0
8.70210000 0.021765 -160.9 0.999751 -70.96 0.999751 -70.96 0.021765 -161.0
8.70220000 0.021792 -160.9 0.999750 -70.97 0.999750 -70.97 0.021792 -161.0
8.70230000 0.021819 -160.9 0.999750 -70.97 0.999750 -70.97 0.021819 -161.0
8.70240000 0.021846 -160.9 0.999749 -70.97 0.999749 -70.97 0.021846 -161.0
8.70250000 0.021873 -160.9 0.999749 -70.97 0.999749 -70.97 0.021873 -161.0
8.70260000 0.021900 -160.9 0.999748 -70.98 0.999748 -70.98 0.021900 -161.0
8.70270000 0.021927 -160.9 0.999747 -70.98 0.999747 -70.98 0.021927 -161.0
8.70280000 0.021955 -161.0 0.999747 -70.98 0.999747 -70.98 0.021955 -161.0
8.70290000 0.021982 -161.0 0.999746 -70.98 0.999746 -70.98 0.021982 -161.0
8.70300000 0.022009 -161.0 0.999746 -70.99 0.999746 -70.99 0.022009 -161.0
8.70310000 0.022037 -161.0 0.999745 -70.99 0.999745 -70.99 0.022037 -161.0
8.70320000 0.022064 -161.0 0.999744 -70.99 0.999744 -70.99 0.022064 -161.0
8.70330000 0.022092 -161.0 0.999744 -70.99 0.999744 -70.99 0.022092 -161.0
8.70340000 0.022119 -161.0 0.999743 -71.00 0.999743 -71.00 0.022119 -161.0
8.70350000 0.022147 -161.0 0.999743 -71.00 0.999743 -71.00 0.022147 -161.0
8.70360000 0.022175 -161.0 0.999742 -71.00 0.999742 -71.00 0.022175 -161.0
8.70370000 0.022202 -161.0 0.999741 -71.00 0.999741 -71.00 0.022202 -161.0
8.70380000 0.022230 -161.0 0.999741 -71.01 0.999741 -71.01 0.022230 -161.0
8.70390000 0.022258 -161.0 0.999740 -71.01 0.999740 -71.01 0.022258 -161.0
8.70400000 0.022286 -161.0 0.999739 -71.01 0.999739 -71.01 0.022286 -161.0
8.70410000 0.022314 -161.0 0.999739 -71.01 0.999739 -71.01 0.022314 -161.0
8.70420000 0.022342 -161.0 0.999738 -71.01 0.999738 -71.01 0.022342 -161.1
8.70430000 0.022370 -161.0 0.999737 -71.02 0.999737 -71.02 0.022370 -161.1
8.70440000 0.022398 -161.0 0.999737 -71.02 0.999737 -71.02 0.022398 -161.1
8.70450000 0.022426 -161.0 0.999736 -71.02 0.999736 -71.02 0.022426 -161.1
8.70460000 0.022455 -161.0 0.999736 -71.02 0.999736 -71.02 0.022454 -161.1
8.70470000 0.022483 -161.0 0.999735 -71.03 0.999735 -71.03 0.022483 -161.1
8.70480000 0.022511 -161.0 0.999734 -71.03 0.999734 -71.03 0.022511 -161.1
8.70490000 0.022540 -161.0 0.999734 -71.03 0.999734 -71.03 0.022540 -161.1
8.70500000 0.022568 -161.0 0.999733 -71.03 0.999733 -71.03 0.022568 -161.1
8.70510000 0.022597 -161.0 0.999732 -71.04 0.999732 -71.04 0.022597 -161.1
8.70520000 0.022625 -161.0 0.999732 -71.04 0.999732 -71.04 0.022625 -161.1
8.70530000 0.022654 -161.0 0.999731 -71.04 0.999731 -71.04 0.022654 -161.1
8.70540000 0.022682 -161.0 0.999730 -71.04 0.999730 -71.04 0.022682 -161.1
8.70550000 0.022711 -161.0 0.999730 -71.05 0.999730 -71.05 0.022711 -161.1
8.70560000 0.022740 -161.0 0.999729 -71.05 0.999729 -71.05 0.022740 -161.1
8.70570000 0.022769 -161.0 0.999728 -71.05 0.999728 -71.05 0.022769 -161.1
8.70580000 0.022798 -161.0 0.999728 -71.05 0.999728 -71.05 0.022798 -161.1
8.70590000 0.022827 -161.0 0.999727 -71.06 0.999727 -71.06 0.022827 -161.1
8.70600000 0.022856 -161.0 0.999726 -71.06 0.999726 -71.06 0.022856 -161.1
8.70610000 0.022885 -161.0 0.999726 -71.06 0.999726 -71.06 0.022885 -161.1
8.70620000 0.022914 -161.0 0.999725 -71.06 0.999725 -71.06 0.022914 -161.1
8.70630000 0.022943 -161.0 0.999724 -71.07 0.999724 -71.07 0.022943 -161.1
8.70640000 0.022973 -161.0 0.999724 -71.07 0.999724 -71.07 0.022972 -161.1
8.70650000 0.023002 -161.0 0.999723 -71.07 0.999723 -71.07 0.023002 -161.1
8.70660000 0.023031 -161.0 0.999722 -71.07 0.999722 -71.07 0.023031 -161.1
8.70670000 0.023061 -161.0 0.999722 -71.08 0.999722 -71.08 0.023061 -161.1
8.70680000 0.023090 -161.0 0.999721 -71.08 0.999721 -71.08 0.023090 -161.1
8.70690000 0.023120 -161.0 0.999720 -71.08 0.999720 -71.08 0.023120 -161.1
8.70700000 0.023149 -161.0 0.999719 -71.08 0.999719 -71.08 0.023149 -161.1
8.70710000 0.023179 -161.0 0.999719 -71.09 0.999719 -71.09 0.023179 -161.1
8.70720000 0.023209 -161.1 0.999718 -71.09 0.999718 -71.09 0.023209 -161.1
8.70730000 0.023239 -161.1 0.999717 -71.09 0.999717 -71.09 0.023239 -161.1
8.70740000 0.023269 -161.1 0.999717 -71.09 0.999717 -71.09 0.023268 -161.1
8.70750000 0.023298 -161.1 0.999716 -71.10 0.999716 -71.10 0.023298 -161.1
8.70760000 0.023328 -161.1 0.999715 -71.10 0.999715 -71.10 0.023328 -161.1
8.70770000 0.023359 -161.1 0.999714 -71.10 0.999714 -71.10 0.023358 -161.1
8.70780000 0.023389 -161.1 0.999714 -71.10 0.999714 -71.10 0.023389 -161.1
8.70790000 0.023419 -161.1 0.999713 -71.11 0.999713 -71.11 0.023419 -161.2
8.70800000 0.023449 -161.1 0.999712 -71.11 0.999712 -71.11 0.023449 -161.2
8.70810000 0.023479 -161.1 0.999712 -71.11 0.999712 -71.11 0.023479 -161.2
8.70820000 0.023510 -161.1 0.999711 -71.11 0.999711 -71.11 0.023510 -161.2
8.70830000 0.023540 -161.1 0.999710 -71.12 0.999710 -71.12 0.023540 -161.2
8.70840000 0.023571 -161.1 0.999709 -71.12 0.999709 -71.12 0.023571 -161.2
8.70850000 0.023601 -161.1 0.999709 -71.12 0.999709 -71.12 0.023601 -161.2
8.70860000 0.023632 -161.1 0.999708 -71.12 0.999708 -71.12 0.023632 -161.2
8.70870000 0.023663 -161.1 0.999707 -71.13 0.999707 -71.13 0.023662 -161.2
8.70880000 0.023693 -161.1 0.999706 -71.13 0.999706 -71.13 0.023693 -161.2
8.70890000 0.023724 -161.1 0.999706 -71.13 0.999706 -71.13 0.023724 -161.2
8.70900000 0.023755 -161.1 0.999705 -71.13 0.999705 -71.13 0.023755 -161.2
8.70910000 0.023786 -161.1 0.999704 -71.14 0.999704 -71.14 0.023786 -161.2
8.70920000 0.023817 -161.1 0.999704 -71.14 0.999704 -71.14 0.023817 -161.2
8.70930000 0.023848 -161.1 0.999703 -71.14 0.999703 -71.14 0.023848 -161.2
8.70940000 0.023879 -161.1 0.999702 -71.14 0.999702 -71.14 0.023879 -161.2
8.70950000 0.023910 -161.1 0.999701 -71.15 0.999701 -71.15 0.023910 -161.2
8.70960000 0.023942 -161.1 0.999700 -71.15 0.999700 -71.15 0.023941 -161.2
8.70970000 0.023973 -161.1 0.999700 -71.15 0.999700 -71.15 0.023973 -161.2
8.70980000 0.024004 -161.1 0.999699 -71.15 0.999699 -71.15 0.024004 -161.2
8.70990000 0.024036 -161.1 0.999698 -71.16 0.999698 -71.16 0.024036 -161.2
8.71000000 0.024067 -161.1 0.999697 -71.16 0.999697 -71.16 0.024067 -161.2
8.71010000 0.024099 -161.1 0.999697 -71.16 0.999697 -71.16 0.024099 -161.2
8.71020000 0.024130 -161.1 0.999696 -71.17 0.999696 -71.17 0.024130 -161.2
8.71030000 0.024162 -161.1 0.999695 -71.17 0.999695 -71.17 0.024162 -161.2
8.71040000 0.024194 -161.1 0.999694 -71.17 0.999694 -71.17 0.024194 -161.2
8.71050000 0.024226 -161.1 0.999694 -71.17 0.999694 -71.17 0.024226 -161.2
8.71060000 0.024258 -161.1 0.999693 -71.18 0.999693 -71.18 0.024258 -161.2
8.71070000 0.024290 -161.1 0.999692 -71.18 0.999692 -71.18 0.024290 -161.2
8.71080000 0.024322 -161.1 0.999691 -71.18 0.999691 -71.18 0.024322 -161.2
8.71090000 0.024354 -161.1 0.999690 -71.18 0.999690 -71.18 0.024354 -161.2
8.71100000 0.024386 -161.1 0.999690 -71.19 0.999690 -71.19 0.024386 -161.2
8.71110000 0.024418 -161.1 0.999689 -71.19 0.999689 -71.19 0.024418 -161.2
8.71120000 0.024451 -161.1 0.999688 -71.19 0.999688 -71.19 0.024451 -161.2
8.71130000 0.024483 -161.2 0.999687 -71.19 0.999687 -71.19 0.024483 -161.2
8.71140000 0.024516 -161.2 0.999686 -71.20 0.999686 -71.20 0.024515 -161.2
8.71150000 0.024548 -161.2 0.999686 -71.20 0.999686 -71.20 0.024548 -161.3
8.71160000 0.024581 -161.2 0.999685 -71.20 0.999685 -71.20 0.024581 -161.3
8.71170000 0.024613 -161.2 0.999684 -71.21 0.999684 -71.21 0.024613 -161.3
8.71180000 0.024646 -161.2 0.999683 -71.21 0.999683 -71.21 0.024646 -161.3
8.71190000 0.024679 -161.2 0.999682 -71.21 0.999682 -71.21 0.024679 -161.3
8.71200000 0.024712 -161.2 0.999681 -71.21 0.999681 -71.21 0.024712 -161.3
8.71210000 0.024745 -161.2 0.999681 -71.22 0.999681 -71.22 0.024745 -161.3
8.71220000 0.024778 -161.2 0.999680 -71.22 0.999680 -71.22 0.024778 -161.3
8.71230000 0.024811 -161.2 0.999679 -71.22 0.999679 -71.22 0.024811 -161.3
8.71240000 0.024844 -161.2 0.999678 -71.22 0.999678 -71.22 0.024844 -161.3
8.71250000 0.024877 -161.2 0.999677 -71.23 0.999677 -71.23 0.024877 -161.3
8.71260000 0.024911 -161.2 0.999676 -71.23 0.999676 -71.23 0.024911 -161.3
8.71270000 0.024944 -161.2 0.999676 -71.23 0.999676 -71.23 0.024944 -161.3
8.71280000 0.024977 -161.2 0.999675 -71.23 0.999675 -71.23 0.024977 -161.3
8.71290000 0.025011 -161.2 0.999674 -71.24 0.999674 -71.24 0.025011 -161.3
8.71300000 0.025045 -161.2 0.999673 -71.24 0.999673 -71.24 0.025045 -161.3
8.71310000 0.025078 -161.2 0.999672 -71.24 0.999672 -71.24 0.025078 -161.3
8.71320000 0.025112 -161.2 0.999671 -71.25 0.999671 -71.25 0.025112 -161.3
8.71330000 0.025146 -161.2 0.999670 -71.25 0.999670 -71.25 0.025146 -161.3
8.71340000 0.025180 -161.2 0.999670 -71.25 0.999670 -71.25 0.025180 -161.3
8.71350000 0.025214 -161.2 0.999669 -71.25 0.999669 -71.25 0.025214 -161.3
8.71360000 0.025248 -161.2 0.999668 -71.26 0.999668 -71.26 0.025248 -161.3
8.71370000 0.025282 -161.2 0.999667 -71.26 0.999667 -71.26 0.025282 -161.3
8.71380000 0.025316 -161.2 0.999666 -71.26 0.999666 -71.26 0.025316 -161.3
8.71390000 0.025350 -161.2 0.999665 -71.26 0.999665 -71.26 0.025350 -161.3
8.71400000 0.025385 -161.2 0.999664 -71.27 0.999664 -71.27 0.025385 -161.3
8.71410000 0.025419 -161.2 0.999663 -71.27 0.999663 -71.27 0.025419 -161.3
8.71420000 0.025454 -161.2 0.999663 -71.27 0.999663 -71.27 0.025454 -161.3
8.71430000 0.025488 -161.2 0.999662 -71.28 0.999662 -71.28 0.025488 -161.3
8.71440000 0.025523 -161.2 0.999661 -71.28 0.999661 -71.28 0.025523 -161.3
8.71450000 0.025558 -161.2 0.999660 -71.28 0.999660 -71.28 0.025557 -161.3
8.71460000 0.025592 -161.2 0.999659 -71.28 0.999659 -71.28 0.025592 -161.3
8.71470000 0.025627 -161.2 0.999658 -71.29 0.999658 -71.29 0.025627 -161.3
8.71480000 0.025662 -161.2 0.999657 -71.29 0.999657 -71.29 0.025662 -161.3
8.71490000 0.025697 -161.2 0.999656 -71.29 0.999656 -71.29 0.025697 -161.4
8.71500000 0.025732 -161.2 0.999655 -71.30 0.999655 -71.30 0.025732 -161.4
8.71510000 0.025767 -161.2 0.999654 -71.30 0.999654 -71.30 0.025767 -161.4
8.71520000 0.025803 -161.3 0.999653 -71.30 0.999653 -71.30 0.025803 -161.4
8.71530000 0.025838 -161.3 0.999653 -71.30 0.999653 -71.30 0.025838 -161.4
8.71540000 0.025873 -161.3 0.999652 -71.31 0.999652 -71.31 0.025873 -161.4
8.71550000 0.025909 -161.3 0.999651 -71.31 0.999651 -71.31 0.025909 -161.4
8.71560000 0.025945 -161.3 0.999650 -71.31 0.999650 -71.31 0.025944 -161.4
8.71570000 0.025980 -161.3 0.999649 -71.32 0.999649 -71.32 0.025980 -161.4
8.71580000 0.026016 -161.3 0.999648 -71.32 0.999648 -71.32 0.026016 -161.4
8.71590000 0.026052 -161.3 0.999647 -71.32 0.999647 -71.32 0.026052 -161.4
8.71600000 0.026088 -161.3 0.999646 -71.32 0.999646 -71.32 0.026088 -161.4
8.71610000 0.026124 -161.3 0.999645 -71.33 0.999645 -71.33 0.026124 -161.4
8.71620000 0.026160 -161.3 0.999644 -71.33 0.999644 -71.33 0.026160 -161.4
8.71630000 0.026196 -161.3 0.999643 -71.33 0.999643 -71.33 0.026196 -161.4
8.71640000 0.026232 -161.3 0.999642 -71.34 0.999642 -71.34 0.026232 -161.4
8.71650000 0.026268 -161.3 0.999641 -71.34 0.999641 -71.34 0.026268 -161.4
8.71660000 0.026305 -161.3 0.999640 -71.34 0.999640 -71.34 0.026305 -161.4
8.71670000 0.026341 -161.3 0.999639 -71.34 0.999639 -71.34 0.026341 -161.4
8.71680000 0.026378 -161.3 0.999638 -71.35 0.999638 -71.35 0.026378 -161.4
8.71690000 0.026414 -161.3 0.999637 -71.35 0.999637 -71.35 0.026414 -161.4
8.71700000 0.026451 -161.3 0.999636 -71.35 0.999636 -71.35 0.026451 -161.4
8.71710000 0.026488 -161.3 0.999635 -71.36 0.999635 -71.36 0.026488 -161.4
8.71720000 0.026525 -161.3 0.999634 -71.36 0.999634 -71.36 0.026525 -161.4
8.71730000 0.026562 -161.3 0.999633 -71.36 0.999633 -71.36 0.026562 -161.4
8.71740000 0.026599 -161.3 0.999632 -71.36 0.999632 -71.36 0.026599 -161.4
8.71750000 0.026636 -161.3 0.999631 -71.37 0.999631 -71.37 0.026636 -161.4
8.71760000 0.026673 -161.3 0.999630 -71.37 0.999630 -71.37 0.026673 -161.4
8.71770000 0.026710 -161.3 0.999629 -71.37 0.999629 -71.37 0.026710 -161.4
8.71780000 0.026748 -161.3 0.999628 -71.38 0.999628 -71.38 0.026748 -161.4
8.71790000 0.026785 -161.3 0.999627 -71.38 0.999627 -71.38 0.026785 -161.4
8.71800000 0.026823 -161.3 0.999626 -71.38 0.999626 -71.38 0.026823 -161.4
8.71810000 0.026861 -161.3 0.999625 -71.39 0.999625 -71.39 0.026860 -161.4
8.71820000 0.026898 -161.3 0.999624 -71.39 0.999624 -71.39 0.026898 -161.5
8.71830000 0.026936 -161.3 0.999623 -71.39 0.999623 -71.39 0.026936 -161.5
8.71840000 0.026974 -161.3 0.999622 -71.39 0.999622 -71.39 0.026974 -161.5
8.71850000 0.027012 -161.3 0.999621 -71.40 0.999621 -71.40 0.027012 -161.5
8.71860000 0.027050 -161.3 0.999620 -71.40 0.999620 -71.40 0.027050 -161.5
8.71870000 0.027088 -161.3 0.999619 -71.40 0.999619 -71.40 0.027088 -161.5
8.71880000 0.027126 -161.4 0.999618 -71.41 0.999618 -71.41 0.027126 -161.5
8.71890000 0.027165 -161.4 0.999617 -71.41 0.999617 -71.41 0.027165 -161.5
8.71900000 0.027203 -161.4 0.999616 -71.41 0.999616 -71.41 0.027203 -161.5
8.71910000 0.027242 -161.4 0.999615 -71.41 0.999615 -71.41 0.027242 -161.5
8.71920000 0.027280 -161.4 0.999614 -71.42 0.999614 -71.42 0.027280 -161.5
8.71930000 0.027319 -161.4 0.999613 -71.42 0.999613 -71.42 0.027319 -161.5
8.71940000 0.027358 -161.4 0.999611 -71.42 0.999611 -71.42 0.027358 -161.5
8.71950000 0.027397 -161.4 0.999610 -71.43 0.999610 -71.43 0.027397 -161.5
8.71960000 0.027436 -161.4 0.999609 -71.43 0.999609 -71.43 0.027436 -161.5
8.71970000 0.027475 -161.4 0.999608 -71.43 0.999608 -71.43 0.027475 -161.5
8.71980000 0.027514 -161.4 0.999607 -71.44 0.999607 -71.44 0.027514 -161.5
8.71990000 0.027553 -161.4 0.999606 -71.44 0.999606 -71.44 0.027553 -161.5
8.72000000 0.027593 -161.4 0.999605 -71.44 0.999605 -71.44 0.027592 -161.5
8.72010000 0.027632 -161.4 0.999604 -71.45 0.999604 -71.45 0.027632 -161.5
8.72020000 0.027672 -161.4 0.999603 -71.45 0.999603 -71.45 0.027671 -161.5
8.72030000 0.027711 -161.4 0.999602 -71.45 0.999602 -71.45 0.027711 -161.5
8.72040000 0.027751 -161.4 0.999601 -71.45 0.999601 -71.45 0.027751 -161.5
8.72050000 0.027791 -161.4 0.999599 -71.46 0.999599 -71.46 0.027791 -161.5
8.72060000 0.027831 -161.4 0.999598 -71.46 0.999598 -71.46 0.027831 -161.5
8.72070000 0.027871 -161.4 0.999597 -71.46 0.999597 -71.46 0.027870 -161.5
8.72080000 0.027911 -161.4 0.999596 -71.47 0.999596 -71.47 0.027911 -161.5
8.72090000 0.027951 -161.4 0.999595 -71.47 0.999595 -71.47 0.027951 -161.5
8.72100000 0.027991 -161.4 0.999594 -71.47 0.999594 -71.47 0.027991 -161.5
8.72110000 0.028032 -161.4 0.999593 -71.48 0.999593 -71.48 0.028031 -161.5
8.72120000 0.028072 -161.4 0.999591 -71.48 0.999591 -71.48 0.028072 -161.5
8.72130000 0.028113 -161.4 0.999590 -71.48 0.999590 -71.48 0.028112 -161.6
8.72140000 0.028153 -161.4 0.999589 -71.49 0.999589 -71.49 0.028153 -161.6
8.72150000 0.028194 -161.4 0.999588 -71.49 0.999588 -71.49 0.028194 -161.6
8.72160000 0.028235 -161.4 0.999587 -71.49 0.999587 -71.49 0.028235 -161.6
8.72170000 0.028276 -161.4 0.999586 -71.49 0.999586 -71.49 0.028276 -161.6
8.72180000 0.028317 -161.4 0.999584 -71.50 0.999584 -71.50 0.028317 -161.6
8.72190000 0.028358 -161.4 0.999583 -71.50 0.999583 -71.50 0.028358 -161.6
8.72200000 0.028399 -161.4 0.999582 -71.50 0.999582 -71.50 0.028399 -161.6
8.72210000 0.028441 -161.4 0.999581 -71.51 0.999581 -71.51 0.028441 -161.6
8.72220000 0.028482 -161.5 0.999580 -71.51 0.999580 -71.51 0.028482 -161.6
8.72230000 0.028524 -161.5 0.999578 -71.51 0.999578 -71.51 0.028524 -161.6
8.72240000 0.028565 -161.5 0.999577 -71.52 0.999577 -71.52 0.028565 -161.6
8.72250000 0.028607 -161.5 0.999576 -71.52 0.999576 -71.52 0.028607 -161.6
8.72260000 0.028649 -161.5 0.999575 -71.52 0.999575 -71.52 0.028649 -161.6
8.72270000 0.028691 -161.5 0.999574 -71.53 0.999574 -71.53 0.028691 -161.6
8.72280000 0.028733 -161.5 0.999572 -71.53 0.999572 -71.53 0.028733 -161.6
8.72290000 0.028775 -161.5 0.999571 -71.53 0.999571 -71.53 0.028775 -161.6
8.72300000 0.028817 -161.5 0.999570 -71.54 0.999570 -71.54 0.028817 -161.6
8.72310000 0.028860 -161.5 0.999569 -71.54 0.999569 -71.54 0.028860 -161.6
8.72320000 0.028902 -161.5 0.999567 -71.54 0.999567 -71.54 0.028902 -161.6
8.72330000 0.028945 -161.5 0.999566 -71.55 0.999566 -71.55 0.028945 -161.6
8.72340000 0.028988 -161.5 0.999565 -71.55 0.999565 -71.55 0.028987 -161.6
8.72350000 0.029030 -161.5 0.999564 -71.55 0.999564 -71.55 0.029030 -161.6
8.72360000 0.029073 -161.5 0.999562 -71.56 0.999562 -71.56 0.029073 -161.6
8.72370000 0.029116 -161.5 0.999561 -71.56 0.999561 -71.56 0.029116 -161.6
8.72380000 0.029159 -161.5 0.999560 -71.56 0.999560 -71.56 0.029159 -161.6
8.72390000 0.029202 -161.5 0.999559 -71.57 0.999559 -71.57 0.029202 -161.6
8.72400000 0.029246 -161.5 0.999557 -71.57 0.999557 -71.57 0.029246 -161.6
8.72410000 0.029289 -161.5 0.999556 -71.57 0.999556 -71.57 0.029289 -161.6
8.72420000 0.029333 -161.5 0.999555 -71.58 0.999555 -71.58 0.029333 -161.7
8.72430000 0.029376 -161.5 0.999553 -71.58 0.999553 -71.58 0.029376 -161.7
8.72440000 0.029420 -161.5 0.999552 -71.58 0.999552 -71.58 0.029420 -161.7
8.72450000 0.029464 -161.5 0.999551 -71.59 0.999551 -71.59 0.029464 -161.7
8.72460000 0.029508 -161.5 0.999549 -71.59 0.999549 -71.59 0.029508 -161.7
8.72470000 0.029552 -161.5 0.999548 -71.59 0.999548 -71.59 0.029552 -161.7
8.72480000 0.029596 -161.5 0.999547 -71.60 0.999547 -71.60 0.029596 -161.7
8.72490000 0.029641 -161.5 0.999545 -71.60 0.999545 -71.60 0.029640 -161.7
8.72500000 0.029685 -161.5 0.999544 -71.60 0.999544 -71.60 0.029685 -161.7
8.72510000 0.029729 -161.5 0.999543 -71.61 0.999543 -71.61 0.029729 -161.7
8.72520000 0.029774 -161.5 0.999541 -71.61 0.999541 -71.61 0.029774 -161.7
8.72530000 0.029819 -161.5 0.999540 -71.61 0.999540 -71.61 0.029819 -161.7
8.72540000 0.029864 -161.6 0.999539 -71.62 0.999539 -71.62 0.029864 -161.7
8.72550000 0.029909 -161.6 0.999537 -71.62 0.999537 -71.62 0.029908 -161.7
8.72560000 0.029954 -161.6 0.999536 -71.62 0.999536 -71.62 0.029954 -161.7
8.72570000 0.029999 -161.6 0.999535 -71.63 0.999535 -71.63 0.029999 -161.7
8.72580000 0.030044 -161.6 0.999533 -71.63 0.999533 -71.63 0.030044 -161.7
8.72590000 0.030090 -161.6 0.999532 -71.63 0.999532 -71.63 0.030089 -161.7
