! Sonnet Data File
! From: emgraph Version : 16.52
! From Project: Qubit_Test_beforeopt
! Data is De-embedded 
! Data File Written: 10/18/2017 20:39:12
!< HDATE 10/18/2017 18:14:34
!< MDATE 10/18/2017 18:14:34
!< PARAMS
!< Lj = 11.0
!< Gap = 26.0
!< Pwid = 2000.0
!< Airgap = 24.0
!< Width = 40.0
!< END PARAMS
# GHZ S MA R 51.80000
8.79000000 0.035825 -171.0 0.999337 -81.09 0.999337 -81.09 0.035825 -171.3
!< P1 F=8.79 Eeff=(6.4425964 -3.0761e-5) Z0=(50.47845 1.09247e-4) R=0.0 C=0.0 
!< P2 F=8.79 Eeff=(6.4425964 -3.0761e-5) Z0=(50.47845 1.09247e-4) R=0.0 C=0.0 
8.79001000 0.035835 -171.0 0.999337 -81.09 0.999337 -81.09 0.035834 -171.3
8.79002000 0.035844 -171.0 0.999337 -81.09 0.999337 -81.09 0.035843 -171.3
8.79003000 0.035854 -171.0 0.999336 -81.09 0.999336 -81.09 0.035853 -171.3
8.79004000 0.035863 -171.0 0.999336 -81.09 0.999336 -81.09 0.035862 -171.3
8.79005000 0.035872 -171.0 0.999336 -81.09 0.999336 -81.09 0.035872 -171.3
8.79006000 0.035882 -171.0 0.999335 -81.09 0.999335 -81.09 0.035881 -171.3
8.79007000 0.035891 -171.0 0.999335 -81.09 0.999335 -81.09 0.035891 -171.3
8.79008000 0.035901 -171.0 0.999334 -81.09 0.999334 -81.09 0.035900 -171.3
8.79009000 0.035910 -171.0 0.999334 -81.09 0.999334 -81.09 0.035910 -171.3
8.79010000 0.035920 -171.0 0.999334 -81.09 0.999334 -81.09 0.035919 -171.3
8.79011000 0.035929 -171.0 0.999333 -81.09 0.999333 -81.09 0.035929 -171.3
8.79012000 0.035939 -171.0 0.999333 -81.09 0.999333 -81.09 0.035938 -171.3
8.79013000 0.035949 -171.0 0.999333 -81.09 0.999333 -81.09 0.035948 -171.3
8.79014000 0.035958 -171.0 0.999332 -81.10 0.999332 -81.10 0.035957 -171.3
8.79015000 0.035968 -171.0 0.999332 -81.10 0.999332 -81.10 0.035967 -171.3
8.79016000 0.035977 -171.0 0.999331 -81.10 0.999331 -81.10 0.035977 -171.3
8.79017000 0.035987 -171.0 0.999331 -81.10 0.999331 -81.10 0.035986 -171.3
8.79018000 0.035997 -171.0 0.999331 -81.10 0.999331 -81.10 0.035996 -171.3
8.79019000 0.036006 -171.0 0.999330 -81.10 0.999330 -81.10 0.036006 -171.3
8.79020000 0.036016 -171.0 0.999330 -81.10 0.999330 -81.10 0.036015 -171.3
8.79021000 0.036026 -171.0 0.999330 -81.10 0.999330 -81.10 0.036025 -171.3
8.79022000 0.036035 -171.0 0.999329 -81.10 0.999329 -81.10 0.036035 -171.3
8.79023000 0.036045 -171.0 0.999329 -81.10 0.999329 -81.10 0.036044 -171.3
8.79024000 0.036055 -171.0 0.999328 -81.10 0.999328 -81.10 0.036054 -171.3
8.79025000 0.036065 -171.0 0.999328 -81.10 0.999328 -81.10 0.036064 -171.3
8.79026000 0.036074 -171.0 0.999328 -81.10 0.999328 -81.10 0.036074 -171.3
8.79027000 0.036084 -171.0 0.999327 -81.10 0.999327 -81.10 0.036083 -171.3
8.79028000 0.036094 -171.0 0.999327 -81.10 0.999327 -81.10 0.036093 -171.3
8.79029000 0.036104 -171.0 0.999326 -81.10 0.999326 -81.10 0.036103 -171.3
8.79030000 0.036114 -171.0 0.999326 -81.11 0.999326 -81.11 0.036113 -171.3
8.79031000 0.036123 -171.0 0.999326 -81.11 0.999326 -81.11 0.036123 -171.3
8.79032000 0.036133 -171.0 0.999325 -81.11 0.999325 -81.11 0.036133 -171.3
8.79033000 0.036143 -171.0 0.999325 -81.11 0.999325 -81.11 0.036142 -171.3
8.79034000 0.036153 -171.0 0.999325 -81.11 0.999325 -81.11 0.036152 -171.3
8.79035000 0.036163 -171.0 0.999324 -81.11 0.999324 -81.11 0.036162 -171.3
8.79036000 0.036173 -171.0 0.999324 -81.11 0.999324 -81.11 0.036172 -171.3
8.79037000 0.036183 -171.0 0.999323 -81.11 0.999323 -81.11 0.036182 -171.3
8.79038000 0.036193 -171.0 0.999323 -81.11 0.999323 -81.11 0.036192 -171.3
8.79039000 0.036203 -171.0 0.999323 -81.11 0.999323 -81.11 0.036202 -171.3
8.79040000 0.036213 -171.0 0.999322 -81.11 0.999322 -81.11 0.036212 -171.3
8.79041000 0.036223 -171.0 0.999322 -81.11 0.999322 -81.11 0.036222 -171.3
8.79042000 0.036233 -171.0 0.999321 -81.11 0.999321 -81.11 0.036232 -171.3
8.79043000 0.036243 -171.0 0.999321 -81.11 0.999321 -81.11 0.036242 -171.3
8.79044000 0.036253 -171.0 0.999321 -81.11 0.999321 -81.11 0.036252 -171.3
8.79045000 0.036263 -171.0 0.999320 -81.12 0.999320 -81.12 0.036262 -171.3
8.79046000 0.036273 -171.0 0.999320 -81.12 0.999320 -81.12 0.036272 -171.3
8.79047000 0.036283 -171.0 0.999319 -81.12 0.999319 -81.12 0.036283 -171.3
8.79048000 0.036293 -171.0 0.999319 -81.12 0.999319 -81.12 0.036293 -171.3
8.79049000 0.036304 -171.0 0.999319 -81.12 0.999319 -81.12 0.036303 -171.3
8.79050000 0.036314 -171.0 0.999318 -81.12 0.999318 -81.12 0.036313 -171.3
8.79051000 0.036324 -171.0 0.999318 -81.12 0.999318 -81.12 0.036323 -171.3
8.79052000 0.036334 -171.0 0.999317 -81.12 0.999317 -81.12 0.036333 -171.3
8.79053000 0.036344 -171.0 0.999317 -81.12 0.999317 -81.12 0.036344 -171.3
8.79054000 0.036355 -171.0 0.999317 -81.12 0.999317 -81.12 0.036354 -171.3
8.79055000 0.036365 -171.0 0.999316 -81.12 0.999316 -81.12 0.036364 -171.3
8.79056000 0.036375 -171.0 0.999316 -81.12 0.999316 -81.12 0.036374 -171.3
8.79057000 0.036385 -171.0 0.999315 -81.12 0.999315 -81.12 0.036385 -171.3
8.79058000 0.036396 -171.0 0.999315 -81.12 0.999315 -81.12 0.036395 -171.3
8.79059000 0.036406 -171.0 0.999315 -81.12 0.999315 -81.12 0.036405 -171.3
8.79060000 0.036416 -171.0 0.999314 -81.13 0.999314 -81.13 0.036416 -171.3
8.79061000 0.036427 -171.0 0.999314 -81.13 0.999314 -81.13 0.036426 -171.3
8.79062000 0.036437 -171.0 0.999313 -81.13 0.999313 -81.13 0.036436 -171.3
8.79063000 0.036448 -171.0 0.999313 -81.13 0.999313 -81.13 0.036447 -171.3
8.79064000 0.036458 -171.0 0.999313 -81.13 0.999313 -81.13 0.036457 -171.3
8.79065000 0.036468 -171.0 0.999312 -81.13 0.999312 -81.13 0.036468 -171.3
8.79066000 0.036479 -171.0 0.999312 -81.13 0.999312 -81.13 0.036478 -171.3
8.79067000 0.036489 -171.0 0.999311 -81.13 0.999311 -81.13 0.036489 -171.3
8.79068000 0.036500 -171.0 0.999311 -81.13 0.999311 -81.13 0.036499 -171.3
8.79069000 0.036510 -171.0 0.999310 -81.13 0.999310 -81.13 0.036510 -171.3
8.79070000 0.036521 -171.0 0.999310 -81.13 0.999310 -81.13 0.036520 -171.3
8.79071000 0.036531 -171.0 0.999310 -81.13 0.999310 -81.13 0.036531 -171.3
8.79072000 0.036542 -171.0 0.999309 -81.13 0.999309 -81.13 0.036541 -171.3
8.79073000 0.036553 -171.0 0.999309 -81.13 0.999309 -81.13 0.036552 -171.3
8.79074000 0.036563 -171.0 0.999308 -81.14 0.999308 -81.14 0.036562 -171.3
8.79075000 0.036574 -171.0 0.999308 -81.14 0.999308 -81.14 0.036573 -171.3
8.79076000 0.036584 -171.0 0.999307 -81.14 0.999307 -81.14 0.036584 -171.3
8.79077000 0.036595 -171.0 0.999307 -81.14 0.999307 -81.14 0.036594 -171.3
8.79078000 0.036606 -171.0 0.999307 -81.14 0.999307 -81.14 0.036605 -171.3
8.79079000 0.036616 -171.0 0.999306 -81.14 0.999306 -81.14 0.036616 -171.3
8.79080000 0.036627 -171.0 0.999306 -81.14 0.999306 -81.14 0.036626 -171.3
8.79081000 0.036638 -171.0 0.999305 -81.14 0.999305 -81.14 0.036637 -171.3
8.79082000 0.036649 -171.0 0.999305 -81.14 0.999305 -81.14 0.036648 -171.3
8.79083000 0.036659 -171.0 0.999305 -81.14 0.999305 -81.14 0.036658 -171.3
8.79084000 0.036670 -171.0 0.999304 -81.14 0.999304 -81.14 0.036669 -171.3
8.79085000 0.036681 -171.0 0.999304 -81.14 0.999304 -81.14 0.036680 -171.3
8.79086000 0.036692 -171.0 0.999303 -81.14 0.999303 -81.14 0.036691 -171.3
8.79087000 0.036703 -171.0 0.999303 -81.14 0.999303 -81.14 0.036702 -171.3
8.79088000 0.036713 -171.0 0.999302 -81.15 0.999302 -81.15 0.036713 -171.3
8.79089000 0.036724 -171.0 0.999302 -81.15 0.999302 -81.15 0.036723 -171.3
8.79090000 0.036735 -171.0 0.999301 -81.15 0.999301 -81.15 0.036734 -171.3
8.79091000 0.036746 -171.0 0.999301 -81.15 0.999301 -81.15 0.036745 -171.3
8.79092000 0.036757 -171.0 0.999301 -81.15 0.999301 -81.15 0.036756 -171.3
8.79093000 0.036768 -171.0 0.999300 -81.15 0.999300 -81.15 0.036767 -171.3
8.79094000 0.036779 -171.0 0.999300 -81.15 0.999300 -81.15 0.036778 -171.4
8.79095000 0.036790 -171.0 0.999299 -81.15 0.999299 -81.15 0.036789 -171.4
8.79096000 0.036801 -171.0 0.999299 -81.15 0.999299 -81.15 0.036800 -171.4
8.79097000 0.036812 -171.0 0.999298 -81.15 0.999298 -81.15 0.036811 -171.4
8.79098000 0.036823 -171.0 0.999298 -81.15 0.999298 -81.15 0.036822 -171.4
8.79099000 0.036834 -171.0 0.999298 -81.15 0.999298 -81.15 0.036833 -171.4
8.79100000 0.036845 -171.0 0.999297 -81.15 0.999297 -81.15 0.036844 -171.4
8.79101000 0.036856 -171.0 0.999297 -81.15 0.999297 -81.15 0.036855 -171.4
8.79102000 0.036867 -171.0 0.999296 -81.16 0.999296 -81.16 0.036866 -171.4
8.79103000 0.036878 -171.0 0.999296 -81.16 0.999296 -81.16 0.036878 -171.4
8.79104000 0.036890 -171.0 0.999295 -81.16 0.999295 -81.16 0.036889 -171.4
8.79105000 0.036901 -171.0 0.999295 -81.16 0.999295 -81.16 0.036900 -171.4
8.79106000 0.036912 -171.0 0.999294 -81.16 0.999294 -81.16 0.036911 -171.4
8.79107000 0.036923 -171.0 0.999294 -81.16 0.999294 -81.16 0.036922 -171.4
8.79108000 0.036934 -171.0 0.999293 -81.16 0.999293 -81.16 0.036934 -171.4
8.79109000 0.036946 -171.0 0.999293 -81.16 0.999293 -81.16 0.036945 -171.4
8.79110000 0.036957 -171.0 0.999293 -81.16 0.999293 -81.16 0.036956 -171.4
8.79111000 0.036968 -171.0 0.999292 -81.16 0.999292 -81.16 0.036967 -171.4
8.79112000 0.036980 -171.0 0.999292 -81.16 0.999292 -81.16 0.036979 -171.4
8.79113000 0.036991 -171.0 0.999291 -81.16 0.999291 -81.16 0.036990 -171.4
8.79114000 0.037002 -171.0 0.999291 -81.16 0.999291 -81.16 0.037001 -171.4
8.79115000 0.037014 -171.0 0.999290 -81.16 0.999290 -81.16 0.037013 -171.4
8.79116000 0.037025 -171.0 0.999290 -81.17 0.999290 -81.17 0.037024 -171.4
8.79117000 0.037037 -171.0 0.999289 -81.17 0.999289 -81.17 0.037036 -171.4
8.79118000 0.037048 -171.0 0.999289 -81.17 0.999289 -81.17 0.037047 -171.4
8.79119000 0.037059 -171.0 0.999288 -81.17 0.999288 -81.17 0.037059 -171.4
8.79120000 0.037071 -171.0 0.999288 -81.17 0.999288 -81.17 0.037070 -171.4
8.79121000 0.037082 -171.0 0.999288 -81.17 0.999288 -81.17 0.037082 -171.4
8.79122000 0.037094 -171.0 0.999287 -81.17 0.999287 -81.17 0.037093 -171.4
8.79123000 0.037106 -171.0 0.999287 -81.17 0.999287 -81.17 0.037105 -171.4
8.79124000 0.037117 -171.0 0.999286 -81.17 0.999286 -81.17 0.037116 -171.4
8.79125000 0.037129 -171.0 0.999286 -81.17 0.999286 -81.17 0.037128 -171.4
8.79126000 0.037140 -171.0 0.999285 -81.17 0.999285 -81.17 0.037139 -171.4
8.79127000 0.037152 -171.0 0.999285 -81.17 0.999285 -81.17 0.037151 -171.4
8.79128000 0.037164 -171.0 0.999284 -81.17 0.999284 -81.17 0.037163 -171.4
8.79129000 0.037175 -171.0 0.999284 -81.18 0.999284 -81.18 0.037174 -171.4
8.79130000 0.037187 -171.0 0.999283 -81.18 0.999283 -81.18 0.037186 -171.4
8.79131000 0.037199 -171.0 0.999283 -81.18 0.999283 -81.18 0.037198 -171.4
8.79132000 0.037210 -171.0 0.999282 -81.18 0.999282 -81.18 0.037210 -171.4
8.79133000 0.037222 -171.0 0.999282 -81.18 0.999282 -81.18 0.037221 -171.4
8.79134000 0.037234 -171.0 0.999281 -81.18 0.999281 -81.18 0.037233 -171.4
8.79135000 0.037246 -171.0 0.999281 -81.18 0.999281 -81.18 0.037245 -171.4
8.79136000 0.037258 -171.0 0.999280 -81.18 0.999280 -81.18 0.037257 -171.4
8.79137000 0.037269 -171.0 0.999280 -81.18 0.999280 -81.18 0.037269 -171.4
8.79138000 0.037281 -171.0 0.999279 -81.18 0.999279 -81.18 0.037280 -171.4
8.79139000 0.037293 -171.0 0.999279 -81.18 0.999279 -81.18 0.037292 -171.4
8.79140000 0.037305 -171.0 0.999278 -81.18 0.999278 -81.18 0.037304 -171.4
8.79141000 0.037317 -171.0 0.999278 -81.18 0.999278 -81.18 0.037316 -171.4
8.79142000 0.037329 -171.0 0.999278 -81.19 0.999278 -81.19 0.037328 -171.4
8.79143000 0.037341 -171.0 0.999277 -81.19 0.999277 -81.19 0.037340 -171.4
8.79144000 0.037353 -171.0 0.999277 -81.19 0.999277 -81.19 0.037352 -171.4
8.79145000 0.037365 -171.0 0.999276 -81.19 0.999276 -81.19 0.037364 -171.4
8.79146000 0.037377 -171.0 0.999276 -81.19 0.999276 -81.19 0.037376 -171.4
8.79147000 0.037389 -171.0 0.999275 -81.19 0.999275 -81.19 0.037388 -171.4
8.79148000 0.037401 -171.0 0.999275 -81.19 0.999275 -81.19 0.037400 -171.4
8.79149000 0.037413 -171.0 0.999274 -81.19 0.999274 -81.19 0.037412 -171.4
8.79150000 0.037425 -171.0 0.999274 -81.19 0.999274 -81.19 0.037424 -171.4
8.79151000 0.037437 -171.0 0.999273 -81.19 0.999273 -81.19 0.037437 -171.4
8.79152000 0.037450 -171.0 0.999273 -81.19 0.999273 -81.19 0.037449 -171.4
8.79153000 0.037462 -171.0 0.999272 -81.19 0.999272 -81.19 0.037461 -171.4
8.79154000 0.037474 -171.0 0.999272 -81.19 0.999272 -81.19 0.037473 -171.4
8.79155000 0.037486 -171.0 0.999271 -81.20 0.999271 -81.20 0.037485 -171.4
8.79156000 0.037499 -171.0 0.999271 -81.20 0.999271 -81.20 0.037498 -171.4
8.79157000 0.037511 -171.0 0.999270 -81.20 0.999270 -81.20 0.037510 -171.4
8.79158000 0.037523 -171.0 0.999270 -81.20 0.999270 -81.20 0.037522 -171.4
8.79159000 0.037535 -171.0 0.999269 -81.20 0.999269 -81.20 0.037535 -171.4
8.79160000 0.037548 -171.0 0.999269 -81.20 0.999269 -81.20 0.037547 -171.4
8.79161000 0.037560 -171.0 0.999268 -81.20 0.999268 -81.20 0.037559 -171.4
8.79162000 0.037573 -171.0 0.999268 -81.20 0.999268 -81.20 0.037572 -171.4
8.79163000 0.037585 -171.0 0.999267 -81.20 0.999267 -81.20 0.037584 -171.4
8.79164000 0.037597 -171.0 0.999267 -81.20 0.999267 -81.20 0.037597 -171.4
8.79165000 0.037610 -171.0 0.999266 -81.20 0.999266 -81.20 0.037609 -171.4
8.79166000 0.037622 -171.1 0.999265 -81.20 0.999265 -81.20 0.037622 -171.4
8.79167000 0.037635 -171.1 0.999265 -81.21 0.999265 -81.21 0.037634 -171.4
8.79168000 0.037648 -171.1 0.999264 -81.21 0.999264 -81.21 0.037647 -171.4
8.79169000 0.037660 -171.1 0.999264 -81.21 0.999264 -81.21 0.037659 -171.4
8.79170000 0.037673 -171.1 0.999263 -81.21 0.999263 -81.21 0.037672 -171.4
8.79171000 0.037685 -171.1 0.999263 -81.21 0.999263 -81.21 0.037684 -171.4
8.79172000 0.037698 -171.1 0.999262 -81.21 0.999262 -81.21 0.037697 -171.4
8.79173000 0.037711 -171.1 0.999262 -81.21 0.999262 -81.21 0.037710 -171.4
8.79174000 0.037723 -171.1 0.999261 -81.21 0.999261 -81.21 0.037722 -171.4
8.79175000 0.037736 -171.1 0.999261 -81.21 0.999261 -81.21 0.037735 -171.4
8.79176000 0.037749 -171.1 0.999260 -81.21 0.999260 -81.21 0.037748 -171.4
8.79177000 0.037761 -171.1 0.999260 -81.21 0.999260 -81.21 0.037760 -171.4
8.79178000 0.037774 -171.1 0.999259 -81.21 0.999259 -81.21 0.037773 -171.5
8.79179000 0.037787 -171.1 0.999259 -81.22 0.999259 -81.22 0.037786 -171.5
8.79180000 0.037800 -171.1 0.999258 -81.22 0.999258 -81.22 0.037799 -171.5
8.79181000 0.037813 -171.1 0.999258 -81.22 0.999258 -81.22 0.037812 -171.5
8.79182000 0.037826 -171.1 0.999257 -81.22 0.999257 -81.22 0.037825 -171.5
8.79183000 0.037838 -171.1 0.999257 -81.22 0.999257 -81.22 0.037837 -171.5
8.79184000 0.037851 -171.1 0.999256 -81.22 0.999256 -81.22 0.037850 -171.5
8.79185000 0.037864 -171.1 0.999256 -81.22 0.999256 -81.22 0.037863 -171.5
8.79186000 0.037877 -171.1 0.999255 -81.22 0.999255 -81.22 0.037876 -171.5
8.79187000 0.037890 -171.1 0.999254 -81.22 0.999254 -81.22 0.037889 -171.5
8.79188000 0.037903 -171.1 0.999254 -81.22 0.999254 -81.22 0.037902 -171.5
8.79189000 0.037916 -171.1 0.999253 -81.22 0.999253 -81.22 0.037915 -171.5
8.79190000 0.037929 -171.1 0.999253 -81.22 0.999253 -81.22 0.037928 -171.5
8.79191000 0.037943 -171.1 0.999252 -81.23 0.999252 -81.23 0.037942 -171.5
8.79192000 0.037956 -171.1 0.999252 -81.23 0.999252 -81.23 0.037955 -171.5
8.79193000 0.037969 -171.1 0.999251 -81.23 0.999251 -81.23 0.037968 -171.5
8.79194000 0.037982 -171.1 0.999251 -81.23 0.999251 -81.23 0.037981 -171.5
8.79195000 0.037995 -171.1 0.999250 -81.23 0.999250 -81.23 0.037994 -171.5
8.79196000 0.038008 -171.1 0.999250 -81.23 0.999250 -81.23 0.038007 -171.5
8.79197000 0.038022 -171.1 0.999249 -81.23 0.999249 -81.23 0.038021 -171.5
8.79198000 0.038035 -171.1 0.999248 -81.23 0.999248 -81.23 0.038034 -171.5
8.79199000 0.038048 -171.1 0.999248 -81.23 0.999248 -81.23 0.038047 -171.5
8.79200000 0.038062 -171.1 0.999247 -81.23 0.999247 -81.23 0.038061 -171.5
8.79201000 0.038075 -171.1 0.999247 -81.23 0.999247 -81.23 0.038074 -171.5
8.79202000 0.038088 -171.1 0.999246 -81.23 0.999246 -81.23 0.038087 -171.5
8.79203000 0.038102 -171.1 0.999246 -81.24 0.999246 -81.24 0.038101 -171.5
8.79204000 0.038115 -171.1 0.999245 -81.24 0.999245 -81.24 0.038114 -171.5
8.79205000 0.038129 -171.1 0.999245 -81.24 0.999245 -81.24 0.038128 -171.5
8.79206000 0.038142 -171.1 0.999244 -81.24 0.999244 -81.24 0.038141 -171.5
8.79207000 0.038156 -171.1 0.999243 -81.24 0.999243 -81.24 0.038155 -171.5
8.79208000 0.038169 -171.1 0.999243 -81.24 0.999243 -81.24 0.038168 -171.5
8.79209000 0.038183 -171.1 0.999242 -81.24 0.999242 -81.24 0.038182 -171.5
8.79210000 0.038196 -171.1 0.999242 -81.24 0.999242 -81.24 0.038195 -171.5
8.79211000 0.038210 -171.1 0.999241 -81.24 0.999241 -81.24 0.038209 -171.5
8.79212000 0.038223 -171.1 0.999241 -81.24 0.999241 -81.24 0.038222 -171.5
8.79213000 0.038237 -171.1 0.999240 -81.24 0.999240 -81.24 0.038236 -171.5
8.79214000 0.038251 -171.1 0.999239 -81.24 0.999239 -81.24 0.038250 -171.5
8.79215000 0.038265 -171.1 0.999239 -81.25 0.999239 -81.25 0.038264 -171.5
8.79216000 0.038278 -171.1 0.999238 -81.25 0.999238 -81.25 0.038277 -171.5
8.79217000 0.038292 -171.1 0.999238 -81.25 0.999238 -81.25 0.038291 -171.5
8.79218000 0.038306 -171.1 0.999237 -81.25 0.999237 -81.25 0.038305 -171.5
8.79219000 0.038320 -171.1 0.999237 -81.25 0.999237 -81.25 0.038319 -171.5
8.79220000 0.038334 -171.1 0.999236 -81.25 0.999236 -81.25 0.038333 -171.5
8.79221000 0.038347 -171.1 0.999235 -81.25 0.999235 -81.25 0.038346 -171.5
8.79222000 0.038361 -171.1 0.999235 -81.25 0.999235 -81.25 0.038360 -171.5
8.79223000 0.038375 -171.1 0.999234 -81.25 0.999234 -81.25 0.038374 -171.5
8.79224000 0.038389 -171.1 0.999234 -81.25 0.999234 -81.25 0.038388 -171.5
8.79225000 0.038403 -171.1 0.999233 -81.25 0.999233 -81.25 0.038402 -171.5
8.79226000 0.038417 -171.1 0.999232 -81.26 0.999232 -81.26 0.038416 -171.5
8.79227000 0.038431 -171.1 0.999232 -81.26 0.999232 -81.26 0.038430 -171.5
8.79228000 0.038445 -171.1 0.999231 -81.26 0.999231 -81.26 0.038444 -171.5
8.79229000 0.038459 -171.1 0.999231 -81.26 0.999231 -81.26 0.038458 -171.5
8.79230000 0.038474 -171.1 0.999230 -81.26 0.999230 -81.26 0.038473 -171.5
8.79231000 0.038488 -171.1 0.999229 -81.26 0.999229 -81.26 0.038487 -171.5
8.79232000 0.038502 -171.1 0.999229 -81.26 0.999229 -81.26 0.038501 -171.5
8.79233000 0.038516 -171.1 0.999228 -81.26 0.999228 -81.26 0.038515 -171.5
8.79234000 0.038530 -171.1 0.999228 -81.26 0.999228 -81.26 0.038529 -171.5
8.79235000 0.038545 -171.1 0.999227 -81.26 0.999227 -81.26 0.038544 -171.5
8.79236000 0.038559 -171.1 0.999226 -81.26 0.999226 -81.26 0.038558 -171.5
8.79237000 0.038573 -171.1 0.999226 -81.27 0.999226 -81.27 0.038572 -171.5
8.79238000 0.038588 -171.1 0.999225 -81.27 0.999225 -81.27 0.038587 -171.5
8.79239000 0.038602 -171.1 0.999225 -81.27 0.999225 -81.27 0.038601 -171.5
8.79240000 0.038616 -171.1 0.999224 -81.27 0.999224 -81.27 0.038615 -171.5
8.79241000 0.038631 -171.1 0.999223 -81.27 0.999223 -81.27 0.038630 -171.5
8.79242000 0.038645 -171.1 0.999223 -81.27 0.999223 -81.27 0.038644 -171.5
8.79243000 0.038660 -171.1 0.999222 -81.27 0.999222 -81.27 0.038659 -171.5
8.79244000 0.038674 -171.1 0.999222 -81.27 0.999222 -81.27 0.038673 -171.5
8.79245000 0.038689 -171.1 0.999221 -81.27 0.999221 -81.27 0.038688 -171.5
8.79246000 0.038704 -171.1 0.999220 -81.27 0.999220 -81.27 0.038703 -171.5
8.79247000 0.038718 -171.1 0.999220 -81.27 0.999220 -81.27 0.038717 -171.5
8.79248000 0.038733 -171.1 0.999219 -81.28 0.999219 -81.28 0.038732 -171.5
8.79249000 0.038748 -171.1 0.999218 -81.28 0.999218 -81.28 0.038746 -171.5
8.79250000 0.038762 -171.1 0.999218 -81.28 0.999218 -81.28 0.038761 -171.5
8.79251000 0.038777 -171.1 0.999217 -81.28 0.999217 -81.28 0.038776 -171.5
8.79252000 0.038792 -171.1 0.999217 -81.28 0.999217 -81.28 0.038791 -171.6
8.79253000 0.038807 -171.1 0.999216 -81.28 0.999216 -81.28 0.038805 -171.6
8.79254000 0.038821 -171.1 0.999215 -81.28 0.999215 -81.28 0.038820 -171.6
8.79255000 0.038836 -171.1 0.999215 -81.28 0.999215 -81.28 0.038835 -171.6
8.79256000 0.038851 -171.1 0.999214 -81.28 0.999214 -81.28 0.038850 -171.6
8.79257000 0.038866 -171.1 0.999213 -81.28 0.999213 -81.28 0.038865 -171.6
8.79258000 0.038881 -171.1 0.999213 -81.28 0.999213 -81.28 0.038880 -171.6
8.79259000 0.038896 -171.1 0.999212 -81.29 0.999212 -81.29 0.038895 -171.6
