! Sonnet Data File
! From: emgraph Version : 16.52
! From Project: Qubit_Test_beforeopt
! Data is De-embedded 
! Data File Written: 10/18/2017 16:57:22
!< HDATE 10/18/2017 09:03:38
!< MDATE 10/18/2017 09:03:38
!< PARAMS
!< Lj = 11.0
!< Gap = 6.0
!< Pwid = 2000.0
!< Airgap = 18.0
!< Width = 30.0
!< END PARAMS
# GHZ S MA R 51.80000
8.79000000 0.035121 -173.6 0.999357 -81.46 0.999357 -81.46 0.035118 -169.4
!< P1 F=8.79 Eeff=(6.44477581 -3.0301e-5) Z0=(50.6167814 1.12757e-4) R=0.0 C=0.0 
!< P2 F=8.79 Eeff=(6.44477581 -3.0301e-5) Z0=(50.6167814 1.12757e-4) R=0.0 C=0.0 
8.79001000 0.035133 -173.6 0.999357 -81.46 0.999357 -81.46 0.035130 -169.4
8.79002000 0.035145 -173.6 0.999356 -81.46 0.999356 -81.46 0.035143 -169.4
8.79003000 0.035157 -173.6 0.999356 -81.46 0.999356 -81.46 0.035155 -169.4
8.79004000 0.035169 -173.6 0.999356 -81.46 0.999356 -81.46 0.035167 -169.4
8.79005000 0.035181 -173.6 0.999355 -81.46 0.999355 -81.46 0.035179 -169.4
8.79006000 0.035194 -173.6 0.999355 -81.46 0.999355 -81.46 0.035191 -169.4
8.79007000 0.035206 -173.6 0.999354 -81.46 0.999354 -81.46 0.035203 -169.4
8.79008000 0.035218 -173.6 0.999354 -81.46 0.999354 -81.46 0.035216 -169.4
8.79009000 0.035230 -173.6 0.999353 -81.46 0.999353 -81.46 0.035228 -169.4
8.79010000 0.035243 -173.6 0.999353 -81.46 0.999353 -81.46 0.035240 -169.4
8.79011000 0.035255 -173.6 0.999352 -81.47 0.999352 -81.47 0.035252 -169.4
8.79012000 0.035267 -173.6 0.999352 -81.47 0.999352 -81.47 0.035265 -169.4
8.79013000 0.035279 -173.6 0.999351 -81.47 0.999351 -81.47 0.035277 -169.4
8.79014000 0.035292 -173.6 0.999351 -81.47 0.999351 -81.47 0.035289 -169.4
8.79015000 0.035304 -173.6 0.999350 -81.47 0.999350 -81.47 0.035302 -169.4
8.79016000 0.035316 -173.6 0.999350 -81.47 0.999350 -81.47 0.035314 -169.4
8.79017000 0.035329 -173.6 0.999349 -81.47 0.999349 -81.47 0.035326 -169.4
8.79018000 0.035341 -173.6 0.999349 -81.47 0.999349 -81.47 0.035339 -169.4
8.79019000 0.035354 -173.6 0.999349 -81.47 0.999349 -81.47 0.035351 -169.4
8.79020000 0.035366 -173.6 0.999348 -81.47 0.999348 -81.47 0.035364 -169.4
8.79021000 0.035379 -173.6 0.999348 -81.47 0.999348 -81.47 0.035376 -169.4
8.79022000 0.035391 -173.6 0.999347 -81.47 0.999347 -81.47 0.035389 -169.4
8.79023000 0.035404 -173.6 0.999347 -81.48 0.999347 -81.48 0.035401 -169.4
8.79024000 0.035416 -173.6 0.999346 -81.48 0.999346 -81.48 0.035414 -169.4
8.79025000 0.035429 -173.6 0.999346 -81.48 0.999346 -81.48 0.035426 -169.4
8.79026000 0.035441 -173.6 0.999345 -81.48 0.999345 -81.48 0.035439 -169.4
8.79027000 0.035454 -173.6 0.999345 -81.48 0.999345 -81.48 0.035451 -169.4
8.79028000 0.035466 -173.6 0.999344 -81.48 0.999344 -81.48 0.035464 -169.4
8.79029000 0.035479 -173.6 0.999344 -81.48 0.999344 -81.48 0.035477 -169.4
8.79030000 0.035492 -173.6 0.999343 -81.48 0.999343 -81.48 0.035489 -169.4
8.79031000 0.035504 -173.6 0.999343 -81.48 0.999343 -81.48 0.035502 -169.4
8.79032000 0.035517 -173.6 0.999342 -81.48 0.999342 -81.48 0.035514 -169.5
8.79033000 0.035530 -173.6 0.999342 -81.48 0.999342 -81.48 0.035527 -169.5
8.79034000 0.035542 -173.6 0.999341 -81.48 0.999341 -81.48 0.035540 -169.5
8.79035000 0.035555 -173.6 0.999341 -81.48 0.999341 -81.48 0.035553 -169.5
8.79036000 0.035568 -173.6 0.999340 -81.49 0.999340 -81.49 0.035565 -169.5
8.79037000 0.035581 -173.6 0.999340 -81.49 0.999340 -81.49 0.035578 -169.5
8.79038000 0.035593 -173.6 0.999339 -81.49 0.999339 -81.49 0.035591 -169.5
8.79039000 0.035606 -173.6 0.999339 -81.49 0.999339 -81.49 0.035604 -169.5
8.79040000 0.035619 -173.6 0.999338 -81.49 0.999338 -81.49 0.035616 -169.5
8.79041000 0.035632 -173.6 0.999338 -81.49 0.999338 -81.49 0.035629 -169.5
8.79042000 0.035645 -173.6 0.999337 -81.49 0.999337 -81.49 0.035642 -169.5
8.79043000 0.035658 -173.6 0.999337 -81.49 0.999337 -81.49 0.035655 -169.5
8.79044000 0.035670 -173.6 0.999336 -81.49 0.999336 -81.49 0.035668 -169.5
8.79045000 0.035683 -173.6 0.999336 -81.49 0.999336 -81.49 0.035681 -169.5
8.79046000 0.035696 -173.6 0.999335 -81.49 0.999335 -81.49 0.035694 -169.5
8.79047000 0.035709 -173.6 0.999335 -81.49 0.999335 -81.49 0.035707 -169.5
8.79048000 0.035722 -173.6 0.999334 -81.50 0.999334 -81.50 0.035720 -169.5
8.79049000 0.035735 -173.6 0.999334 -81.50 0.999334 -81.50 0.035733 -169.5
8.79050000 0.035748 -173.6 0.999333 -81.50 0.999333 -81.50 0.035746 -169.5
8.79051000 0.035761 -173.6 0.999333 -81.50 0.999333 -81.50 0.035759 -169.5
8.79052000 0.035774 -173.6 0.999332 -81.50 0.999332 -81.50 0.035772 -169.5
8.79053000 0.035787 -173.6 0.999332 -81.50 0.999332 -81.50 0.035785 -169.5
8.79054000 0.035800 -173.6 0.999331 -81.50 0.999331 -81.50 0.035798 -169.5
8.79055000 0.035814 -173.6 0.999331 -81.50 0.999331 -81.50 0.035811 -169.5
8.79056000 0.035827 -173.6 0.999330 -81.50 0.999330 -81.50 0.035824 -169.5
8.79057000 0.035840 -173.6 0.999330 -81.50 0.999330 -81.50 0.035837 -169.5
8.79058000 0.035853 -173.6 0.999329 -81.50 0.999329 -81.50 0.035850 -169.5
8.79059000 0.035866 -173.6 0.999329 -81.50 0.999329 -81.50 0.035864 -169.5
8.79060000 0.035879 -173.6 0.999328 -81.51 0.999328 -81.51 0.035877 -169.5
8.79061000 0.035893 -173.6 0.999328 -81.51 0.999328 -81.51 0.035890 -169.5
8.79062000 0.035906 -173.6 0.999327 -81.51 0.999327 -81.51 0.035903 -169.5
8.79063000 0.035919 -173.6 0.999327 -81.51 0.999327 -81.51 0.035917 -169.5
8.79064000 0.035932 -173.6 0.999326 -81.51 0.999326 -81.51 0.035930 -169.5
8.79065000 0.035946 -173.6 0.999326 -81.51 0.999326 -81.51 0.035943 -169.5
8.79066000 0.035959 -173.6 0.999325 -81.51 0.999325 -81.51 0.035957 -169.5
8.79067000 0.035972 -173.6 0.999325 -81.51 0.999325 -81.51 0.035970 -169.5
8.79068000 0.035986 -173.6 0.999324 -81.51 0.999324 -81.51 0.035983 -169.5
8.79069000 0.035999 -173.6 0.999324 -81.51 0.999324 -81.51 0.035997 -169.5
8.79070000 0.036013 -173.6 0.999323 -81.51 0.999323 -81.51 0.036010 -169.5
8.79071000 0.036026 -173.6 0.999323 -81.52 0.999323 -81.52 0.036024 -169.5
8.79072000 0.036040 -173.6 0.999322 -81.52 0.999322 -81.52 0.036037 -169.5
8.79073000 0.036053 -173.6 0.999322 -81.52 0.999322 -81.52 0.036050 -169.5
8.79074000 0.036067 -173.6 0.999321 -81.52 0.999321 -81.52 0.036064 -169.5
8.79075000 0.036080 -173.6 0.999321 -81.52 0.999321 -81.52 0.036077 -169.5
8.79076000 0.036094 -173.6 0.999320 -81.52 0.999320 -81.52 0.036091 -169.5
8.79077000 0.036107 -173.6 0.999319 -81.52 0.999319 -81.52 0.036105 -169.5
8.79078000 0.036121 -173.6 0.999319 -81.52 0.999319 -81.52 0.036118 -169.5
8.79079000 0.036134 -173.6 0.999318 -81.52 0.999318 -81.52 0.036132 -169.5
8.79080000 0.036148 -173.6 0.999318 -81.52 0.999318 -81.52 0.036145 -169.5
8.79081000 0.036162 -173.6 0.999317 -81.52 0.999317 -81.52 0.036159 -169.5
8.79082000 0.036175 -173.6 0.999317 -81.52 0.999317 -81.52 0.036173 -169.5
8.79083000 0.036189 -173.6 0.999316 -81.53 0.999316 -81.53 0.036186 -169.5
8.79084000 0.036203 -173.6 0.999316 -81.53 0.999316 -81.53 0.036200 -169.6
8.79085000 0.036216 -173.6 0.999315 -81.53 0.999315 -81.53 0.036214 -169.6
8.79086000 0.036230 -173.6 0.999315 -81.53 0.999315 -81.53 0.036227 -169.6
8.79087000 0.036244 -173.6 0.999314 -81.53 0.999314 -81.53 0.036241 -169.6
8.79088000 0.036258 -173.6 0.999314 -81.53 0.999314 -81.53 0.036255 -169.6
8.79089000 0.036272 -173.6 0.999313 -81.53 0.999313 -81.53 0.036269 -169.6
8.79090000 0.036285 -173.6 0.999313 -81.53 0.999313 -81.53 0.036283 -169.6
8.79091000 0.036299 -173.6 0.999312 -81.53 0.999312 -81.53 0.036297 -169.6
8.79092000 0.036313 -173.6 0.999311 -81.53 0.999311 -81.53 0.036310 -169.6
8.79093000 0.036327 -173.6 0.999311 -81.53 0.999311 -81.53 0.036324 -169.6
8.79094000 0.036341 -173.6 0.999310 -81.54 0.999310 -81.54 0.036338 -169.6
8.79095000 0.036355 -173.6 0.999310 -81.54 0.999310 -81.54 0.036352 -169.6
8.79096000 0.036369 -173.6 0.999309 -81.54 0.999309 -81.54 0.036366 -169.6
8.79097000 0.036383 -173.6 0.999309 -81.54 0.999309 -81.54 0.036380 -169.6
8.79098000 0.036397 -173.6 0.999308 -81.54 0.999308 -81.54 0.036394 -169.6
8.79099000 0.036411 -173.6 0.999308 -81.54 0.999308 -81.54 0.036408 -169.6
8.79100000 0.036425 -173.6 0.999307 -81.54 0.999307 -81.54 0.036422 -169.6
8.79101000 0.036439 -173.6 0.999306 -81.54 0.999306 -81.54 0.036436 -169.6
8.79102000 0.036453 -173.6 0.999306 -81.54 0.999306 -81.54 0.036450 -169.6
8.79103000 0.036467 -173.6 0.999305 -81.54 0.999305 -81.54 0.036464 -169.6
8.79104000 0.036481 -173.6 0.999305 -81.54 0.999305 -81.54 0.036479 -169.6
8.79105000 0.036495 -173.6 0.999304 -81.55 0.999304 -81.55 0.036493 -169.6
8.79106000 0.036510 -173.6 0.999304 -81.55 0.999304 -81.55 0.036507 -169.6
8.79107000 0.036524 -173.6 0.999303 -81.55 0.999303 -81.55 0.036521 -169.6
8.79108000 0.036538 -173.6 0.999303 -81.55 0.999303 -81.55 0.036535 -169.6
8.79109000 0.036552 -173.6 0.999302 -81.55 0.999302 -81.55 0.036550 -169.6
8.79110000 0.036567 -173.6 0.999301 -81.55 0.999301 -81.55 0.036564 -169.6
8.79111000 0.036581 -173.6 0.999301 -81.55 0.999301 -81.55 0.036578 -169.6
8.79112000 0.036595 -173.6 0.999300 -81.55 0.999300 -81.55 0.036593 -169.6
8.79113000 0.036610 -173.6 0.999300 -81.55 0.999300 -81.55 0.036607 -169.6
8.79114000 0.036624 -173.6 0.999299 -81.55 0.999299 -81.55 0.036621 -169.6
8.79115000 0.036638 -173.6 0.999299 -81.55 0.999299 -81.55 0.036636 -169.6
8.79116000 0.036653 -173.6 0.999298 -81.56 0.999298 -81.56 0.036650 -169.6
8.79117000 0.036667 -173.6 0.999297 -81.56 0.999297 -81.56 0.036664 -169.6
8.79118000 0.036682 -173.6 0.999297 -81.56 0.999297 -81.56 0.036679 -169.6
8.79119000 0.036696 -173.6 0.999296 -81.56 0.999296 -81.56 0.036693 -169.6
8.79120000 0.036711 -173.6 0.999296 -81.56 0.999296 -81.56 0.036708 -169.6
8.79121000 0.036725 -173.6 0.999295 -81.56 0.999295 -81.56 0.036722 -169.6
8.79122000 0.036740 -173.6 0.999295 -81.56 0.999295 -81.56 0.036737 -169.6
8.79123000 0.036754 -173.6 0.999294 -81.56 0.999294 -81.56 0.036752 -169.6
8.79124000 0.036769 -173.6 0.999293 -81.56 0.999293 -81.56 0.036766 -169.6
8.79125000 0.036783 -173.6 0.999293 -81.56 0.999293 -81.56 0.036781 -169.6
8.79126000 0.036798 -173.6 0.999292 -81.56 0.999292 -81.56 0.036795 -169.6
8.79127000 0.036813 -173.6 0.999292 -81.57 0.999292 -81.57 0.036810 -169.6
8.79128000 0.036827 -173.6 0.999291 -81.57 0.999291 -81.57 0.036825 -169.6
8.79129000 0.036842 -173.6 0.999291 -81.57 0.999291 -81.57 0.036839 -169.6
8.79130000 0.036857 -173.6 0.999290 -81.57 0.999290 -81.57 0.036854 -169.6
8.79131000 0.036872 -173.6 0.999289 -81.57 0.999289 -81.57 0.036869 -169.6
8.79132000 0.036886 -173.6 0.999289 -81.57 0.999289 -81.57 0.036884 -169.6
8.79133000 0.036901 -173.6 0.999288 -81.57 0.999288 -81.57 0.036899 -169.7
8.79134000 0.036916 -173.6 0.999288 -81.57 0.999288 -81.57 0.036913 -169.7
8.79135000 0.036931 -173.6 0.999287 -81.57 0.999287 -81.57 0.036928 -169.7
8.79136000 0.036946 -173.6 0.999286 -81.57 0.999286 -81.57 0.036943 -169.7
8.79137000 0.036961 -173.6 0.999286 -81.57 0.999286 -81.57 0.036958 -169.7
8.79138000 0.036976 -173.6 0.999285 -81.58 0.999285 -81.58 0.036973 -169.7
8.79139000 0.036991 -173.6 0.999285 -81.58 0.999285 -81.58 0.036988 -169.7
8.79140000 0.037006 -173.6 0.999284 -81.58 0.999284 -81.58 0.037003 -169.7
8.79141000 0.037021 -173.6 0.999283 -81.58 0.999283 -81.58 0.037018 -169.7
8.79142000 0.037036 -173.6 0.999283 -81.58 0.999283 -81.58 0.037033 -169.7
8.79143000 0.037051 -173.6 0.999282 -81.58 0.999282 -81.58 0.037048 -169.7
8.79144000 0.037066 -173.6 0.999282 -81.58 0.999282 -81.58 0.037063 -169.7
8.79145000 0.037081 -173.6 0.999281 -81.58 0.999281 -81.58 0.037078 -169.7
8.79146000 0.037096 -173.6 0.999280 -81.58 0.999280 -81.58 0.037093 -169.7
8.79147000 0.037111 -173.6 0.999280 -81.58 0.999280 -81.58 0.037108 -169.7
8.79148000 0.037126 -173.6 0.999279 -81.59 0.999279 -81.59 0.037123 -169.7
8.79149000 0.037141 -173.6 0.999279 -81.59 0.999279 -81.59 0.037139 -169.7
8.79150000 0.037157 -173.6 0.999278 -81.59 0.999278 -81.59 0.037154 -169.7
8.79151000 0.037172 -173.6 0.999277 -81.59 0.999277 -81.59 0.037169 -169.7
8.79152000 0.037187 -173.6 0.999277 -81.59 0.999277 -81.59 0.037184 -169.7
8.79153000 0.037203 -173.6 0.999276 -81.59 0.999276 -81.59 0.037200 -169.7
8.79154000 0.037218 -173.6 0.999275 -81.59 0.999275 -81.59 0.037215 -169.7
8.79155000 0.037233 -173.6 0.999275 -81.59 0.999275 -81.59 0.037230 -169.7
8.79156000 0.037249 -173.6 0.999274 -81.59 0.999274 -81.59 0.037246 -169.7
8.79157000 0.037264 -173.6 0.999274 -81.59 0.999274 -81.59 0.037261 -169.7
8.79158000 0.037279 -173.6 0.999273 -81.60 0.999273 -81.60 0.037277 -169.7
8.79159000 0.037295 -173.6 0.999272 -81.60 0.999272 -81.60 0.037292 -169.7
8.79160000 0.037310 -173.6 0.999272 -81.60 0.999272 -81.60 0.037307 -169.7
8.79161000 0.037326 -173.6 0.999271 -81.60 0.999271 -81.60 0.037323 -169.7
8.79162000 0.037341 -173.6 0.999270 -81.60 0.999270 -81.60 0.037338 -169.7
8.79163000 0.037357 -173.6 0.999270 -81.60 0.999270 -81.60 0.037354 -169.7
8.79164000 0.037372 -173.6 0.999269 -81.60 0.999269 -81.60 0.037370 -169.7
8.79165000 0.037388 -173.6 0.999269 -81.60 0.999269 -81.60 0.037385 -169.7
8.79166000 0.037404 -173.6 0.999268 -81.60 0.999268 -81.60 0.037401 -169.7
8.79167000 0.037419 -173.6 0.999267 -81.60 0.999267 -81.60 0.037416 -169.7
8.79168000 0.037435 -173.6 0.999267 -81.60 0.999267 -81.60 0.037432 -169.7
8.79169000 0.037451 -173.6 0.999266 -81.61 0.999266 -81.61 0.037448 -169.7
8.79170000 0.037466 -173.6 0.999265 -81.61 0.999265 -81.61 0.037464 -169.7
8.79171000 0.037482 -173.6 0.999265 -81.61 0.999265 -81.61 0.037479 -169.7
8.79172000 0.037498 -173.6 0.999264 -81.61 0.999264 -81.61 0.037495 -169.7
8.79173000 0.037514 -173.6 0.999263 -81.61 0.999263 -81.61 0.037511 -169.7
8.79174000 0.037530 -173.6 0.999263 -81.61 0.999263 -81.61 0.037527 -169.7
8.79175000 0.037545 -173.6 0.999262 -81.61 0.999262 -81.61 0.037543 -169.7
8.79176000 0.037561 -173.6 0.999262 -81.61 0.999262 -81.61 0.037558 -169.7
8.79177000 0.037577 -173.6 0.999261 -81.61 0.999261 -81.61 0.037574 -169.7
8.79178000 0.037593 -173.6 0.999260 -81.61 0.999260 -81.61 0.037590 -169.7
8.79179000 0.037609 -173.6 0.999260 -81.62 0.999260 -81.62 0.037606 -169.7
8.79180000 0.037625 -173.6 0.999259 -81.62 0.999259 -81.62 0.037622 -169.8
8.79181000 0.037641 -173.6 0.999258 -81.62 0.999258 -81.62 0.037638 -169.8
8.79182000 0.037657 -173.6 0.999258 -81.62 0.999258 -81.62 0.037654 -169.8
8.79183000 0.037673 -173.6 0.999257 -81.62 0.999257 -81.62 0.037670 -169.8
8.79184000 0.037689 -173.6 0.999256 -81.62 0.999256 -81.62 0.037686 -169.8
8.79185000 0.037706 -173.6 0.999256 -81.62 0.999256 -81.62 0.037703 -169.8
8.79186000 0.037722 -173.6 0.999255 -81.62 0.999255 -81.62 0.037719 -169.8
8.79187000 0.037738 -173.6 0.999254 -81.62 0.999254 -81.62 0.037735 -169.8
8.79188000 0.037754 -173.6 0.999254 -81.63 0.999254 -81.63 0.037751 -169.8
8.79189000 0.037770 -173.6 0.999253 -81.63 0.999253 -81.63 0.037767 -169.8
8.79190000 0.037787 -173.6 0.999252 -81.63 0.999252 -81.63 0.037784 -169.8
8.79191000 0.037803 -173.6 0.999252 -81.63 0.999252 -81.63 0.037800 -169.8
8.79192000 0.037819 -173.6 0.999251 -81.63 0.999251 -81.63 0.037816 -169.8
8.79193000 0.037836 -173.6 0.999250 -81.63 0.999250 -81.63 0.037833 -169.8
8.79194000 0.037852 -173.6 0.999250 -81.63 0.999250 -81.63 0.037849 -169.8
8.79195000 0.037868 -173.6 0.999249 -81.63 0.999249 -81.63 0.037865 -169.8
8.79196000 0.037885 -173.6 0.999248 -81.63 0.999248 -81.63 0.037882 -169.8
8.79197000 0.037901 -173.6 0.999248 -81.63 0.999248 -81.63 0.037898 -169.8
8.79198000 0.037918 -173.6 0.999247 -81.64 0.999247 -81.64 0.037915 -169.8
8.79199000 0.037934 -173.6 0.999246 -81.64 0.999246 -81.64 0.037931 -169.8
8.79200000 0.037951 -173.6 0.999246 -81.64 0.999246 -81.64 0.037948 -169.8
8.79201000 0.037967 -173.6 0.999245 -81.64 0.999245 -81.64 0.037964 -169.8
8.79202000 0.037984 -173.6 0.999244 -81.64 0.999244 -81.64 0.037981 -169.8
8.79203000 0.038000 -173.6 0.999244 -81.64 0.999244 -81.64 0.037997 -169.8
8.79204000 0.038017 -173.6 0.999243 -81.64 0.999243 -81.64 0.038014 -169.8
8.79205000 0.038034 -173.6 0.999242 -81.64 0.999242 -81.64 0.038031 -169.8
8.79206000 0.038051 -173.6 0.999242 -81.64 0.999242 -81.64 0.038048 -169.8
8.79207000 0.038067 -173.6 0.999241 -81.64 0.999241 -81.64 0.038064 -169.8
8.79208000 0.038084 -173.6 0.999240 -81.65 0.999240 -81.65 0.038081 -169.8
8.79209000 0.038101 -173.6 0.999239 -81.65 0.999239 -81.65 0.038098 -169.8
8.79210000 0.038118 -173.6 0.999239 -81.65 0.999239 -81.65 0.038115 -169.8
8.79211000 0.038135 -173.6 0.999238 -81.65 0.999238 -81.65 0.038131 -169.8
8.79212000 0.038151 -173.6 0.999237 -81.65 0.999237 -81.65 0.038148 -169.8
8.79213000 0.038168 -173.6 0.999237 -81.65 0.999237 -81.65 0.038165 -169.8
8.79214000 0.038185 -173.6 0.999236 -81.65 0.999236 -81.65 0.038182 -169.8
8.79215000 0.038202 -173.6 0.999235 -81.65 0.999235 -81.65 0.038199 -169.8
8.79216000 0.038219 -173.6 0.999235 -81.65 0.999235 -81.65 0.038216 -169.8
8.79217000 0.038236 -173.6 0.999234 -81.66 0.999234 -81.66 0.038233 -169.8
8.79218000 0.038253 -173.6 0.999233 -81.66 0.999233 -81.66 0.038250 -169.8
8.79219000 0.038270 -173.6 0.999232 -81.66 0.999232 -81.66 0.038267 -169.8
8.79220000 0.038288 -173.6 0.999232 -81.66 0.999232 -81.66 0.038284 -169.8
8.79221000 0.038305 -173.6 0.999231 -81.66 0.999231 -81.66 0.038302 -169.8
8.79222000 0.038322 -173.6 0.999230 -81.66 0.999230 -81.66 0.038319 -169.8
8.79223000 0.038339 -173.6 0.999230 -81.66 0.999230 -81.66 0.038336 -169.8
8.79224000 0.038356 -173.6 0.999229 -81.66 0.999229 -81.66 0.038353 -169.9
8.79225000 0.038374 -173.6 0.999228 -81.66 0.999228 -81.66 0.038370 -169.9
8.79226000 0.038391 -173.6 0.999227 -81.67 0.999227 -81.67 0.038388 -169.9
8.79227000 0.038408 -173.6 0.999227 -81.67 0.999227 -81.67 0.038405 -169.9
8.79228000 0.038426 -173.6 0.999226 -81.67 0.999226 -81.67 0.038422 -169.9
8.79229000 0.038443 -173.6 0.999225 -81.67 0.999225 -81.67 0.038440 -169.9
8.79230000 0.038460 -173.6 0.999225 -81.67 0.999225 -81.67 0.038457 -169.9
8.79231000 0.038478 -173.6 0.999224 -81.67 0.999224 -81.67 0.038475 -169.9
8.79232000 0.038495 -173.6 0.999223 -81.67 0.999223 -81.67 0.038492 -169.9
8.79233000 0.038513 -173.6 0.999222 -81.67 0.999222 -81.67 0.038510 -169.9
8.79234000 0.038530 -173.6 0.999222 -81.67 0.999222 -81.67 0.038527 -169.9
8.79235000 0.038548 -173.6 0.999221 -81.67 0.999221 -81.67 0.038545 -169.9
8.79236000 0.038565 -173.6 0.999220 -81.68 0.999220 -81.68 0.038562 -169.9
8.79237000 0.038583 -173.6 0.999219 -81.68 0.999219 -81.68 0.038580 -169.9
8.79238000 0.038601 -173.6 0.999219 -81.68 0.999219 -81.68 0.038598 -169.9
8.79239000 0.038618 -173.6 0.999218 -81.68 0.999218 -81.68 0.038615 -169.9
8.79240000 0.038636 -173.6 0.999217 -81.68 0.999217 -81.68 0.038633 -169.9
8.79241000 0.038654 -173.6 0.999216 -81.68 0.999216 -81.68 0.038651 -169.9
8.79242000 0.038672 -173.6 0.999216 -81.68 0.999216 -81.68 0.038669 -169.9
8.79243000 0.038690 -173.6 0.999215 -81.68 0.999215 -81.68 0.038686 -169.9
8.79244000 0.038707 -173.6 0.999214 -81.68 0.999214 -81.68 0.038704 -169.9
8.79245000 0.038725 -173.6 0.999213 -81.69 0.999213 -81.69 0.038722 -169.9
8.79246000 0.038743 -173.6 0.999213 -81.69 0.999213 -81.69 0.038740 -169.9
8.79247000 0.038761 -173.6 0.999212 -81.69 0.999212 -81.69 0.038758 -169.9
8.79248000 0.038779 -173.6 0.999211 -81.69 0.999211 -81.69 0.038776 -169.9
8.79249000 0.038797 -173.6 0.999210 -81.69 0.999210 -81.69 0.038794 -169.9
8.79250000 0.038815 -173.6 0.999210 -81.69 0.999210 -81.69 0.038812 -169.9
8.79251000 0.038833 -173.6 0.999209 -81.69 0.999209 -81.69 0.038830 -169.9
8.79252000 0.038851 -173.6 0.999208 -81.69 0.999208 -81.69 0.038848 -169.9
8.79253000 0.038869 -173.6 0.999207 -81.69 0.999207 -81.69 0.038866 -169.9
8.79254000 0.038888 -173.6 0.999207 -81.70 0.999207 -81.70 0.038884 -169.9
8.79255000 0.038906 -173.6 0.999206 -81.70 0.999206 -81.70 0.038903 -169.9
8.79256000 0.038924 -173.6 0.999205 -81.70 0.999205 -81.70 0.038921 -169.9
8.79257000 0.038942 -173.6 0.999204 -81.70 0.999204 -81.70 0.038939 -169.9
8.79258000 0.038961 -173.6 0.999203 -81.70 0.999203 -81.70 0.038957 -169.9
8.79259000 0.038979 -173.6 0.999203 -81.70 0.999203 -81.70 0.038976 -169.9
