! Sonnet Data File
! From: emgraph Version : 16.52
! From Project: Qubit_Test_beforeopt
! Data is De-embedded 
! Data File Written: 10/18/2017 20:39:12
!< HDATE 10/18/2017 18:14:34
!< MDATE 10/18/2017 18:14:34
!< PARAMS
!< Lj = 11.0
!< Gap = 26.0
!< Pwid = 2000.0
!< Airgap = 30.0
!< Width = 50.0
!< END PARAMS
# GHZ S MA R 51.80000
8.79000000 0.039779 -171.0 0.999184 -81.23 0.999184 -81.23 0.039778 -171.5
!< P1 F=8.79 Eeff=(6.43963342 -3.1364e-5) Z0=(50.401348 1.04894e-4) R=0.0 C=0.0 
!< P2 F=8.79 Eeff=(6.43963342 -3.1364e-5) Z0=(50.401348 1.04894e-4) R=0.0 C=0.0 
8.79001000 0.039790 -171.0 0.999184 -81.23 0.999184 -81.23 0.039789 -171.5
8.79002000 0.039801 -171.0 0.999183 -81.23 0.999183 -81.23 0.039800 -171.5
8.79003000 0.039813 -171.0 0.999183 -81.23 0.999183 -81.23 0.039812 -171.5
8.79004000 0.039824 -171.0 0.999182 -81.23 0.999182 -81.23 0.039823 -171.5
8.79005000 0.039835 -171.0 0.999182 -81.23 0.999182 -81.23 0.039835 -171.5
8.79006000 0.039847 -171.0 0.999181 -81.23 0.999181 -81.23 0.039846 -171.5
8.79007000 0.039858 -171.0 0.999181 -81.23 0.999181 -81.23 0.039857 -171.5
8.79008000 0.039870 -171.0 0.999180 -81.23 0.999180 -81.23 0.039869 -171.5
8.79009000 0.039881 -171.0 0.999180 -81.23 0.999180 -81.23 0.039880 -171.5
8.79010000 0.039893 -171.0 0.999179 -81.24 0.999179 -81.24 0.039892 -171.5
8.79011000 0.039904 -171.0 0.999179 -81.24 0.999179 -81.24 0.039903 -171.5
8.79012000 0.039916 -171.0 0.999178 -81.24 0.999178 -81.24 0.039915 -171.5
8.79013000 0.039927 -171.0 0.999178 -81.24 0.999178 -81.24 0.039927 -171.5
8.79014000 0.039939 -171.0 0.999177 -81.24 0.999177 -81.24 0.039938 -171.5
8.79015000 0.039950 -171.0 0.999177 -81.24 0.999177 -81.24 0.039950 -171.5
8.79016000 0.039962 -171.0 0.999176 -81.24 0.999176 -81.24 0.039961 -171.5
8.79017000 0.039974 -171.0 0.999176 -81.24 0.999176 -81.24 0.039973 -171.5
8.79018000 0.039985 -171.0 0.999175 -81.24 0.999175 -81.24 0.039985 -171.5
8.79019000 0.039997 -171.0 0.999175 -81.24 0.999175 -81.24 0.039996 -171.5
8.79020000 0.040009 -171.0 0.999174 -81.24 0.999174 -81.24 0.040008 -171.5
8.79021000 0.040020 -171.0 0.999174 -81.24 0.999174 -81.24 0.040020 -171.5
8.79022000 0.040032 -171.0 0.999173 -81.24 0.999173 -81.24 0.040031 -171.5
8.79023000 0.040044 -171.0 0.999173 -81.25 0.999173 -81.25 0.040043 -171.5
8.79024000 0.040056 -171.0 0.999172 -81.25 0.999172 -81.25 0.040055 -171.5
8.79025000 0.040067 -171.0 0.999172 -81.25 0.999172 -81.25 0.040067 -171.5
8.79026000 0.040079 -171.0 0.999171 -81.25 0.999171 -81.25 0.040078 -171.5
8.79027000 0.040091 -171.0 0.999171 -81.25 0.999171 -81.25 0.040090 -171.5
8.79028000 0.040103 -171.0 0.999170 -81.25 0.999170 -81.25 0.040102 -171.5
8.79029000 0.040115 -171.0 0.999170 -81.25 0.999170 -81.25 0.040114 -171.5
8.79030000 0.040127 -171.0 0.999169 -81.25 0.999169 -81.25 0.040126 -171.5
8.79031000 0.040139 -171.0 0.999169 -81.25 0.999169 -81.25 0.040138 -171.5
8.79032000 0.040151 -171.0 0.999168 -81.25 0.999168 -81.25 0.040150 -171.5
8.79033000 0.040162 -171.0 0.999168 -81.25 0.999168 -81.25 0.040162 -171.5
8.79034000 0.040174 -171.0 0.999167 -81.25 0.999167 -81.25 0.040174 -171.5
8.79035000 0.040186 -171.0 0.999167 -81.25 0.999167 -81.25 0.040186 -171.5
8.79036000 0.040198 -171.0 0.999166 -81.26 0.999166 -81.26 0.040198 -171.5
8.79037000 0.040210 -171.0 0.999166 -81.26 0.999166 -81.26 0.040210 -171.5
8.79038000 0.040222 -171.0 0.999165 -81.26 0.999165 -81.26 0.040222 -171.5
8.79039000 0.040234 -171.0 0.999164 -81.26 0.999164 -81.26 0.040234 -171.6
8.79040000 0.040247 -171.0 0.999164 -81.26 0.999164 -81.26 0.040246 -171.6
8.79041000 0.040259 -171.0 0.999163 -81.26 0.999163 -81.26 0.040258 -171.6
8.79042000 0.040271 -171.0 0.999163 -81.26 0.999163 -81.26 0.040270 -171.6
8.79043000 0.040283 -171.0 0.999162 -81.26 0.999162 -81.26 0.040282 -171.6
8.79044000 0.040295 -171.0 0.999162 -81.26 0.999162 -81.26 0.040294 -171.6
8.79045000 0.040307 -171.0 0.999161 -81.26 0.999161 -81.26 0.040306 -171.6
8.79046000 0.040319 -171.0 0.999161 -81.26 0.999161 -81.26 0.040319 -171.6
8.79047000 0.040332 -171.0 0.999160 -81.26 0.999160 -81.26 0.040331 -171.6
8.79048000 0.040344 -171.0 0.999160 -81.26 0.999160 -81.26 0.040343 -171.6
8.79049000 0.040356 -171.0 0.999159 -81.27 0.999159 -81.27 0.040355 -171.6
8.79050000 0.040368 -171.0 0.999159 -81.27 0.999159 -81.27 0.040368 -171.6
8.79051000 0.040381 -171.0 0.999158 -81.27 0.999158 -81.27 0.040380 -171.6
8.79052000 0.040393 -171.0 0.999158 -81.27 0.999158 -81.27 0.040392 -171.6
8.79053000 0.040405 -171.0 0.999157 -81.27 0.999157 -81.27 0.040405 -171.6
8.79054000 0.040418 -171.0 0.999157 -81.27 0.999157 -81.27 0.040417 -171.6
8.79055000 0.040430 -171.0 0.999156 -81.27 0.999156 -81.27 0.040429 -171.6
8.79056000 0.040443 -171.0 0.999155 -81.27 0.999155 -81.27 0.040442 -171.6
8.79057000 0.040455 -171.0 0.999155 -81.27 0.999155 -81.27 0.040454 -171.6
8.79058000 0.040467 -171.0 0.999154 -81.27 0.999154 -81.27 0.040467 -171.6
8.79059000 0.040480 -171.0 0.999154 -81.27 0.999154 -81.27 0.040479 -171.6
8.79060000 0.040492 -171.0 0.999153 -81.27 0.999153 -81.27 0.040491 -171.6
8.79061000 0.040505 -171.0 0.999153 -81.28 0.999153 -81.28 0.040504 -171.6
8.79062000 0.040517 -171.0 0.999152 -81.28 0.999152 -81.28 0.040517 -171.6
8.79063000 0.040530 -171.0 0.999152 -81.28 0.999152 -81.28 0.040529 -171.6
8.79064000 0.040542 -171.0 0.999151 -81.28 0.999151 -81.28 0.040542 -171.6
8.79065000 0.040555 -171.0 0.999151 -81.28 0.999151 -81.28 0.040554 -171.6
8.79066000 0.040568 -171.0 0.999150 -81.28 0.999150 -81.28 0.040567 -171.6
8.79067000 0.040580 -171.0 0.999149 -81.28 0.999149 -81.28 0.040579 -171.6
8.79068000 0.040593 -171.0 0.999149 -81.28 0.999149 -81.28 0.040592 -171.6
8.79069000 0.040606 -171.1 0.999148 -81.28 0.999148 -81.28 0.040605 -171.6
8.79070000 0.040618 -171.1 0.999148 -81.28 0.999148 -81.28 0.040617 -171.6
8.79071000 0.040631 -171.1 0.999147 -81.28 0.999147 -81.28 0.040630 -171.6
8.79072000 0.040644 -171.1 0.999147 -81.28 0.999147 -81.28 0.040643 -171.6
8.79073000 0.040657 -171.1 0.999146 -81.29 0.999146 -81.29 0.040656 -171.6
8.79074000 0.040669 -171.1 0.999146 -81.29 0.999146 -81.29 0.040668 -171.6
8.79075000 0.040682 -171.1 0.999145 -81.29 0.999145 -81.29 0.040681 -171.6
8.79076000 0.040695 -171.1 0.999144 -81.29 0.999144 -81.29 0.040694 -171.6
8.79077000 0.040708 -171.1 0.999144 -81.29 0.999144 -81.29 0.040707 -171.6
8.79078000 0.040721 -171.1 0.999143 -81.29 0.999143 -81.29 0.040720 -171.6
8.79079000 0.040734 -171.1 0.999143 -81.29 0.999143 -81.29 0.040733 -171.6
8.79080000 0.040746 -171.1 0.999142 -81.29 0.999142 -81.29 0.040746 -171.6
8.79081000 0.040759 -171.1 0.999142 -81.29 0.999142 -81.29 0.040759 -171.6
8.79082000 0.040772 -171.1 0.999141 -81.29 0.999141 -81.29 0.040772 -171.6
8.79083000 0.040785 -171.1 0.999140 -81.29 0.999140 -81.29 0.040784 -171.6
8.79084000 0.040798 -171.1 0.999140 -81.29 0.999140 -81.29 0.040797 -171.6
8.79085000 0.040811 -171.1 0.999139 -81.30 0.999139 -81.30 0.040811 -171.6
8.79086000 0.040824 -171.1 0.999139 -81.30 0.999139 -81.30 0.040824 -171.6
8.79087000 0.040838 -171.1 0.999138 -81.30 0.999138 -81.30 0.040837 -171.6
8.79088000 0.040851 -171.1 0.999138 -81.30 0.999138 -81.30 0.040850 -171.6
8.79089000 0.040864 -171.1 0.999137 -81.30 0.999137 -81.30 0.040863 -171.6
8.79090000 0.040877 -171.1 0.999136 -81.30 0.999136 -81.30 0.040876 -171.6
8.79091000 0.040890 -171.1 0.999136 -81.30 0.999136 -81.30 0.040889 -171.6
8.79092000 0.040903 -171.1 0.999135 -81.30 0.999135 -81.30 0.040902 -171.6
8.79093000 0.040916 -171.1 0.999135 -81.30 0.999135 -81.30 0.040915 -171.6
8.79094000 0.040930 -171.1 0.999134 -81.30 0.999134 -81.30 0.040929 -171.6
8.79095000 0.040943 -171.1 0.999134 -81.30 0.999134 -81.30 0.040942 -171.6
8.79096000 0.040956 -171.1 0.999133 -81.30 0.999133 -81.30 0.040955 -171.6
8.79097000 0.040969 -171.1 0.999132 -81.31 0.999132 -81.31 0.040969 -171.6
8.79098000 0.040983 -171.1 0.999132 -81.31 0.999132 -81.31 0.040982 -171.6
8.79099000 0.040996 -171.1 0.999131 -81.31 0.999131 -81.31 0.040995 -171.6
8.79100000 0.041009 -171.1 0.999131 -81.31 0.999131 -81.31 0.041009 -171.6
8.79101000 0.041023 -171.1 0.999130 -81.31 0.999130 -81.31 0.041022 -171.6
8.79102000 0.041036 -171.1 0.999129 -81.31 0.999129 -81.31 0.041035 -171.6
8.79103000 0.041050 -171.1 0.999129 -81.31 0.999129 -81.31 0.041049 -171.6
8.79104000 0.041063 -171.1 0.999128 -81.31 0.999128 -81.31 0.041062 -171.6
8.79105000 0.041077 -171.1 0.999128 -81.31 0.999128 -81.31 0.041076 -171.6
8.79106000 0.041090 -171.1 0.999127 -81.31 0.999127 -81.31 0.041089 -171.6
8.79107000 0.041104 -171.1 0.999126 -81.31 0.999126 -81.31 0.041103 -171.6
8.79108000 0.041117 -171.1 0.999126 -81.31 0.999126 -81.31 0.041116 -171.6
8.79109000 0.041131 -171.1 0.999125 -81.32 0.999125 -81.32 0.041130 -171.6
8.79110000 0.041144 -171.1 0.999125 -81.32 0.999125 -81.32 0.041143 -171.6
8.79111000 0.041158 -171.1 0.999124 -81.32 0.999124 -81.32 0.041157 -171.6
8.79112000 0.041172 -171.1 0.999123 -81.32 0.999123 -81.32 0.041171 -171.6
8.79113000 0.041185 -171.1 0.999123 -81.32 0.999123 -81.32 0.041184 -171.6
8.79114000 0.041199 -171.1 0.999122 -81.32 0.999122 -81.32 0.041198 -171.6
8.79115000 0.041213 -171.1 0.999122 -81.32 0.999122 -81.32 0.041212 -171.6
8.79116000 0.041226 -171.1 0.999121 -81.32 0.999121 -81.32 0.041226 -171.6
8.79117000 0.041240 -171.1 0.999120 -81.32 0.999120 -81.32 0.041239 -171.6
8.79118000 0.041254 -171.1 0.999120 -81.32 0.999120 -81.32 0.041253 -171.6
8.79119000 0.041268 -171.1 0.999119 -81.32 0.999119 -81.32 0.041267 -171.6
8.79120000 0.041282 -171.1 0.999118 -81.33 0.999118 -81.33 0.041281 -171.6
8.79121000 0.041296 -171.1 0.999118 -81.33 0.999118 -81.33 0.041295 -171.7
8.79122000 0.041309 -171.1 0.999117 -81.33 0.999117 -81.33 0.041309 -171.7
8.79123000 0.041323 -171.1 0.999117 -81.33 0.999117 -81.33 0.041322 -171.7
8.79124000 0.041337 -171.1 0.999116 -81.33 0.999116 -81.33 0.041336 -171.7
8.79125000 0.041351 -171.1 0.999115 -81.33 0.999115 -81.33 0.041350 -171.7
8.79126000 0.041365 -171.1 0.999115 -81.33 0.999115 -81.33 0.041364 -171.7
8.79127000 0.041379 -171.1 0.999114 -81.33 0.999114 -81.33 0.041378 -171.7
8.79128000 0.041393 -171.1 0.999113 -81.33 0.999113 -81.33 0.041392 -171.7
8.79129000 0.041407 -171.1 0.999113 -81.33 0.999113 -81.33 0.041406 -171.7
8.79130000 0.041421 -171.1 0.999112 -81.33 0.999112 -81.33 0.041420 -171.7
8.79131000 0.041436 -171.1 0.999112 -81.34 0.999112 -81.34 0.041435 -171.7
8.79132000 0.041450 -171.1 0.999111 -81.34 0.999111 -81.34 0.041449 -171.7
8.79133000 0.041464 -171.1 0.999110 -81.34 0.999110 -81.34 0.041463 -171.7
8.79134000 0.041478 -171.1 0.999110 -81.34 0.999110 -81.34 0.041477 -171.7
8.79135000 0.041492 -171.1 0.999109 -81.34 0.999109 -81.34 0.041491 -171.7
8.79136000 0.041506 -171.1 0.999108 -81.34 0.999108 -81.34 0.041506 -171.7
8.79137000 0.041521 -171.1 0.999108 -81.34 0.999108 -81.34 0.041520 -171.7
8.79138000 0.041535 -171.1 0.999107 -81.34 0.999107 -81.34 0.041534 -171.7
8.79139000 0.041549 -171.1 0.999106 -81.34 0.999106 -81.34 0.041548 -171.7
8.79140000 0.041564 -171.1 0.999106 -81.34 0.999106 -81.34 0.041563 -171.7
8.79141000 0.041578 -171.1 0.999105 -81.34 0.999105 -81.34 0.041577 -171.7
8.79142000 0.041592 -171.1 0.999105 -81.35 0.999105 -81.35 0.041591 -171.7
8.79143000 0.041607 -171.1 0.999104 -81.35 0.999104 -81.35 0.041606 -171.7
8.79144000 0.041621 -171.1 0.999103 -81.35 0.999103 -81.35 0.041620 -171.7
8.79145000 0.041636 -171.1 0.999103 -81.35 0.999103 -81.35 0.041635 -171.7
8.79146000 0.041650 -171.1 0.999102 -81.35 0.999102 -81.35 0.041649 -171.7
8.79147000 0.041665 -171.1 0.999101 -81.35 0.999101 -81.35 0.041664 -171.7
8.79148000 0.041679 -171.1 0.999101 -81.35 0.999101 -81.35 0.041678 -171.7
8.79149000 0.041694 -171.1 0.999100 -81.35 0.999100 -81.35 0.041693 -171.7
8.79150000 0.041709 -171.1 0.999099 -81.35 0.999099 -81.35 0.041708 -171.7
8.79151000 0.041723 -171.1 0.999099 -81.35 0.999099 -81.35 0.041722 -171.7
8.79152000 0.041738 -171.1 0.999098 -81.35 0.999098 -81.35 0.041737 -171.7
8.79153000 0.041752 -171.1 0.999097 -81.36 0.999097 -81.36 0.041751 -171.7
8.79154000 0.041767 -171.1 0.999097 -81.36 0.999097 -81.36 0.041766 -171.7
8.79155000 0.041782 -171.1 0.999096 -81.36 0.999096 -81.36 0.041781 -171.7
8.79156000 0.041797 -171.1 0.999095 -81.36 0.999095 -81.36 0.041796 -171.7
8.79157000 0.041811 -171.1 0.999095 -81.36 0.999095 -81.36 0.041810 -171.7
8.79158000 0.041826 -171.1 0.999094 -81.36 0.999094 -81.36 0.041825 -171.7
8.79159000 0.041841 -171.1 0.999093 -81.36 0.999093 -81.36 0.041840 -171.7
8.79160000 0.041856 -171.1 0.999093 -81.36 0.999093 -81.36 0.041855 -171.7
8.79161000 0.041871 -171.1 0.999092 -81.36 0.999092 -81.36 0.041870 -171.7
8.79162000 0.041886 -171.1 0.999091 -81.36 0.999091 -81.36 0.041885 -171.7
8.79163000 0.041901 -171.1 0.999091 -81.36 0.999091 -81.36 0.041900 -171.7
8.79164000 0.041916 -171.1 0.999090 -81.37 0.999090 -81.37 0.041915 -171.7
8.79165000 0.041931 -171.1 0.999089 -81.37 0.999089 -81.37 0.041930 -171.7
8.79166000 0.041946 -171.1 0.999089 -81.37 0.999089 -81.37 0.041945 -171.7
8.79167000 0.041961 -171.1 0.999088 -81.37 0.999088 -81.37 0.041960 -171.7
8.79168000 0.041976 -171.1 0.999087 -81.37 0.999087 -81.37 0.041975 -171.7
8.79169000 0.041991 -171.1 0.999087 -81.37 0.999087 -81.37 0.041990 -171.7
8.79170000 0.042006 -171.1 0.999086 -81.37 0.999086 -81.37 0.042005 -171.7
8.79171000 0.042021 -171.1 0.999085 -81.37 0.999085 -81.37 0.042020 -171.7
8.79172000 0.042037 -171.1 0.999084 -81.37 0.999084 -81.37 0.042036 -171.7
8.79173000 0.042052 -171.1 0.999084 -81.37 0.999084 -81.37 0.042051 -171.7
8.79174000 0.042067 -171.1 0.999083 -81.38 0.999083 -81.38 0.042066 -171.7
8.79175000 0.042082 -171.1 0.999082 -81.38 0.999082 -81.38 0.042081 -171.7
8.79176000 0.042098 -171.1 0.999082 -81.38 0.999082 -81.38 0.042097 -171.7
8.79177000 0.042113 -171.1 0.999081 -81.38 0.999081 -81.38 0.042112 -171.7
8.79178000 0.042128 -171.1 0.999080 -81.38 0.999080 -81.38 0.042127 -171.7
8.79179000 0.042144 -171.1 0.999080 -81.38 0.999080 -81.38 0.042143 -171.7
8.79180000 0.042159 -171.1 0.999079 -81.38 0.999079 -81.38 0.042158 -171.7
8.79181000 0.042175 -171.1 0.999078 -81.38 0.999078 -81.38 0.042174 -171.7
8.79182000 0.042190 -171.1 0.999077 -81.38 0.999077 -81.38 0.042189 -171.7
8.79183000 0.042206 -171.1 0.999077 -81.38 0.999077 -81.38 0.042205 -171.7
8.79184000 0.042221 -171.1 0.999076 -81.39 0.999076 -81.39 0.042220 -171.7
8.79185000 0.042237 -171.1 0.999075 -81.39 0.999075 -81.39 0.042236 -171.7
8.79186000 0.042252 -171.1 0.999075 -81.39 0.999075 -81.39 0.042251 -171.7
8.79187000 0.042268 -171.1 0.999074 -81.39 0.999074 -81.39 0.042267 -171.7
8.79188000 0.042284 -171.1 0.999073 -81.39 0.999073 -81.39 0.042283 -171.7
8.79189000 0.042299 -171.1 0.999072 -81.39 0.999072 -81.39 0.042298 -171.7
8.79190000 0.042315 -171.1 0.999072 -81.39 0.999072 -81.39 0.042314 -171.7
8.79191000 0.042331 -171.1 0.999071 -81.39 0.999071 -81.39 0.042330 -171.7
8.79192000 0.042347 -171.1 0.999070 -81.39 0.999070 -81.39 0.042346 -171.7
8.79193000 0.042362 -171.1 0.999070 -81.39 0.999070 -81.39 0.042361 -171.7
8.79194000 0.042378 -171.1 0.999069 -81.39 0.999069 -81.39 0.042377 -171.8
8.79195000 0.042394 -171.1 0.999068 -81.40 0.999068 -81.40 0.042393 -171.8
8.79196000 0.042410 -171.1 0.999067 -81.40 0.999067 -81.40 0.042409 -171.8
8.79197000 0.042426 -171.1 0.999067 -81.40 0.999067 -81.40 0.042425 -171.8
8.79198000 0.042442 -171.1 0.999066 -81.40 0.999066 -81.40 0.042441 -171.8
8.79199000 0.042458 -171.1 0.999065 -81.40 0.999065 -81.40 0.042457 -171.8
8.79200000 0.042474 -171.1 0.999064 -81.40 0.999064 -81.40 0.042473 -171.8
8.79201000 0.042490 -171.1 0.999064 -81.40 0.999064 -81.40 0.042489 -171.8
8.79202000 0.042506 -171.1 0.999063 -81.40 0.999063 -81.40 0.042505 -171.8
8.79203000 0.042522 -171.1 0.999062 -81.40 0.999062 -81.40 0.042521 -171.8
8.79204000 0.042538 -171.1 0.999061 -81.41 0.999061 -81.41 0.042537 -171.8
8.79205000 0.042554 -171.1 0.999061 -81.41 0.999061 -81.41 0.042553 -171.8
8.79206000 0.042571 -171.1 0.999060 -81.41 0.999060 -81.41 0.042570 -171.8
8.79207000 0.042587 -171.1 0.999059 -81.41 0.999059 -81.41 0.042586 -171.8
8.79208000 0.042603 -171.1 0.999058 -81.41 0.999058 -81.41 0.042602 -171.8
8.79209000 0.042619 -171.1 0.999058 -81.41 0.999058 -81.41 0.042618 -171.8
8.79210000 0.042636 -171.1 0.999057 -81.41 0.999057 -81.41 0.042635 -171.8
8.79211000 0.042652 -171.1 0.999056 -81.41 0.999056 -81.41 0.042651 -171.8
8.79212000 0.042668 -171.1 0.999055 -81.41 0.999055 -81.41 0.042667 -171.8
8.79213000 0.042685 -171.1 0.999055 -81.41 0.999055 -81.41 0.042684 -171.8
8.79214000 0.042701 -171.1 0.999054 -81.42 0.999054 -81.42 0.042700 -171.8
8.79215000 0.042718 -171.1 0.999053 -81.42 0.999053 -81.42 0.042717 -171.8
8.79216000 0.042734 -171.1 0.999052 -81.42 0.999052 -81.42 0.042733 -171.8
8.79217000 0.042751 -171.1 0.999052 -81.42 0.999052 -81.42 0.042750 -171.8
8.79218000 0.042767 -171.1 0.999051 -81.42 0.999051 -81.42 0.042766 -171.8
8.79219000 0.042784 -171.1 0.999050 -81.42 0.999050 -81.42 0.042783 -171.8
8.79220000 0.042801 -171.1 0.999049 -81.42 0.999049 -81.42 0.042800 -171.8
8.79221000 0.042817 -171.1 0.999049 -81.42 0.999049 -81.42 0.042816 -171.8
8.79222000 0.042834 -171.1 0.999048 -81.42 0.999048 -81.42 0.042833 -171.8
8.79223000 0.042851 -171.1 0.999047 -81.42 0.999047 -81.42 0.042850 -171.8
8.79224000 0.042868 -171.1 0.999046 -81.43 0.999046 -81.43 0.042867 -171.8
8.79225000 0.042884 -171.1 0.999045 -81.43 0.999045 -81.43 0.042883 -171.8
8.79226000 0.042901 -171.1 0.999045 -81.43 0.999045 -81.43 0.042900 -171.8
8.79227000 0.042918 -171.1 0.999044 -81.43 0.999044 -81.43 0.042917 -171.8
8.79228000 0.042935 -171.1 0.999043 -81.43 0.999043 -81.43 0.042934 -171.8
8.79229000 0.042952 -171.1 0.999042 -81.43 0.999042 -81.43 0.042951 -171.8
8.79230000 0.042969 -171.1 0.999042 -81.43 0.999042 -81.43 0.042968 -171.8
8.79231000 0.042986 -171.2 0.999041 -81.43 0.999041 -81.43 0.042985 -171.8
8.79232000 0.043003 -171.2 0.999040 -81.43 0.999040 -81.43 0.043002 -171.8
8.79233000 0.043020 -171.2 0.999039 -81.44 0.999039 -81.44 0.043019 -171.8
8.79234000 0.043037 -171.2 0.999038 -81.44 0.999038 -81.44 0.043036 -171.8
8.79235000 0.043054 -171.2 0.999038 -81.44 0.999038 -81.44 0.043053 -171.8
8.79236000 0.043071 -171.2 0.999037 -81.44 0.999037 -81.44 0.043070 -171.8
8.79237000 0.043089 -171.2 0.999036 -81.44 0.999036 -81.44 0.043088 -171.8
8.79238000 0.043106 -171.2 0.999035 -81.44 0.999035 -81.44 0.043105 -171.8
8.79239000 0.043123 -171.2 0.999034 -81.44 0.999034 -81.44 0.043122 -171.8
8.79240000 0.043140 -171.2 0.999033 -81.44 0.999033 -81.44 0.043139 -171.8
8.79241000 0.043158 -171.2 0.999033 -81.44 0.999033 -81.44 0.043157 -171.8
8.79242000 0.043175 -171.2 0.999032 -81.45 0.999032 -81.45 0.043174 -171.8
8.79243000 0.043193 -171.2 0.999031 -81.45 0.999031 -81.45 0.043191 -171.8
8.79244000 0.043210 -171.2 0.999030 -81.45 0.999030 -81.45 0.043209 -171.8
8.79245000 0.043227 -171.2 0.999029 -81.45 0.999029 -81.45 0.043226 -171.8
8.79246000 0.043245 -171.2 0.999029 -81.45 0.999029 -81.45 0.043244 -171.8
8.79247000 0.043263 -171.2 0.999028 -81.45 0.999028 -81.45 0.043261 -171.8
8.79248000 0.043280 -171.2 0.999027 -81.45 0.999027 -81.45 0.043279 -171.8
8.79249000 0.043298 -171.2 0.999026 -81.45 0.999026 -81.45 0.043297 -171.8
8.79250000 0.043315 -171.2 0.999025 -81.45 0.999025 -81.45 0.043314 -171.8
8.79251000 0.043333 -171.2 0.999024 -81.45 0.999024 -81.45 0.043332 -171.8
8.79252000 0.043351 -171.2 0.999024 -81.46 0.999024 -81.46 0.043350 -171.8
8.79253000 0.043369 -171.2 0.999023 -81.46 0.999023 -81.46 0.043367 -171.8
8.79254000 0.043386 -171.2 0.999022 -81.46 0.999022 -81.46 0.043385 -171.8
8.79255000 0.043404 -171.2 0.999021 -81.46 0.999021 -81.46 0.043403 -171.8
8.79256000 0.043422 -171.2 0.999020 -81.46 0.999020 -81.46 0.043421 -171.8
8.79257000 0.043440 -171.2 0.999019 -81.46 0.999019 -81.46 0.043439 -171.8
8.79258000 0.043458 -171.2 0.999019 -81.46 0.999019 -81.46 0.043457 -171.8
8.79259000 0.043476 -171.2 0.999018 -81.46 0.999018 -81.46 0.043475 -171.8
