! Sonnet Data File
! From: emgraph Version : 16.52
! From Project: Resonator2_extremeCap
! Data is De-embedded 
! Data File Written: 10/11/2017 17:55:28
!< HDATE 10/10/2017 20:37:37
!< MDATE 10/10/2017 20:37:37
!< PARAMS
!< Pwid1 = 2000.0
!< Pwid2 = 2000.0
!< Air_gap = 6.0
!< Width = 10.0
!< Gap = 60.0
!< END PARAMS
# GHZ S MA R 50.70000
8.95000000 0.138248 0.9944 0.990393 -87.43 0.990393 -87.43 0.138246 4.1472
!< P1 F=8.95 Eeff=(6.4467035 -2.972e-5) Z0=(51.7988068 1.1952e-4) R=0.0 C=0.0 
!< P2 F=8.95 Eeff=(6.4467035 -2.972e-5) Z0=(51.7988068 1.1952e-4) R=0.0 C=0.0 
8.95020000 0.138259 0.9953 0.990391 -87.43 0.990391 -87.43 0.138257 4.1410
8.95040000 0.138270 0.9961 0.990390 -87.44 0.990390 -87.44 0.138268 4.1347
8.95060000 0.138281 0.9970 0.990388 -87.44 0.990388 -87.44 0.138279 4.1285
8.95080000 0.138292 0.9979 0.990387 -87.44 0.990387 -87.44 0.138290 4.1222
8.95100000 0.138303 0.9988 0.990385 -87.44 0.990385 -87.44 0.138302 4.1160
8.95120000 0.138314 0.9997 0.990384 -87.45 0.990384 -87.45 0.138313 4.1097
8.95140000 0.138326 1.0007 0.990382 -87.45 0.990382 -87.45 0.138324 4.1034
8.95160000 0.138337 1.0016 0.990381 -87.45 0.990381 -87.45 0.138335 4.0971
8.95180000 0.138348 1.0025 0.990379 -87.45 0.990379 -87.45 0.138346 4.0907
8.95200000 0.138359 1.0035 0.990377 -87.46 0.990377 -87.46 0.138358 4.0844
8.95220000 0.138371 1.0045 0.990376 -87.46 0.990376 -87.46 0.138369 4.0780
8.95240000 0.138382 1.0054 0.990374 -87.46 0.990374 -87.46 0.138380 4.0717
8.95260000 0.138393 1.0064 0.990373 -87.46 0.990373 -87.46 0.138391 4.0653
8.95280000 0.138405 1.0074 0.990371 -87.47 0.990371 -87.47 0.138403 4.0589
8.95300000 0.138416 1.0084 0.990369 -87.47 0.990369 -87.47 0.138414 4.0525
8.95320000 0.138427 1.0094 0.990368 -87.47 0.990368 -87.47 0.138426 4.0461
8.95340000 0.138439 1.0104 0.990366 -87.48 0.990366 -87.48 0.138437 4.0397
8.95360000 0.138450 1.0114 0.990365 -87.48 0.990365 -87.48 0.138448 4.0332
8.95380000 0.138462 1.0125 0.990363 -87.48 0.990363 -87.48 0.138460 4.0267
8.95400000 0.138473 1.0135 0.990361 -87.48 0.990361 -87.48 0.138471 4.0203
8.95420000 0.138485 1.0146 0.990360 -87.49 0.990360 -87.49 0.138483 4.0138
8.95440000 0.138496 1.0156 0.990358 -87.49 0.990358 -87.49 0.138494 4.0073
8.95460000 0.138508 1.0167 0.990357 -87.49 0.990357 -87.49 0.138506 4.0008
8.95480000 0.138519 1.0178 0.990355 -87.49 0.990355 -87.49 0.138518 3.9942
8.95500000 0.138531 1.0189 0.990353 -87.50 0.990353 -87.50 0.138529 3.9877
8.95520000 0.138543 1.0200 0.990352 -87.50 0.990352 -87.50 0.138541 3.9811
8.95540000 0.138554 1.0211 0.990350 -87.50 0.990350 -87.50 0.138553 3.9745
8.95560000 0.138566 1.0222 0.990348 -87.51 0.990348 -87.51 0.138564 3.9680
8.95580000 0.138578 1.0233 0.990347 -87.51 0.990347 -87.51 0.138576 3.9614
8.95600000 0.138590 1.0245 0.990345 -87.51 0.990345 -87.51 0.138588 3.9547
8.95620000 0.138601 1.0256 0.990343 -87.51 0.990343 -87.51 0.138600 3.9481
8.95640000 0.138613 1.0268 0.990342 -87.52 0.990342 -87.52 0.138611 3.9415
8.95660000 0.138625 1.0279 0.990340 -87.52 0.990340 -87.52 0.138623 3.9348
8.95680000 0.138637 1.0291 0.990338 -87.52 0.990338 -87.52 0.138635 3.9281
8.95700000 0.138649 1.0303 0.990337 -87.52 0.990337 -87.52 0.138647 3.9214
8.95720000 0.138661 1.0315 0.990335 -87.53 0.990335 -87.53 0.138659 3.9147
8.95740000 0.138673 1.0327 0.990333 -87.53 0.990333 -87.53 0.138671 3.9080
8.95760000 0.138685 1.0340 0.990332 -87.53 0.990332 -87.53 0.138683 3.9013
8.95780000 0.138697 1.0352 0.990330 -87.54 0.990330 -87.54 0.138695 3.8945
8.95800000 0.138709 1.0364 0.990328 -87.54 0.990328 -87.54 0.138707 3.8877
8.95820000 0.138721 1.0377 0.990327 -87.54 0.990327 -87.54 0.138719 3.8810
8.95840000 0.138733 1.0389 0.990325 -87.54 0.990325 -87.54 0.138731 3.8742
8.95860000 0.138745 1.0402 0.990323 -87.55 0.990323 -87.55 0.138743 3.8673
!< P1 F=8.9586 Eeff=(6.44669803 -2.972e-5) Z0=(51.79878 1.1952e-4) R=0.0 C=0.0 
!< P2 F=8.9586 Eeff=(6.44669803 -2.972e-5) Z0=(51.79878 1.1952e-4) R=0.0 C=0.0 
8.95880000 0.138757 1.0415 0.990322 -87.55 0.990322 -87.55 0.138755 3.8605
8.95900000 0.138769 1.0428 0.990320 -87.55 0.990320 -87.55 0.138767 3.8537
8.95920000 0.138782 1.0441 0.990318 -87.55 0.990318 -87.55 0.138780 3.8468
8.95940000 0.138794 1.0454 0.990316 -87.56 0.990316 -87.56 0.138792 3.8399
8.95960000 0.138806 1.0467 0.990315 -87.56 0.990315 -87.56 0.138804 3.8330
8.95980000 0.138818 1.0481 0.990313 -87.56 0.990313 -87.56 0.138816 3.8261
8.96000000 0.138831 1.0494 0.990311 -87.57 0.990311 -87.57 0.138829 3.8192
8.96020000 0.138843 1.0508 0.990309 -87.57 0.990309 -87.57 0.138841 3.8123
8.96040000 0.138855 1.0521 0.990308 -87.57 0.990308 -87.57 0.138853 3.8053
8.96060000 0.138868 1.0535 0.990306 -87.57 0.990306 -87.57 0.138866 3.7983
8.96080000 0.138880 1.0549 0.990304 -87.58 0.990304 -87.58 0.138878 3.7914
8.96100000 0.138893 1.0563 0.990302 -87.58 0.990302 -87.58 0.138891 3.7844
8.96120000 0.138905 1.0577 0.990301 -87.58 0.990301 -87.58 0.138903 3.7773
8.96140000 0.138918 1.0592 0.990299 -87.59 0.990299 -87.59 0.138916 3.7703
8.96160000 0.138930 1.0606 0.990297 -87.59 0.990297 -87.59 0.138928 3.7632
8.96180000 0.138943 1.0620 0.990295 -87.59 0.990295 -87.59 0.138941 3.7562
8.96200000 0.138956 1.0635 0.990294 -87.59 0.990294 -87.59 0.138954 3.7491
8.96220000 0.138968 1.0650 0.990292 -87.60 0.990292 -87.60 0.138966 3.7420
8.96240000 0.138981 1.0664 0.990290 -87.60 0.990290 -87.60 0.138979 3.7349
8.96260000 0.138994 1.0679 0.990288 -87.60 0.990288 -87.60 0.138992 3.7277
8.96280000 0.139006 1.0694 0.990287 -87.61 0.990287 -87.61 0.139004 3.7206
8.96300000 0.139019 1.0710 0.990285 -87.61 0.990285 -87.61 0.139017 3.7134
8.96320000 0.139032 1.0725 0.990283 -87.61 0.990283 -87.61 0.139030 3.7062
8.96340000 0.139045 1.0740 0.990281 -87.61 0.990281 -87.61 0.139043 3.6990
8.96360000 0.139058 1.0756 0.990279 -87.62 0.990279 -87.62 0.139056 3.6918
8.96380000 0.139071 1.0771 0.990277 -87.62 0.990277 -87.62 0.139069 3.6845
8.96400000 0.139084 1.0787 0.990276 -87.62 0.990276 -87.62 0.139081 3.6773
8.96420000 0.139097 1.0803 0.990274 -87.63 0.990274 -87.63 0.139094 3.6700
8.96440000 0.139110 1.0819 0.990272 -87.63 0.990272 -87.63 0.139107 3.6627
8.96460000 0.139123 1.0835 0.990270 -87.63 0.990270 -87.63 0.139120 3.6554
8.96480000 0.139136 1.0851 0.990268 -87.63 0.990268 -87.63 0.139134 3.6481
8.96500000 0.139149 1.0868 0.990266 -87.64 0.990266 -87.64 0.139147 3.6407
8.96520000 0.139162 1.0884 0.990265 -87.64 0.990265 -87.64 0.139160 3.6333
8.96540000 0.139175 1.0901 0.990263 -87.64 0.990263 -87.64 0.139173 3.6260
8.96560000 0.139188 1.0917 0.990261 -87.65 0.990261 -87.65 0.139186 3.6185
8.96580000 0.139202 1.0934 0.990259 -87.65 0.990259 -87.65 0.139199 3.6111
8.96600000 0.139215 1.0951 0.990257 -87.65 0.990257 -87.65 0.139213 3.6037
8.96620000 0.139228 1.0968 0.990255 -87.65 0.990255 -87.65 0.139226 3.5962
8.96640000 0.139241 1.0986 0.990253 -87.66 0.990253 -87.66 0.139239 3.5887
8.96660000 0.139255 1.1003 0.990252 -87.66 0.990252 -87.66 0.139253 3.5813
8.96680000 0.139268 1.1020 0.990250 -87.66 0.990250 -87.66 0.139266 3.5737
8.96700000 0.139282 1.1038 0.990248 -87.67 0.990248 -87.67 0.139279 3.5662
8.96720000 0.139295 1.1056 0.990246 -87.67 0.990246 -87.67 0.139293 3.5586
8.96740000 0.139309 1.1074 0.990244 -87.67 0.990244 -87.67 0.139306 3.5511
8.96760000 0.139322 1.1092 0.990242 -87.67 0.990242 -87.67 0.139320 3.5435
8.96780000 0.139336 1.1110 0.990240 -87.68 0.990240 -87.68 0.139334 3.5359
8.96800000 0.139349 1.1128 0.990238 -87.68 0.990238 -87.68 0.139347 3.5282
8.96820000 0.139363 1.1146 0.990236 -87.68 0.990236 -87.68 0.139361 3.5206
8.96840000 0.139377 1.1165 0.990234 -87.69 0.990234 -87.69 0.139375 3.5129
8.96860000 0.139391 1.1184 0.990232 -87.69 0.990232 -87.69 0.139388 3.5052
8.96880000 0.139404 1.1202 0.990230 -87.69 0.990230 -87.69 0.139402 3.4975
8.96900000 0.139418 1.1221 0.990228 -87.69 0.990228 -87.69 0.139416 3.4898
8.96920000 0.139432 1.1240 0.990227 -87.70 0.990227 -87.70 0.139430 3.4820
8.96940000 0.139446 1.1260 0.990225 -87.70 0.990225 -87.70 0.139444 3.4743
8.96960000 0.139460 1.1279 0.990223 -87.70 0.990223 -87.70 0.139457 3.4665
8.96980000 0.139474 1.1298 0.990221 -87.71 0.990221 -87.71 0.139471 3.4587
8.97000000 0.139488 1.1318 0.990219 -87.71 0.990219 -87.71 0.139485 3.4508
8.97020000 0.139502 1.1338 0.990217 -87.71 0.990217 -87.71 0.139499 3.4430
8.97040000 0.139516 1.1358 0.990215 -87.71 0.990215 -87.71 0.139513 3.4351
8.97060000 0.139530 1.1378 0.990213 -87.72 0.990213 -87.72 0.139528 3.4272
8.97080000 0.139544 1.1398 0.990211 -87.72 0.990211 -87.72 0.139542 3.4193
8.97100000 0.139558 1.1418 0.990209 -87.72 0.990209 -87.72 0.139556 3.4114
8.97120000 0.139573 1.1439 0.990207 -87.73 0.990207 -87.73 0.139570 3.4034
8.97140000 0.139587 1.1459 0.990205 -87.73 0.990205 -87.73 0.139584 3.3955
8.97160000 0.139601 1.1480 0.990203 -87.73 0.990203 -87.73 0.139599 3.3875
8.97180000 0.139615 1.1501 0.990201 -87.74 0.990201 -87.74 0.139613 3.3794
8.97200000 0.139630 1.1522 0.990199 -87.74 0.990199 -87.74 0.139627 3.3714
8.97220000 0.139644 1.1543 0.990197 -87.74 0.990197 -87.74 0.139642 3.3633
8.97240000 0.139659 1.1564 0.990194 -87.74 0.990194 -87.74 0.139656 3.3552
8.97260000 0.139673 1.1586 0.990192 -87.75 0.990192 -87.75 0.139671 3.3471
8.97280000 0.139688 1.1607 0.990190 -87.75 0.990190 -87.75 0.139685 3.3390
8.97300000 0.139702 1.1629 0.990188 -87.75 0.990188 -87.75 0.139700 3.3309
8.97320000 0.139717 1.1651 0.990186 -87.76 0.990186 -87.76 0.139714 3.3227
8.97340000 0.139732 1.1673 0.990184 -87.76 0.990184 -87.76 0.139729 3.3145
8.97360000 0.139746 1.1695 0.990182 -87.76 0.990182 -87.76 0.139744 3.3063
8.97380000 0.139761 1.1718 0.990180 -87.77 0.990180 -87.77 0.139759 3.2980
8.97400000 0.139776 1.1740 0.990178 -87.77 0.990178 -87.77 0.139773 3.2898
8.97420000 0.139791 1.1763 0.990176 -87.77 0.990176 -87.77 0.139788 3.2815
8.97440000 0.139806 1.1786 0.990174 -87.77 0.990174 -87.77 0.139803 3.2732
8.97460000 0.139821 1.1809 0.990172 -87.78 0.990172 -87.78 0.139818 3.2648
8.97480000 0.139836 1.1832 0.990169 -87.78 0.990169 -87.78 0.139833 3.2565
8.97500000 0.139851 1.1855 0.990167 -87.78 0.990167 -87.78 0.139848 3.2481
8.97520000 0.139866 1.1879 0.990165 -87.79 0.990165 -87.79 0.139863 3.2397
8.97540000 0.139881 1.1902 0.990163 -87.79 0.990163 -87.79 0.139878 3.2313
8.97560000 0.139896 1.1926 0.990161 -87.79 0.990161 -87.79 0.139893 3.2228
8.97580000 0.139911 1.1950 0.990159 -87.80 0.990159 -87.80 0.139908 3.2144
8.97600000 0.139926 1.1974 0.990157 -87.80 0.990157 -87.80 0.139924 3.2059
8.97620000 0.139942 1.1998 0.990154 -87.80 0.990154 -87.80 0.139939 3.1973
8.97640000 0.139957 1.2023 0.990152 -87.80 0.990152 -87.80 0.139954 3.1888
8.97660000 0.139972 1.2047 0.990150 -87.81 0.990150 -87.81 0.139970 3.1802
8.97680000 0.139988 1.2072 0.990148 -87.81 0.990148 -87.81 0.139985 3.1716
8.97700000 0.140003 1.2097 0.990146 -87.81 0.990146 -87.81 0.140001 3.1630
8.97720000 0.140019 1.2122 0.990143 -87.82 0.990143 -87.82 0.140016 3.1544
8.97740000 0.140034 1.2147 0.990141 -87.82 0.990141 -87.82 0.140032 3.1457
8.97760000 0.140050 1.2173 0.990139 -87.82 0.990139 -87.82 0.140047 3.1370
8.97780000 0.140066 1.2198 0.990137 -87.83 0.990137 -87.83 0.140063 3.1283
8.97800000 0.140081 1.2224 0.990135 -87.83 0.990135 -87.83 0.140079 3.1195
8.97820000 0.140097 1.2250 0.990132 -87.83 0.990132 -87.83 0.140094 3.1108
8.97840000 0.140113 1.2276 0.990130 -87.84 0.990130 -87.84 0.140110 3.1020
8.97860000 0.140129 1.2303 0.990128 -87.84 0.990128 -87.84 0.140126 3.0931
8.97880000 0.140145 1.2329 0.990126 -87.84 0.990126 -87.84 0.140142 3.0843
8.97900000 0.140161 1.2356 0.990123 -87.84 0.990123 -87.84 0.140158 3.0754
8.97920000 0.140177 1.2382 0.990121 -87.85 0.990121 -87.85 0.140174 3.0665
8.97940000 0.140193 1.2409 0.990119 -87.85 0.990119 -87.85 0.140190 3.0576
8.97960000 0.140209 1.2437 0.990116 -87.85 0.990116 -87.85 0.140206 3.0486
8.97980000 0.140225 1.2464 0.990114 -87.86 0.990114 -87.86 0.140222 3.0397
8.98000000 0.140241 1.2492 0.990112 -87.86 0.990112 -87.86 0.140238 3.0306
8.98020000 0.140257 1.2519 0.990110 -87.86 0.990110 -87.86 0.140254 3.0216
8.98040000 0.140274 1.2547 0.990107 -87.87 0.990107 -87.87 0.140271 3.0126
8.98060000 0.140290 1.2575 0.990105 -87.87 0.990105 -87.87 0.140287 3.0035
8.98080000 0.140306 1.2603 0.990103 -87.87 0.990103 -87.87 0.140303 2.9943
8.98100000 0.140323 1.2632 0.990100 -87.88 0.990100 -87.88 0.140320 2.9852
8.98120000 0.140339 1.2661 0.990098 -87.88 0.990098 -87.88 0.140336 2.9760
8.98140000 0.140356 1.2689 0.990096 -87.88 0.990096 -87.88 0.140353 2.9668
8.98160000 0.140373 1.2718 0.990093 -87.89 0.990093 -87.89 0.140370 2.9576
8.98180000 0.140389 1.2748 0.990091 -87.89 0.990091 -87.89 0.140386 2.9484
8.98200000 0.140406 1.2777 0.990088 -87.89 0.990088 -87.89 0.140403 2.9391
8.98220000 0.140423 1.2807 0.990086 -87.90 0.990086 -87.90 0.140420 2.9298
8.98240000 0.140440 1.2836 0.990084 -87.90 0.990084 -87.90 0.140436 2.9204
8.98260000 0.140456 1.2866 0.990081 -87.90 0.990081 -87.90 0.140453 2.9110
8.98280000 0.140473 1.2896 0.990079 -87.90 0.990079 -87.90 0.140470 2.9016
8.98300000 0.140490 1.2927 0.990076 -87.91 0.990076 -87.91 0.140487 2.8922
8.98320000 0.140507 1.2957 0.990074 -87.91 0.990074 -87.91 0.140504 2.8828
8.98340000 0.140525 1.2988 0.990072 -87.91 0.990072 -87.91 0.140521 2.8733
8.98360000 0.140542 1.3019 0.990069 -87.92 0.990069 -87.92 0.140539 2.8638
8.98380000 0.140559 1.3050 0.990067 -87.92 0.990067 -87.92 0.140556 2.8542
8.98400000 0.140576 1.3082 0.990064 -87.92 0.990064 -87.92 0.140573 2.8446
8.98420000 0.140594 1.3113 0.990062 -87.93 0.990062 -87.93 0.140590 2.8350
8.98440000 0.140611 1.3145 0.990059 -87.93 0.990059 -87.93 0.140608 2.8254
8.98460000 0.140628 1.3177 0.990057 -87.93 0.990057 -87.93 0.140625 2.8157
8.98480000 0.140646 1.3209 0.990054 -87.94 0.990054 -87.94 0.140643 2.8060
8.98500000 0.140664 1.3241 0.990052 -87.94 0.990052 -87.94 0.140660 2.7963
8.98520000 0.140681 1.3274 0.990049 -87.94 0.990049 -87.94 0.140678 2.7865
8.98540000 0.140699 1.3307 0.990047 -87.95 0.990047 -87.95 0.140696 2.7767
8.98560000 0.140717 1.3340 0.990044 -87.95 0.990044 -87.95 0.140713 2.7669
8.98580000 0.140734 1.3373 0.990042 -87.95 0.990042 -87.95 0.140731 2.7570
8.98600000 0.140752 1.3406 0.990039 -87.96 0.990039 -87.96 0.140749 2.7472
8.98620000 0.140770 1.3440 0.990037 -87.96 0.990037 -87.96 0.140767 2.7372
8.98640000 0.140788 1.3474 0.990034 -87.96 0.990034 -87.96 0.140785 2.7273
8.98660000 0.140806 1.3508 0.990031 -87.97 0.990031 -87.97 0.140803 2.7173
8.98680000 0.140824 1.3542 0.990029 -87.97 0.990029 -87.97 0.140821 2.7073
8.98700000 0.140843 1.3577 0.990026 -87.97 0.990026 -87.97 0.140839 2.6972
8.98720000 0.140861 1.3612 0.990024 -87.98 0.990024 -87.98 0.140857 2.6871
8.98740000 0.140879 1.3647 0.990021 -87.98 0.990021 -87.98 0.140876 2.6770
8.98760000 0.140898 1.3682 0.990018 -87.98 0.990018 -87.98 0.140894 2.6669
8.98780000 0.140916 1.3717 0.990016 -87.99 0.990016 -87.99 0.140913 2.6567
8.98800000 0.140934 1.3753 0.990013 -87.99 0.990013 -87.99 0.140931 2.6465
8.98820000 0.140953 1.3789 0.990010 -87.99 0.990010 -87.99 0.140950 2.6362
8.98840000 0.140972 1.3825 0.990008 -88.00 0.990008 -88.00 0.140968 2.6259
8.98860000 0.140990 1.3861 0.990005 -88.00 0.990005 -88.00 0.140987 2.6156
8.98880000 0.141009 1.3898 0.990002 -88.00 0.990002 -88.00 0.141006 2.6053
8.98900000 0.141028 1.3935 0.990000 -88.01 0.990000 -88.01 0.141024 2.5949
8.98920000 0.141047 1.3972 0.989997 -88.01 0.989997 -88.01 0.141043 2.5844
8.98940000 0.141066 1.4009 0.989994 -88.01 0.989994 -88.01 0.141062 2.5740
8.98960000 0.141085 1.4046 0.989992 -88.02 0.989992 -88.02 0.141081 2.5635
8.98980000 0.141104 1.4084 0.989989 -88.02 0.989989 -88.02 0.141100 2.5529
8.99000000 0.141123 1.4122 0.989986 -88.02 0.989986 -88.02 0.141120 2.5424
8.99020000 0.141143 1.4160 0.989983 -88.03 0.989983 -88.03 0.141139 2.5318
8.99040000 0.141162 1.4199 0.989981 -88.03 0.989981 -88.03 0.141158 2.5211
8.99060000 0.141181 1.4238 0.989978 -88.03 0.989978 -88.03 0.141178 2.5104
8.99080000 0.141201 1.4277 0.989975 -88.04 0.989975 -88.04 0.141197 2.4997
8.99100000 0.141220 1.4316 0.989972 -88.04 0.989972 -88.04 0.141217 2.4890
8.99120000 0.141240 1.4355 0.989969 -88.04 0.989969 -88.04 0.141236 2.4782
8.99140000 0.141260 1.4395 0.989967 -88.05 0.989967 -88.05 0.141256 2.4673
8.99160000 0.141279 1.4435 0.989964 -88.05 0.989964 -88.05 0.141276 2.4565
8.99180000 0.141299 1.4475 0.989961 -88.05 0.989961 -88.05 0.141295 2.4456
8.99200000 0.141319 1.4516 0.989958 -88.06 0.989958 -88.06 0.141315 2.4346
8.99220000 0.141339 1.4557 0.989955 -88.06 0.989955 -88.06 0.141335 2.4236
8.99240000 0.141359 1.4598 0.989952 -88.06 0.989952 -88.06 0.141355 2.4126
8.99260000 0.141379 1.4639 0.989949 -88.07 0.989949 -88.07 0.141375 2.4015
8.99280000 0.141399 1.4680 0.989947 -88.07 0.989947 -88.07 0.141396 2.3904
8.99300000 0.141420 1.4722 0.989944 -88.07 0.989944 -88.07 0.141416 2.3793
8.99320000 0.141440 1.4764 0.989941 -88.08 0.989941 -88.08 0.141436 2.3681
8.99340000 0.141461 1.4807 0.989938 -88.08 0.989938 -88.08 0.141457 2.3569
8.99360000 0.141481 1.4849 0.989935 -88.08 0.989935 -88.08 0.141477 2.3456
8.99380000 0.141502 1.4892 0.989932 -88.09 0.989932 -88.09 0.141498 2.3343
8.99400000 0.141522 1.4935 0.989929 -88.09 0.989929 -88.09 0.141518 2.3230
8.99420000 0.141543 1.4979 0.989926 -88.10 0.989926 -88.10 0.141539 2.3116
8.99440000 0.141564 1.5022 0.989923 -88.10 0.989923 -88.10 0.141560 2.3002
8.99460000 0.141585 1.5066 0.989920 -88.10 0.989920 -88.10 0.141581 2.2887
8.99480000 0.141606 1.5111 0.989917 -88.11 0.989917 -88.11 0.141602 2.2772
8.99500000 0.141627 1.5155 0.989914 -88.11 0.989914 -88.11 0.141623 2.2656
8.99520000 0.141648 1.5200 0.989911 -88.11 0.989911 -88.11 0.141644 2.2541
8.99540000 0.141670 1.5245 0.989908 -88.12 0.989908 -88.12 0.141665 2.2424
8.99560000 0.141691 1.5291 0.989905 -88.12 0.989905 -88.12 0.141687 2.2307
8.99580000 0.141712 1.5336 0.989902 -88.12 0.989902 -88.12 0.141708 2.2190
8.99600000 0.141734 1.5382 0.989899 -88.13 0.989899 -88.13 0.141730 2.2072
8.99620000 0.141755 1.5429 0.989895 -88.13 0.989895 -88.13 0.141751 2.1954
8.99640000 0.141777 1.5475 0.989892 -88.13 0.989892 -88.13 0.141773 2.1836
8.99660000 0.141799 1.5522 0.989889 -88.14 0.989889 -88.14 0.141795 2.1717
8.99680000 0.141821 1.5569 0.989886 -88.14 0.989886 -88.14 0.141816 2.1597
8.99700000 0.141843 1.5617 0.989883 -88.15 0.989883 -88.15 0.141838 2.1477
8.99720000 0.141865 1.5664 0.989880 -88.15 0.989880 -88.15 0.141860 2.1357
8.99740000 0.141887 1.5713 0.989877 -88.15 0.989877 -88.15 0.141883 2.1236
8.99760000 0.141909 1.5761 0.989873 -88.16 0.989873 -88.16 0.141905 2.1115
8.99780000 0.141931 1.5810 0.989870 -88.16 0.989870 -88.16 0.141927 2.0993
8.99800000 0.141954 1.5859 0.989867 -88.16 0.989867 -88.16 0.141949 2.0871
8.99820000 0.141976 1.5908 0.989864 -88.17 0.989864 -88.17 0.141972 2.0748
8.99840000 0.141999 1.5958 0.989860 -88.17 0.989860 -88.17 0.141995 2.0625
8.99860000 0.142022 1.6008 0.989857 -88.17 0.989857 -88.17 0.142017 2.0501
8.99880000 0.142044 1.6058 0.989854 -88.18 0.989854 -88.18 0.142040 2.0377
8.99900000 0.142067 1.6108 0.989851 -88.18 0.989851 -88.18 0.142063 2.0252
8.99920000 0.142090 1.6159 0.989847 -88.19 0.989847 -88.19 0.142086 2.0127
8.99940000 0.142113 1.6211 0.989844 -88.19 0.989844 -88.19 0.142109 2.0001
8.99960000 0.142137 1.6262 0.989841 -88.19 0.989841 -88.19 0.142132 1.9875
8.99980000 0.142160 1.6314 0.989837 -88.20 0.989837 -88.20 0.142155 1.9749
9.00000000 0.142183 1.6366 0.989834 -88.20 0.989834 -88.20 0.142179 1.9622
9.00020000 0.142207 1.6419 0.989830 -88.20 0.989830 -88.20 0.142202 1.9494
9.00040000 0.142230 1.6472 0.989827 -88.21 0.989827 -88.21 0.142226 1.9366
9.00060000 0.142254 1.6525 0.989824 -88.21 0.989824 -88.21 0.142249 1.9237
9.00080000 0.142278 1.6579 0.989820 -88.22 0.989820 -88.22 0.142273 1.9108
9.00100000 0.142302 1.6633 0.989817 -88.22 0.989817 -88.22 0.142297 1.8978
9.00120000 0.142326 1.6687 0.989813 -88.22 0.989813 -88.22 0.142321 1.8848
