! Sonnet Data File
! From: emgraph Version : 16.52
! From Project: Resonator2_cp_varyW
! Data is De-embedded 
! Data File Written: 10/07/2017 09:25:23
!< HDATE 10/06/2017 17:18:21
!< MDATE 10/06/2017 17:18:21
!< PARAMS
!< gap = 6.0
!< Length = 400.0
!< Pwid1 = 2000.0
!< Pwid2 = 2000.0
!< Air_gap = 12.0
!< Width = 20.0
!< END PARAMS
# GHZ S MA R 51.80000
8.80000000 0.006146 -149.2 0.999976 -81.14 0.999976 -81.14 0.006145 166.92
!< P1 F=8.8 Eeff=(6.44629866 -2.9719e-5) Z0=(50.907433 1.17455e-4) R=0.0 C=0.0 
!< P2 F=8.8 Eeff=(6.44629866 -2.9719e-5) Z0=(50.907433 1.17455e-4) R=0.0 C=0.0 
8.80020000 0.006131 -149.1 0.999976 -81.14 0.999976 -81.14 0.006131 166.83
8.80040000 0.006117 -149.0 0.999976 -81.15 0.999976 -81.15 0.006116 166.73
8.80060000 0.006102 -148.9 0.999976 -81.15 0.999976 -81.15 0.006102 166.63
8.80080000 0.006087 -148.8 0.999976 -81.15 0.999976 -81.15 0.006087 166.53
8.80100000 0.006073 -148.8 0.999976 -81.16 0.999976 -81.16 0.006072 166.43
8.80120000 0.006058 -148.7 0.999977 -81.16 0.999977 -81.16 0.006057 166.33
8.80140000 0.006043 -148.6 0.999977 -81.16 0.999977 -81.16 0.006042 166.23
8.80160000 0.006028 -148.5 0.999977 -81.16 0.999977 -81.16 0.006028 166.12
8.80180000 0.006013 -148.4 0.999977 -81.17 0.999977 -81.17 0.006013 166.02
8.80200000 0.005998 -148.3 0.999977 -81.17 0.999977 -81.17 0.005998 165.92
8.80220000 0.005983 -148.2 0.999977 -81.17 0.999977 -81.17 0.005982 165.81
8.80240000 0.005968 -148.1 0.999977 -81.18 0.999977 -81.18 0.005967 165.70
8.80260000 0.005953 -148.0 0.999977 -81.18 0.999977 -81.18 0.005952 165.59
8.80280000 0.005937 -147.9 0.999977 -81.18 0.999977 -81.18 0.005937 165.49
8.80300000 0.005922 -147.8 0.999977 -81.18 0.999977 -81.18 0.005922 165.38
8.80320000 0.005907 -147.6 0.999977 -81.19 0.999977 -81.19 0.005906 165.26
8.80340000 0.005891 -147.5 0.999977 -81.19 0.999977 -81.19 0.005891 165.15
8.80360000 0.005876 -147.4 0.999978 -81.19 0.999978 -81.19 0.005875 165.04
8.80380000 0.005860 -147.3 0.999978 -81.20 0.999978 -81.20 0.005860 164.92
8.80400000 0.005845 -147.2 0.999978 -81.20 0.999978 -81.20 0.005844 164.81
8.80420000 0.005829 -147.1 0.999978 -81.20 0.999978 -81.20 0.005829 164.69
8.80440000 0.005813 -147.0 0.999978 -81.21 0.999978 -81.21 0.005813 164.57
8.80460000 0.005798 -146.9 0.999978 -81.21 0.999978 -81.21 0.005797 164.45
8.80480000 0.005782 -146.8 0.999978 -81.21 0.999978 -81.21 0.005781 164.33
8.80500000 0.005766 -146.6 0.999978 -81.21 0.999978 -81.21 0.005765 164.21
8.80520000 0.005750 -146.5 0.999978 -81.22 0.999978 -81.22 0.005749 164.09
8.80540000 0.005734 -146.4 0.999978 -81.22 0.999978 -81.22 0.005733 163.96
8.80560000 0.005718 -146.3 0.999978 -81.22 0.999978 -81.22 0.005717 163.83
8.80580000 0.005702 -146.2 0.999978 -81.23 0.999978 -81.23 0.005701 163.71
8.80600000 0.005686 -146.0 0.999978 -81.23 0.999978 -81.23 0.005685 163.58
8.80620000 0.005670 -145.9 0.999979 -81.23 0.999979 -81.23 0.005669 163.45
8.80640000 0.005653 -145.8 0.999979 -81.24 0.999979 -81.24 0.005653 163.32
8.80660000 0.005637 -145.7 0.999979 -81.24 0.999979 -81.24 0.005636 163.18
8.80680000 0.005621 -145.5 0.999979 -81.24 0.999979 -81.24 0.005620 163.05
8.80700000 0.005604 -145.4 0.999979 -81.24 0.999979 -81.24 0.005603 162.91
8.80720000 0.005588 -145.3 0.999979 -81.25 0.999979 -81.25 0.005587 162.78
8.80740000 0.005571 -145.1 0.999979 -81.25 0.999979 -81.25 0.005570 162.64
8.80760000 0.005555 -145.0 0.999979 -81.25 0.999979 -81.25 0.005554 162.50
8.80780000 0.005538 -144.9 0.999979 -81.26 0.999979 -81.26 0.005537 162.36
8.80800000 0.005521 -144.7 0.999979 -81.26 0.999979 -81.26 0.005520 162.21
8.80820000 0.005504 -144.6 0.999979 -81.26 0.999979 -81.26 0.005504 162.07
8.80840000 0.005488 -144.5 0.999979 -81.27 0.999979 -81.27 0.005487 161.92
8.80860000 0.005471 -144.3 0.999980 -81.27 0.999980 -81.27 0.005470 161.77
8.80880000 0.005454 -144.2 0.999980 -81.27 0.999980 -81.27 0.005453 161.62
8.80900000 0.005437 -144.0 0.999980 -81.28 0.999980 -81.28 0.005436 161.47
8.80920000 0.005420 -143.9 0.999980 -81.28 0.999980 -81.28 0.005419 161.31
8.80940000 0.005403 -143.7 0.999980 -81.28 0.999980 -81.28 0.005402 161.16
8.80960000 0.005385 -143.6 0.999980 -81.28 0.999980 -81.28 0.005384 161.00
8.80980000 0.005368 -143.4 0.999980 -81.29 0.999980 -81.29 0.005367 160.84
8.81000000 0.005351 -143.3 0.999980 -81.29 0.999980 -81.29 0.005350 160.68
8.81020000 0.005333 -143.1 0.999980 -81.29 0.999980 -81.29 0.005333 160.52
8.81040000 0.005316 -143.0 0.999980 -81.30 0.999980 -81.30 0.005315 160.35
8.81060000 0.005299 -142.8 0.999980 -81.30 0.999980 -81.30 0.005298 160.19
8.81080000 0.005281 -142.6 0.999980 -81.30 0.999980 -81.30 0.005280 160.02
8.81100000 0.005264 -142.5 0.999980 -81.31 0.999980 -81.31 0.005263 159.85
8.81120000 0.005246 -142.3 0.999981 -81.31 0.999981 -81.31 0.005245 159.67
8.81140000 0.005228 -142.1 0.999981 -81.31 0.999981 -81.31 0.005227 159.50
8.81160000 0.005211 -142.0 0.999981 -81.32 0.999981 -81.32 0.005210 159.32
8.81180000 0.005193 -141.8 0.999981 -81.32 0.999981 -81.32 0.005192 159.14
8.81200000 0.005175 -141.6 0.999981 -81.32 0.999981 -81.32 0.005174 158.96
8.81220000 0.005157 -141.4 0.999981 -81.33 0.999981 -81.33 0.005156 158.78
8.81240000 0.005139 -141.3 0.999981 -81.33 0.999981 -81.33 0.005138 158.59
8.81260000 0.005121 -141.1 0.999981 -81.33 0.999981 -81.33 0.005120 158.40
8.81280000 0.005103 -140.9 0.999981 -81.34 0.999981 -81.34 0.005102 158.21
8.81300000 0.005085 -140.7 0.999981 -81.34 0.999981 -81.34 0.005084 158.02
8.81320000 0.005067 -140.5 0.999981 -81.34 0.999981 -81.34 0.005066 157.82
8.81340000 0.005049 -140.3 0.999981 -81.35 0.999981 -81.35 0.005048 157.62
8.81360000 0.005031 -140.1 0.999982 -81.35 0.999982 -81.35 0.005030 157.42
8.81380000 0.005013 -139.9 0.999982 -81.35 0.999982 -81.35 0.005011 157.22
8.81400000 0.004994 -139.7 0.999982 -81.36 0.999982 -81.36 0.004993 157.01
8.81420000 0.004976 -139.5 0.999982 -81.36 0.999982 -81.36 0.004975 156.80
8.81440000 0.004958 -139.3 0.999982 -81.36 0.999982 -81.36 0.004956 156.59
8.81460000 0.004939 -139.1 0.999982 -81.36 0.999982 -81.36 0.004938 156.37
8.81480000 0.004921 -138.9 0.999982 -81.37 0.999982 -81.37 0.004919 156.16
8.81500000 0.004902 -138.7 0.999982 -81.37 0.999982 -81.37 0.004901 155.94
8.81520000 0.004884 -138.5 0.999982 -81.37 0.999982 -81.37 0.004882 155.71
8.81540000 0.004865 -138.2 0.999982 -81.38 0.999982 -81.38 0.004864 155.49
8.81560000 0.004847 -138.0 0.999982 -81.38 0.999982 -81.38 0.004845 155.26
8.81580000 0.004828 -137.8 0.999982 -81.39 0.999982 -81.39 0.004826 155.02
8.81600000 0.004809 -137.6 0.999982 -81.39 0.999982 -81.39 0.004808 154.79
8.81620000 0.004791 -137.3 0.999982 -81.39 0.999982 -81.39 0.004789 154.55
8.81640000 0.004772 -137.1 0.999983 -81.40 0.999983 -81.40 0.004770 154.31
8.81660000 0.004753 -136.9 0.999983 -81.40 0.999983 -81.40 0.004751 154.06
8.81680000 0.004734 -136.6 0.999983 -81.40 0.999983 -81.40 0.004733 153.81
8.81700000 0.004715 -136.4 0.999983 -81.41 0.999983 -81.41 0.004714 153.56
8.81720000 0.004697 -136.1 0.999983 -81.41 0.999983 -81.41 0.004695 153.30
8.81740000 0.004678 -135.9 0.999983 -81.41 0.999983 -81.41 0.004676 153.04
8.81760000 0.004659 -135.6 0.999983 -81.42 0.999983 -81.42 0.004657 152.78
8.81780000 0.004640 -135.4 0.999983 -81.42 0.999983 -81.42 0.004638 152.51
8.81800000 0.004621 -135.1 0.999983 -81.42 0.999983 -81.42 0.004619 152.24
8.81820000 0.004602 -134.8 0.999983 -81.43 0.999983 -81.43 0.004600 151.97
8.81840000 0.004583 -134.5 0.999983 -81.43 0.999983 -81.43 0.004581 151.69
8.81860000 0.004564 -134.3 0.999983 -81.43 0.999983 -81.43 0.004562 151.41
8.81880000 0.004545 -134.0 0.999983 -81.44 0.999983 -81.44 0.004543 151.12
8.81900000 0.004526 -133.7 0.999983 -81.44 0.999983 -81.44 0.004524 150.83
8.81920000 0.004507 -133.4 0.999984 -81.44 0.999984 -81.44 0.004505 150.53
8.81940000 0.004488 -133.1 0.999984 -81.45 0.999984 -81.45 0.004486 150.23
8.81960000 0.004469 -132.8 0.999984 -81.45 0.999984 -81.45 0.004467 149.93
8.81980000 0.004450 -132.5 0.999984 -81.45 0.999984 -81.45 0.004448 149.62
8.82000000 0.004431 -132.2 0.999984 -81.46 0.999984 -81.46 0.004429 149.31
8.82020000 0.004412 -131.9 0.999984 -81.46 0.999984 -81.46 0.004410 148.99
8.82040000 0.004393 -131.6 0.999984 -81.47 0.999984 -81.47 0.004391 148.67
8.82060000 0.004374 -131.3 0.999984 -81.47 0.999984 -81.47 0.004372 148.34
8.82080000 0.004355 -130.9 0.999984 -81.47 0.999984 -81.47 0.004353 148.01
8.82100000 0.004336 -130.6 0.999984 -81.48 0.999984 -81.48 0.004334 147.67
8.82120000 0.004318 -130.3 0.999984 -81.48 0.999984 -81.48 0.004315 147.32
8.82140000 0.004299 -129.9 0.999984 -81.48 0.999984 -81.48 0.004296 146.98
8.82160000 0.004280 -129.6 0.999984 -81.49 0.999984 -81.49 0.004278 146.62
8.82180000 0.004261 -129.2 0.999984 -81.49 0.999984 -81.49 0.004259 146.26
8.82200000 0.004242 -128.9 0.999984 -81.49 0.999984 -81.49 0.004240 145.90
8.82220000 0.004224 -128.5 0.999984 -81.50 0.999984 -81.50 0.004221 145.53
8.82240000 0.004205 -128.2 0.999985 -81.50 0.999985 -81.50 0.004203 145.15
8.82260000 0.004187 -127.8 0.999985 -81.51 0.999985 -81.51 0.004184 144.77
8.82280000 0.004168 -127.4 0.999985 -81.51 0.999985 -81.51 0.004165 144.38
8.82300000 0.004150 -127.0 0.999985 -81.51 0.999985 -81.51 0.004147 143.99
8.82320000 0.004131 -126.6 0.999985 -81.52 0.999985 -81.52 0.004129 143.59
8.82340000 0.004113 -126.2 0.999985 -81.52 0.999985 -81.52 0.004110 143.18
8.82360000 0.004095 -125.8 0.999985 -81.52 0.999985 -81.52 0.004092 142.77
8.82380000 0.004077 -125.4 0.999985 -81.53 0.999985 -81.53 0.004074 142.35
8.82400000 0.004059 -125.0 0.999985 -81.53 0.999985 -81.53 0.004056 141.93
8.82420000 0.004041 -124.6 0.999985 -81.54 0.999985 -81.54 0.004038 141.50
8.82440000 0.004023 -124.1 0.999985 -81.54 0.999985 -81.54 0.004020 141.06
8.82460000 0.004005 -123.7 0.999985 -81.54 0.999985 -81.54 0.004002 140.61
8.82480000 0.003987 -123.2 0.999985 -81.55 0.999985 -81.55 0.003984 140.16
8.82500000 0.003970 -122.8 0.999985 -81.55 0.999985 -81.55 0.003967 139.70
8.82520000 0.003953 -122.3 0.999985 -81.56 0.999985 -81.56 0.003950 139.23
8.82540000 0.003935 -121.9 0.999985 -81.56 0.999985 -81.56 0.003932 138.75
8.82560000 0.003918 -121.4 0.999985 -81.56 0.999985 -81.56 0.003915 138.27
8.82580000 0.003902 -120.9 0.999985 -81.57 0.999985 -81.57 0.003898 137.78
8.82600000 0.003885 -120.4 0.999985 -81.57 0.999985 -81.57 0.003881 137.28
8.82620000 0.003868 -119.9 0.999985 -81.58 0.999985 -81.58 0.003865 136.78
8.82640000 0.003852 -119.4 0.999985 -81.58 0.999985 -81.58 0.003848 136.27
8.82660000 0.003836 -118.9 0.999985 -81.58 0.999985 -81.58 0.003832 135.74
8.82680000 0.003820 -118.4 0.999985 -81.59 0.999985 -81.59 0.003816 135.21
8.82700000 0.003804 -117.9 0.999986 -81.59 0.999986 -81.59 0.003800 134.68
8.82720000 0.003788 -117.3 0.999986 -81.60 0.999986 -81.60 0.003785 134.13
8.82740000 0.003773 -116.8 0.999986 -81.60 0.999986 -81.60 0.003769 133.58
8.82760000 0.003758 -116.2 0.999986 -81.60 0.999986 -81.60 0.003754 133.01
8.82780000 0.003743 -115.7 0.999986 -81.61 0.999986 -81.61 0.003739 132.44
8.82800000 0.003729 -115.1 0.999986 -81.61 0.999986 -81.61 0.003725 131.86
8.82820000 0.003714 -114.5 0.999986 -81.62 0.999986 -81.62 0.003711 131.27
8.82840000 0.003701 -113.9 0.999986 -81.62 0.999986 -81.62 0.003696 130.67
8.82860000 0.003687 -113.3 0.999986 -81.62 0.999986 -81.62 0.003683 130.07
8.82880000 0.003673 -112.7 0.999986 -81.63 0.999986 -81.63 0.003669 129.45
8.82900000 0.003660 -112.1 0.999986 -81.63 0.999986 -81.63 0.003656 128.82
8.82920000 0.003648 -111.5 0.999986 -81.64 0.999986 -81.64 0.003643 128.19
8.82940000 0.003635 -110.8 0.999986 -81.64 0.999986 -81.64 0.003631 127.55
8.82960000 0.003623 -110.2 0.999986 -81.65 0.999986 -81.65 0.003619 126.89
8.82980000 0.003612 -109.5 0.999986 -81.65 0.999986 -81.65 0.003607 126.23
8.83000000 0.003601 -108.9 0.999986 -81.65 0.999986 -81.65 0.003596 125.56
8.83020000 0.003590 -108.2 0.999986 -81.66 0.999986 -81.66 0.003585 124.88
8.83040000 0.003579 -107.5 0.999986 -81.66 0.999986 -81.66 0.003575 124.19
8.83060000 0.003570 -106.8 0.999986 -81.67 0.999986 -81.67 0.003565 123.49
8.83080000 0.003560 -106.1 0.999986 -81.67 0.999986 -81.67 0.003555 122.78
8.83100000 0.003551 -105.4 0.999986 -81.68 0.999986 -81.68 0.003546 122.06
8.83120000 0.003543 -104.7 0.999986 -81.68 0.999986 -81.68 0.003538 121.34
8.83140000 0.003535 -104.0 0.999986 -81.69 0.999986 -81.69 0.003530 120.60
8.83160000 0.003527 -103.2 0.999986 -81.69 0.999986 -81.69 0.003522 119.86
8.83180000 0.003520 -102.5 0.999986 -81.69 0.999986 -81.69 0.003515 119.10
8.83200000 0.003514 -101.7 0.999986 -81.70 0.999986 -81.70 0.003509 118.34
8.83220000 0.003508 -101.0 0.999986 -81.70 0.999986 -81.70 0.003503 117.57
8.83240000 0.003503 -100.2 0.999986 -81.71 0.999986 -81.71 0.003497 116.79
8.83260000 0.003498 -99.43 0.999986 -81.71 0.999986 -81.71 0.003493 116.00
8.83280000 0.003494 -98.64 0.999986 -81.72 0.999986 -81.72 0.003489 115.20
8.83300000 0.003491 -97.85 0.999986 -81.72 0.999986 -81.72 0.003485 114.39
8.83320000 0.003488 -97.05 0.999986 -81.73 0.999986 -81.73 0.003482 113.58
8.83340000 0.003486 -96.24 0.999986 -81.73 0.999986 -81.73 0.003480 112.76
8.83360000 0.003485 -95.42 0.999986 -81.74 0.999986 -81.74 0.003479 111.93
8.83380000 0.003484 -94.59 0.999985 -81.74 0.999985 -81.74 0.003478 111.10
8.83400000 0.003484 -93.76 0.999985 -81.75 0.999985 -81.75 0.003478 110.25
8.83420000 0.003485 -92.92 0.999985 -81.75 0.999985 -81.75 0.003479 109.40
8.83440000 0.003487 -92.08 0.999985 -81.76 0.999985 -81.76 0.003481 108.55
8.83460000 0.003489 -91.23 0.999985 -81.76 0.999985 -81.76 0.003483 107.68
8.83480000 0.003493 -90.37 0.999985 -81.76 0.999985 -81.76 0.003486 106.81
8.83500000 0.003497 -89.51 0.999985 -81.77 0.999985 -81.77 0.003490 105.94
8.83520000 0.003502 -88.64 0.999985 -81.77 0.999985 -81.77 0.003495 105.06
8.83540000 0.003507 -87.77 0.999985 -81.78 0.999985 -81.78 0.003501 104.18
8.83560000 0.003514 -86.89 0.999985 -81.78 0.999985 -81.78 0.003508 103.29
8.83580000 0.003522 -86.01 0.999985 -81.79 0.999985 -81.79 0.003515 102.40
8.83600000 0.003530 -85.12 0.999985 -81.79 0.999985 -81.79 0.003523 101.50
8.83620000 0.003540 -84.24 0.999985 -81.80 0.999985 -81.80 0.003533 100.60
8.83640000 0.003550 -83.35 0.999985 -81.80 0.999985 -81.80 0.003543 99.700
8.83660000 0.003561 -82.45 0.999985 -81.81 0.999985 -81.81 0.003554 98.795
8.83680000 0.003574 -81.56 0.999984 -81.81 0.999984 -81.81 0.003567 97.889
8.83700000 0.003587 -80.66 0.999984 -81.82 0.999984 -81.82 0.003580 96.981
8.83720000 0.003601 -79.77 0.999984 -81.82 0.999984 -81.82 0.003594 96.072
8.83740000 0.003617 -78.87 0.999984 -81.83 0.999984 -81.83 0.003609 95.162
8.83760000 0.003633 -77.97 0.999984 -81.84 0.999984 -81.84 0.003626 94.252
8.83780000 0.003650 -77.08 0.999984 -81.84 0.999984 -81.84 0.003643 93.343
8.83800000 0.003669 -76.18 0.999984 -81.85 0.999984 -81.85 0.003662 92.434
8.83820000 0.003688 -75.28 0.999984 -81.85 0.999984 -81.85 0.003681 91.526
8.83840000 0.003709 -74.39 0.999984 -81.86 0.999984 -81.86 0.003702 90.620
8.83860000 0.003731 -73.50 0.999983 -81.86 0.999983 -81.86 0.003723 89.716
8.83880000 0.003754 -72.61 0.999983 -81.87 0.999983 -81.87 0.003746 88.814
8.83900000 0.003778 -71.73 0.999983 -81.87 0.999983 -81.87 0.003770 87.916
8.83920000 0.003803 -70.84 0.999983 -81.88 0.999983 -81.88 0.003795 87.021
8.83940000 0.003829 -69.97 0.999983 -81.88 0.999983 -81.88 0.003822 86.129
8.83960000 0.003857 -69.09 0.999983 -81.89 0.999983 -81.89 0.003849 85.242
8.83980000 0.003885 -68.22 0.999982 -81.90 0.999982 -81.90 0.003878 84.359
8.84000000 0.003915 -67.36 0.999982 -81.90 0.999982 -81.90 0.003907 83.481
8.84020000 0.003946 -66.50 0.999982 -81.91 0.999982 -81.91 0.003938 82.608
8.84040000 0.003978 -65.64 0.999982 -81.91 0.999982 -81.91 0.003970 81.741
8.84060000 0.004012 -64.80 0.999982 -81.92 0.999982 -81.92 0.004004 80.880
8.84080000 0.004046 -63.95 0.999981 -81.92 0.999981 -81.92 0.004038 80.025
8.84100000 0.004082 -63.12 0.999981 -81.93 0.999981 -81.93 0.004074 79.176
8.84120000 0.004119 -62.29 0.999981 -81.94 0.999981 -81.94 0.004111 78.334
8.84140000 0.004157 -61.47 0.999981 -81.94 0.999981 -81.94 0.004149 77.500
8.84160000 0.004197 -60.66 0.999981 -81.95 0.999981 -81.95 0.004189 76.673
8.84180000 0.004238 -59.85 0.999980 -81.95 0.999980 -81.95 0.004230 75.853
8.84200000 0.004280 -59.05 0.999980 -81.96 0.999980 -81.96 0.004272 75.041
8.84220000 0.004323 -58.26 0.999980 -81.97 0.999980 -81.97 0.004315 74.237
8.84240000 0.004367 -57.48 0.999980 -81.97 0.999980 -81.97 0.004359 73.441
8.84260000 0.004413 -56.71 0.999979 -81.98 0.999979 -81.98 0.004405 72.654
8.84280000 0.004460 -55.94 0.999979 -81.98 0.999979 -81.98 0.004452 71.875
8.84300000 0.004509 -55.19 0.999979 -81.99 0.999979 -81.99 0.004500 71.105
8.84320000 0.004558 -54.44 0.999978 -82.00 0.999978 -82.00 0.004550 70.343
8.84340000 0.004609 -53.70 0.999978 -82.00 0.999978 -82.00 0.004601 69.591
8.84360000 0.004661 -52.97 0.999978 -82.01 0.999978 -82.01 0.004653 68.847
8.84380000 0.004715 -52.25 0.999977 -82.02 0.999977 -82.02 0.004707 68.112
8.84400000 0.004770 -51.54 0.999977 -82.02 0.999977 -82.02 0.004762 67.387
8.84420000 0.004826 -50.84 0.999977 -82.03 0.999977 -82.03 0.004818 66.670
8.84440000 0.004883 -50.14 0.999976 -82.03 0.999976 -82.03 0.004875 65.963
8.84460000 0.004942 -49.46 0.999976 -82.04 0.999976 -82.04 0.004934 65.265
8.84480000 0.005002 -48.79 0.999976 -82.05 0.999976 -82.05 0.004994 64.576
8.84500000 0.005064 -48.12 0.999975 -82.05 0.999975 -82.05 0.005056 63.896
8.84520000 0.005127 -47.47 0.999975 -82.06 0.999975 -82.06 0.005119 63.226
8.84540000 0.005191 -46.82 0.999974 -82.07 0.999974 -82.07 0.005183 62.564
8.84560000 0.005257 -46.18 0.999974 -82.08 0.999974 -82.08 0.005248 61.912
8.84580000 0.005324 -45.55 0.999973 -82.08 0.999973 -82.08 0.005315 61.269
8.84600000 0.005392 -44.93 0.999973 -82.09 0.999973 -82.09 0.005384 60.635
8.84620000 0.005462 -44.33 0.999972 -82.10 0.999972 -82.10 0.005453 60.011
8.84640000 0.005533 -43.72 0.999972 -82.10 0.999972 -82.10 0.005525 59.395
8.84660000 0.005605 -43.13 0.999971 -82.11 0.999971 -82.11 0.005597 58.788
8.84680000 0.005679 -42.55 0.999971 -82.12 0.999971 -82.12 0.005671 58.190
8.84700000 0.005755 -41.98 0.999970 -82.13 0.999970 -82.13 0.005747 57.600
8.84720000 0.005832 -41.41 0.999970 -82.13 0.999970 -82.13 0.005823 57.020
8.84740000 0.005910 -40.85 0.999969 -82.14 0.999969 -82.14 0.005902 56.448
8.84760000 0.005990 -40.31 0.999969 -82.15 0.999969 -82.15 0.005982 55.884
8.84780000 0.006071 -39.77 0.999968 -82.15 0.999968 -82.15 0.006063 55.329
8.84800000 0.006154 -39.24 0.999967 -82.16 0.999967 -82.16 0.006146 54.782
8.84820000 0.006238 -38.71 0.999967 -82.17 0.999967 -82.17 0.006230 54.244
8.84840000 0.006324 -38.20 0.999966 -82.18 0.999966 -82.18 0.006316 53.713
8.84860000 0.006412 -37.69 0.999965 -82.19 0.999965 -82.19 0.006403 53.191
8.84880000 0.006500 -37.20 0.999965 -82.19 0.999965 -82.19 0.006492 52.676
8.84900000 0.006591 -36.71 0.999964 -82.20 0.999964 -82.20 0.006583 52.170
8.84920000 0.006683 -36.22 0.999963 -82.21 0.999963 -82.21 0.006675 51.671
8.84940000 0.006777 -35.75 0.999963 -82.22 0.999963 -82.22 0.006768 51.179
8.84960000 0.006872 -35.28 0.999962 -82.23 0.999962 -82.23 0.006864 50.695
8.84980000 0.006969 -34.82 0.999961 -82.23 0.999961 -82.23 0.006961 50.219
8.85000000 0.007068 -34.37 0.999960 -82.24 0.999960 -82.24 0.007059 49.749
8.85020000 0.007168 -33.93 0.999959 -82.25 0.999959 -82.25 0.007159 49.287
8.85040000 0.007270 -33.49 0.999958 -82.26 0.999958 -82.26 0.007261 48.832
8.85060000 0.007374 -33.06 0.999957 -82.27 0.999957 -82.27 0.007365 48.384
8.85080000 0.007479 -32.64 0.999957 -82.28 0.999957 -82.28 0.007471 47.942
8.85100000 0.007586 -32.22 0.999956 -82.29 0.999956 -82.29 0.007578 47.507
8.85120000 0.007695 -31.81 0.999955 -82.29 0.999955 -82.29 0.007687 47.079
8.85140000 0.007806 -31.41 0.999954 -82.30 0.999954 -82.30 0.007798 46.657
8.85160000 0.007919 -31.01 0.999952 -82.31 0.999952 -82.31 0.007910 46.242
