! Sonnet Data File
! From: emgraph Version : 16.52
! From Project: Resonator2_extremeCap
! Data is De-embedded 
! Data File Written: 10/09/2017 23:02:46
!< HDATE 10/09/2017 15:24:44
!< MDATE 10/09/2017 17:18:05
!< PARAMS
!< Pwid1 = 2000.0
!< Pwid2 = 2000.0
!< Air_gap = 1.8
!< Width = 3.0
!< Gap = 12.0
!< END PARAMS
# GHZ S MA R 51.80000
8.98000000 0.270042 6.2386 0.962837 -87.70 0.962837 -87.70 0.270021 -1.636
!< P1 F=8.98 Eeff=(6.4465636 -2.9718e-5) Z0=(62.882963 1.45104e-4) R=0.0 C=0.0 
!< P2 F=8.98 Eeff=(6.4465636 -2.9718e-5) Z0=(62.882963 1.45104e-4) R=0.0 C=0.0 
8.98010000 0.270037 6.2451 0.962839 -87.70 0.962839 -87.70 0.270016 -1.650
8.98020000 0.270032 6.2518 0.962840 -87.71 0.962840 -87.71 0.270011 -1.664
8.98030000 0.270027 6.2584 0.962841 -87.71 0.962841 -87.71 0.270006 -1.678
8.98040000 0.270022 6.2651 0.962843 -87.71 0.962843 -87.71 0.270001 -1.693
8.98050000 0.270017 6.2718 0.962844 -87.72 0.962844 -87.72 0.269996 -1.707
8.98060000 0.270012 6.2785 0.962845 -87.72 0.962845 -87.72 0.269991 -1.721
8.98070000 0.270007 6.2853 0.962847 -87.73 0.962847 -87.73 0.269986 -1.736
8.98080000 0.270002 6.2921 0.962848 -87.73 0.962848 -87.73 0.269981 -1.750
8.98090000 0.269997 6.2989 0.962850 -87.73 0.962850 -87.73 0.269975 -1.765
8.98100000 0.269992 6.3057 0.962851 -87.74 0.962851 -87.74 0.269970 -1.780
8.98110000 0.269987 6.3126 0.962852 -87.74 0.962852 -87.74 0.269965 -1.794
8.98120000 0.269981 6.3195 0.962854 -87.75 0.962854 -87.75 0.269960 -1.809
8.98130000 0.269976 6.3265 0.962855 -87.75 0.962855 -87.75 0.269955 -1.824
8.98140000 0.269971 6.3334 0.962857 -87.75 0.962857 -87.75 0.269949 -1.839
8.98150000 0.269966 6.3404 0.962858 -87.76 0.962858 -87.76 0.269944 -1.854
8.98160000 0.269961 6.3475 0.962860 -87.76 0.962860 -87.76 0.269939 -1.869
8.98170000 0.269955 6.3546 0.962861 -87.77 0.962861 -87.77 0.269934 -1.884
8.98180000 0.269950 6.3617 0.962862 -87.77 0.962862 -87.77 0.269928 -1.899
8.98190000 0.269945 6.3688 0.962864 -87.77 0.962864 -87.77 0.269923 -1.914
8.98200000 0.269940 6.3760 0.962865 -87.78 0.962865 -87.78 0.269918 -1.929
8.98210000 0.269934 6.3831 0.962867 -87.78 0.962867 -87.78 0.269912 -1.944
8.98220000 0.269929 6.3904 0.962868 -87.79 0.962868 -87.79 0.269907 -1.960
8.98230000 0.269924 6.3976 0.962870 -87.79 0.962870 -87.79 0.269901 -1.975
8.98240000 0.269918 6.4049 0.962871 -87.79 0.962871 -87.79 0.269896 -1.990
8.98250000 0.269913 6.4123 0.962873 -87.80 0.962873 -87.80 0.269891 -2.006
8.98260000 0.269908 6.4196 0.962874 -87.80 0.962874 -87.80 0.269885 -2.021
8.98270000 0.269902 6.4270 0.962876 -87.81 0.962876 -87.81 0.269880 -2.037
8.98280000 0.269897 6.4344 0.962877 -87.81 0.962877 -87.81 0.269874 -2.052
8.98290000 0.269892 6.4419 0.962879 -87.81 0.962879 -87.81 0.269869 -2.068
8.98300000 0.269886 6.4494 0.962880 -87.82 0.962880 -87.82 0.269863 -2.084
8.98310000 0.269881 6.4569 0.962882 -87.82 0.962882 -87.82 0.269858 -2.100
8.98320000 0.269875 6.4645 0.962883 -87.83 0.962883 -87.83 0.269852 -2.116
8.98330000 0.269870 6.4721 0.962885 -87.83 0.962885 -87.83 0.269846 -2.132
8.98340000 0.269864 6.4797 0.962886 -87.83 0.962886 -87.83 0.269841 -2.148
8.98350000 0.269859 6.4874 0.962888 -87.84 0.962888 -87.84 0.269835 -2.164
8.98360000 0.269853 6.4951 0.962889 -87.84 0.962889 -87.84 0.269830 -2.180
8.98370000 0.269848 6.5029 0.962891 -87.85 0.962891 -87.85 0.269824 -2.196
8.98380000 0.269842 6.5106 0.962892 -87.85 0.962892 -87.85 0.269818 -2.212
8.98390000 0.269836 6.5185 0.962894 -87.86 0.962894 -87.86 0.269812 -2.229
8.98400000 0.269831 6.5263 0.962895 -87.86 0.962895 -87.86 0.269807 -2.245
8.98410000 0.269825 6.5342 0.962897 -87.86 0.962897 -87.86 0.269801 -2.261
8.98420000 0.269820 6.5421 0.962898 -87.87 0.962898 -87.87 0.269795 -2.278
8.98430000 0.269814 6.5501 0.962900 -87.87 0.962900 -87.87 0.269790 -2.294
8.98440000 0.269808 6.5581 0.962901 -87.88 0.962901 -87.88 0.269784 -2.311
8.98450000 0.269802 6.5661 0.962903 -87.88 0.962903 -87.88 0.269778 -2.328
8.98460000 0.269797 6.5742 0.962904 -87.89 0.962904 -87.89 0.269772 -2.344
8.98470000 0.269791 6.5823 0.962906 -87.89 0.962906 -87.89 0.269766 -2.361
8.98480000 0.269785 6.5904 0.962908 -87.89 0.962908 -87.89 0.269760 -2.378
8.98490000 0.269780 6.5986 0.962909 -87.90 0.962909 -87.90 0.269755 -2.395
8.98500000 0.269774 6.6068 0.962911 -87.90 0.962911 -87.90 0.269749 -2.412
8.98510000 0.269768 6.6151 0.962912 -87.91 0.962912 -87.91 0.269743 -2.429
8.98520000 0.269762 6.6234 0.962914 -87.91 0.962914 -87.91 0.269737 -2.446
8.98530000 0.269756 6.6318 0.962916 -87.92 0.962916 -87.92 0.269731 -2.464
8.98540000 0.269750 6.6401 0.962917 -87.92 0.962917 -87.92 0.269725 -2.481
8.98550000 0.269745 6.6486 0.962919 -87.93 0.962919 -87.93 0.269719 -2.498
8.98560000 0.269739 6.6570 0.962920 -87.93 0.962920 -87.93 0.269713 -2.516
8.98570000 0.269733 6.6655 0.962922 -87.93 0.962922 -87.93 0.269707 -2.533
8.98580000 0.269727 6.6741 0.962924 -87.94 0.962924 -87.94 0.269701 -2.551
8.98590000 0.269721 6.6826 0.962925 -87.94 0.962925 -87.94 0.269695 -2.568
8.98600000 0.269715 6.6913 0.962927 -87.95 0.962927 -87.95 0.269689 -2.586
8.98610000 0.269709 6.6999 0.962928 -87.95 0.962928 -87.95 0.269683 -2.604
8.98620000 0.269703 6.7086 0.962930 -87.96 0.962930 -87.96 0.269677 -2.622
8.98630000 0.269697 6.7174 0.962932 -87.96 0.962932 -87.96 0.269670 -2.640
8.98640000 0.269691 6.7262 0.962933 -87.97 0.962933 -87.97 0.269664 -2.658
8.98650000 0.269685 6.7350 0.962935 -87.97 0.962935 -87.97 0.269658 -2.676
8.98660000 0.269679 6.7439 0.962937 -87.98 0.962937 -87.98 0.269652 -2.694
8.98670000 0.269673 6.7528 0.962938 -87.98 0.962938 -87.98 0.269646 -2.712
8.98680000 0.269667 6.7618 0.962940 -87.99 0.962940 -87.99 0.269639 -2.731
8.98690000 0.269660 6.7708 0.962942 -87.99 0.962942 -87.99 0.269633 -2.749
8.98700000 0.269654 6.7798 0.962943 -87.99 0.962943 -87.99 0.269627 -2.767
8.98710000 0.269648 6.7889 0.962945 -88.00 0.962945 -88.00 0.269621 -2.786
8.98720000 0.269642 6.7981 0.962947 -88.00 0.962947 -88.00 0.269614 -2.804
8.98730000 0.269636 6.8073 0.962948 -88.01 0.962948 -88.01 0.269608 -2.823
8.98740000 0.269629 6.8165 0.962950 -88.01 0.962950 -88.01 0.269602 -2.842
8.98750000 0.269623 6.8258 0.962952 -88.02 0.962952 -88.02 0.269595 -2.861
8.98760000 0.269617 6.8351 0.962954 -88.02 0.962954 -88.02 0.269589 -2.880
8.98770000 0.269611 6.8445 0.962955 -88.03 0.962955 -88.03 0.269583 -2.899
8.98780000 0.269604 6.8539 0.962957 -88.03 0.962957 -88.03 0.269576 -2.918
8.98790000 0.269598 6.8633 0.962959 -88.04 0.962959 -88.04 0.269570 -2.937
8.98800000 0.269592 6.8728 0.962960 -88.04 0.962960 -88.04 0.269563 -2.956
8.98810000 0.269585 6.8824 0.962962 -88.05 0.962962 -88.05 0.269557 -2.976
8.98820000 0.269579 6.8920 0.962964 -88.05 0.962964 -88.05 0.269550 -2.995
8.98830000 0.269573 6.9016 0.962966 -88.06 0.962966 -88.06 0.269544 -3.014
8.98840000 0.269566 6.9113 0.962967 -88.06 0.962967 -88.06 0.269537 -3.034
8.98850000 0.269560 6.9211 0.962969 -88.07 0.962969 -88.07 0.269531 -3.054
8.98860000 0.269553 6.9309 0.962971 -88.07 0.962971 -88.07 0.269524 -3.073
8.98870000 0.269547 6.9407 0.962973 -88.08 0.962973 -88.08 0.269517 -3.093
8.98880000 0.269540 6.9506 0.962974 -88.08 0.962974 -88.08 0.269511 -3.113
8.98890000 0.269534 6.9605 0.962976 -88.09 0.962976 -88.09 0.269504 -3.133
8.98900000 0.269527 6.9705 0.962978 -88.09 0.962978 -88.09 0.269498 -3.153
8.98910000 0.269521 6.9806 0.962980 -88.10 0.962980 -88.10 0.269491 -3.173
8.98920000 0.269514 6.9907 0.962982 -88.10 0.962982 -88.10 0.269484 -3.194
8.98930000 0.269508 7.0008 0.962983 -88.11 0.962983 -88.11 0.269477 -3.214
8.98940000 0.269501 7.0110 0.962985 -88.11 0.962985 -88.11 0.269471 -3.234
8.98950000 0.269494 7.0213 0.962987 -88.12 0.962987 -88.12 0.269464 -3.255
8.98960000 0.269488 7.0316 0.962989 -88.12 0.962989 -88.12 0.269457 -3.276
8.98970000 0.269481 7.0419 0.962991 -88.13 0.962991 -88.13 0.269450 -3.296
8.98980000 0.269475 7.0523 0.962992 -88.13 0.962992 -88.13 0.269444 -3.317
8.98990000 0.269468 7.0628 0.962994 -88.14 0.962994 -88.14 0.269437 -3.338
8.99000000 0.269461 7.0733 0.962996 -88.14 0.962996 -88.14 0.269430 -3.359
8.99010000 0.269454 7.0839 0.962998 -88.15 0.962998 -88.15 0.269423 -3.380
8.99020000 0.269448 7.0945 0.963000 -88.15 0.963000 -88.15 0.269416 -3.401
8.99030000 0.269441 7.1052 0.963002 -88.16 0.963002 -88.16 0.269409 -3.423
8.99040000 0.269434 7.1159 0.963003 -88.16 0.963003 -88.16 0.269402 -3.444
8.99050000 0.269427 7.1267 0.963005 -88.17 0.963005 -88.17 0.269395 -3.465
8.99060000 0.269420 7.1375 0.963007 -88.18 0.963007 -88.18 0.269388 -3.487
8.99070000 0.269414 7.1484 0.963009 -88.18 0.963009 -88.18 0.269381 -3.509
8.99080000 0.269407 7.1594 0.963011 -88.19 0.963011 -88.19 0.269374 -3.530
8.99090000 0.269400 7.1704 0.963013 -88.19 0.963013 -88.19 0.269367 -3.552
8.99100000 0.269393 7.1815 0.963015 -88.20 0.963015 -88.20 0.269360 -3.574
8.99110000 0.269386 7.1926 0.963016 -88.20 0.963016 -88.20 0.269353 -3.596
8.99120000 0.269379 7.2038 0.963018 -88.21 0.963018 -88.21 0.269346 -3.618
8.99130000 0.269372 7.2150 0.963020 -88.21 0.963020 -88.21 0.269339 -3.641
8.99140000 0.269365 7.2263 0.963022 -88.22 0.963022 -88.22 0.269332 -3.663
8.99150000 0.269358 7.2377 0.963024 -88.22 0.963024 -88.22 0.269325 -3.686
8.99160000 0.269351 7.2491 0.963026 -88.23 0.963026 -88.23 0.269318 -3.708
8.99170000 0.269344 7.2606 0.963028 -88.24 0.963028 -88.24 0.269310 -3.731
8.99180000 0.269337 7.2722 0.963030 -88.24 0.963030 -88.24 0.269303 -3.754
8.99190000 0.269330 7.2838 0.963032 -88.25 0.963032 -88.25 0.269296 -3.777
8.99200000 0.269323 7.2955 0.963033 -88.25 0.963033 -88.25 0.269289 -3.800
8.99210000 0.269316 7.3072 0.963035 -88.26 0.963035 -88.26 0.269281 -3.823
8.99220000 0.269309 7.3190 0.963037 -88.26 0.963037 -88.26 0.269274 -3.846
8.99230000 0.269302 7.3308 0.963039 -88.27 0.963039 -88.27 0.269267 -3.869
8.99240000 0.269295 7.3428 0.963041 -88.28 0.963041 -88.28 0.269260 -3.893
8.99250000 0.269287 7.3548 0.963043 -88.28 0.963043 -88.28 0.269252 -3.916
8.99260000 0.269280 7.3668 0.963045 -88.29 0.963045 -88.29 0.269245 -3.940
8.99270000 0.269273 7.3789 0.963047 -88.29 0.963047 -88.29 0.269237 -3.964
8.99280000 0.269266 7.3911 0.963049 -88.30 0.963049 -88.30 0.269230 -3.988
8.99290000 0.269258 7.4034 0.963051 -88.30 0.963051 -88.30 0.269223 -4.012
8.99300000 0.269251 7.4157 0.963053 -88.31 0.963053 -88.31 0.269215 -4.036
8.99310000 0.269244 7.4281 0.963055 -88.32 0.963055 -88.32 0.269208 -4.060
8.99320000 0.269237 7.4405 0.963057 -88.32 0.963057 -88.32 0.269200 -4.084
8.99330000 0.269229 7.4530 0.963059 -88.33 0.963059 -88.33 0.269193 -4.109
8.99340000 0.269222 7.4656 0.963061 -88.33 0.963061 -88.33 0.269185 -4.133
8.99350000 0.269215 7.4783 0.963063 -88.34 0.963063 -88.34 0.269178 -4.158
8.99360000 0.269207 7.4910 0.963065 -88.35 0.963065 -88.35 0.269170 -4.183
8.99370000 0.269200 7.5038 0.963067 -88.35 0.963067 -88.35 0.269163 -4.208
8.99380000 0.269193 7.5167 0.963069 -88.36 0.963069 -88.36 0.269155 -4.233
8.99390000 0.269185 7.5296 0.963071 -88.37 0.963071 -88.37 0.269147 -4.258
8.99400000 0.269178 7.5427 0.963073 -88.37 0.963073 -88.37 0.269140 -4.283
8.99410000 0.269170 7.5557 0.963075 -88.38 0.963075 -88.38 0.269132 -4.309
8.99420000 0.269163 7.5689 0.963077 -88.38 0.963077 -88.38 0.269124 -4.334
8.99430000 0.269155 7.5821 0.963079 -88.39 0.963079 -88.39 0.269117 -4.360
8.99440000 0.269148 7.5954 0.963081 -88.40 0.963081 -88.40 0.269109 -4.386
8.99450000 0.269140 7.6088 0.963083 -88.40 0.963083 -88.40 0.269101 -4.412
8.99460000 0.269133 7.6223 0.963085 -88.41 0.963085 -88.41 0.269094 -4.438
8.99470000 0.269125 7.6358 0.963087 -88.42 0.963087 -88.42 0.269086 -4.464
8.99480000 0.269118 7.6494 0.963089 -88.42 0.963089 -88.42 0.269078 -4.491
8.99490000 0.269110 7.6631 0.963091 -88.43 0.963091 -88.43 0.269070 -4.517
8.99500000 0.269102 7.6769 0.963093 -88.43 0.963093 -88.43 0.269062 -4.544
8.99510000 0.269095 7.6907 0.963095 -88.44 0.963095 -88.44 0.269055 -4.570
8.99520000 0.269087 7.7046 0.963097 -88.45 0.963097 -88.45 0.269047 -4.597
8.99530000 0.269079 7.7186 0.963099 -88.45 0.963099 -88.45 0.269039 -4.624
8.99540000 0.269072 7.7327 0.963101 -88.46 0.963101 -88.46 0.269031 -4.652
8.99550000 0.269064 7.7469 0.963103 -88.47 0.963103 -88.47 0.269023 -4.679
8.99560000 0.269056 7.7611 0.963105 -88.47 0.963105 -88.47 0.269015 -4.706
8.99570000 0.269049 7.7755 0.963107 -88.48 0.963107 -88.48 0.269007 -4.734
8.99580000 0.269041 7.7899 0.963110 -88.49 0.963110 -88.49 0.268999 -4.762
8.99590000 0.269033 7.8044 0.963112 -88.49 0.963112 -88.49 0.268991 -4.790
8.99600000 0.269025 7.8190 0.963114 -88.50 0.963114 -88.50 0.268983 -4.818
8.99610000 0.269018 7.8336 0.963116 -88.51 0.963116 -88.51 0.268975 -4.846
8.99620000 0.269010 7.8484 0.963118 -88.51 0.963118 -88.51 0.268967 -4.874
8.99630000 0.269002 7.8632 0.963120 -88.52 0.963120 -88.52 0.268959 -4.903
8.99640000 0.268994 7.8781 0.963122 -88.53 0.963122 -88.53 0.268951 -4.931
8.99650000 0.268986 7.8931 0.963124 -88.53 0.963124 -88.53 0.268943 -4.960
8.99660000 0.268979 7.9082 0.963126 -88.54 0.963126 -88.54 0.268935 -4.989
8.99670000 0.268971 7.9234 0.963128 -88.55 0.963128 -88.55 0.268927 -5.018
8.99680000 0.268963 7.9387 0.963130 -88.56 0.963130 -88.56 0.268919 -5.047
8.99690000 0.268955 7.9541 0.963133 -88.56 0.963133 -88.56 0.268911 -5.077
8.99700000 0.268947 7.9695 0.963135 -88.57 0.963135 -88.57 0.268903 -5.106
8.99710000 0.268939 7.9851 0.963137 -88.58 0.963137 -88.58 0.268894 -5.136
8.99720000 0.268931 8.0007 0.963139 -88.58 0.963139 -88.58 0.268886 -5.166
8.99730000 0.268923 8.0165 0.963141 -88.59 0.963141 -88.59 0.268878 -5.196
8.99740000 0.268915 8.0323 0.963143 -88.60 0.963143 -88.60 0.268870 -5.226
8.99750000 0.268908 8.0482 0.963145 -88.60 0.963145 -88.60 0.268862 -5.256
8.99760000 0.268900 8.0643 0.963147 -88.61 0.963147 -88.61 0.268854 -5.287
8.99770000 0.268892 8.0804 0.963150 -88.62 0.963150 -88.62 0.268845 -5.318
8.99780000 0.268884 8.0966 0.963152 -88.63 0.963152 -88.63 0.268837 -5.349
8.99790000 0.268876 8.1129 0.963154 -88.63 0.963154 -88.63 0.268829 -5.380
8.99800000 0.268868 8.1293 0.963156 -88.64 0.963156 -88.64 0.268820 -5.411
8.99810000 0.268860 8.1459 0.963158 -88.65 0.963158 -88.65 0.268812 -5.442
8.99820000 0.268852 8.1625 0.963160 -88.66 0.963160 -88.66 0.268804 -5.474
8.99830000 0.268843 8.1792 0.963162 -88.66 0.963162 -88.66 0.268796 -5.505
8.99840000 0.268835 8.1960 0.963164 -88.67 0.963164 -88.67 0.268787 -5.537
8.99850000 0.268827 8.2130 0.963167 -88.68 0.963167 -88.68 0.268779 -5.570
8.99860000 0.268819 8.2300 0.963169 -88.69 0.963169 -88.69 0.268771 -5.602
8.99870000 0.268811 8.2471 0.963171 -88.69 0.963171 -88.69 0.268762 -5.634
8.99880000 0.268803 8.2644 0.963173 -88.70 0.963173 -88.70 0.268754 -5.667
8.99890000 0.268795 8.2817 0.963175 -88.71 0.963175 -88.71 0.268745 -5.700
8.99900000 0.268787 8.2992 0.963177 -88.72 0.963177 -88.72 0.268737 -5.733
8.99910000 0.268779 8.3168 0.963180 -88.73 0.963180 -88.73 0.268729 -5.766
8.99920000 0.268771 8.3345 0.963182 -88.73 0.963182 -88.73 0.268720 -5.799
8.99930000 0.268763 8.3523 0.963184 -88.74 0.963184 -88.74 0.268712 -5.833
8.99940000 0.268755 8.3702 0.963186 -88.75 0.963186 -88.75 0.268703 -5.867
8.99950000 0.268746 8.3882 0.963188 -88.76 0.963188 -88.76 0.268695 -5.901
8.99960000 0.268738 8.4063 0.963190 -88.77 0.963190 -88.77 0.268687 -5.935
8.99970000 0.268730 8.4246 0.963192 -88.77 0.963192 -88.77 0.268678 -5.969
8.99980000 0.268722 8.4429 0.963195 -88.78 0.963195 -88.78 0.268670 -6.004
8.99990000 0.268714 8.4614 0.963197 -88.79 0.963197 -88.79 0.268661 -6.039
9.00000000 0.268706 8.4800 0.963199 -88.80 0.963199 -88.80 0.268653 -6.074
9.00010000 0.268698 8.4987 0.963201 -88.81 0.963201 -88.81 0.268644 -6.109
9.00020000 0.268689 8.5176 0.963203 -88.81 0.963203 -88.81 0.268636 -6.144
9.00030000 0.268681 8.5365 0.963205 -88.82 0.963205 -88.82 0.268627 -6.180
9.00040000 0.268673 8.5556 0.963207 -88.83 0.963207 -88.83 0.268619 -6.216
9.00050000 0.268665 8.5748 0.963210 -88.84 0.963210 -88.84 0.268610 -6.252
9.00060000 0.268657 8.5942 0.963212 -88.85 0.963212 -88.85 0.268602 -6.288
9.00070000 0.268649 8.6136 0.963214 -88.86 0.963214 -88.86 0.268593 -6.324
9.00080000 0.268641 8.6332 0.963216 -88.86 0.963216 -88.86 0.268585 -6.361
9.00090000 0.268632 8.6530 0.963218 -88.87 0.963218 -88.87 0.268576 -6.398
9.00100000 0.268624 8.6728 0.963220 -88.88 0.963220 -88.88 0.268568 -6.435
9.00110000 0.268616 8.6928 0.963222 -88.89 0.963222 -88.89 0.268560 -6.473
9.00120000 0.268608 8.7129 0.963225 -88.90 0.963225 -88.90 0.268551 -6.510
9.00130000 0.268600 8.7331 0.963227 -88.91 0.963227 -88.91 0.268543 -6.548
9.00140000 0.268592 8.7535 0.963229 -88.92 0.963229 -88.92 0.268534 -6.586
9.00150000 0.268584 8.7740 0.963231 -88.93 0.963231 -88.93 0.268526 -6.624
9.00160000 0.268576 8.7947 0.963233 -88.94 0.963233 -88.94 0.268517 -6.663
9.00170000 0.268567 8.8155 0.963235 -88.94 0.963235 -88.94 0.268509 -6.702
9.00180000 0.268559 8.8364 0.963237 -88.95 0.963237 -88.95 0.268500 -6.741
9.00190000 0.268551 8.8575 0.963239 -88.96 0.963239 -88.96 0.268492 -6.780
9.00200000 0.268543 8.8787 0.963242 -88.97 0.963242 -88.97 0.268483 -6.820
9.00210000 0.268535 8.9001 0.963244 -88.98 0.963244 -88.98 0.268475 -6.859
9.00220000 0.268527 8.9216 0.963246 -88.99 0.963246 -88.99 0.268466 -6.899
9.00230000 0.268519 8.9432 0.963248 -89.00 0.963248 -89.00 0.268458 -6.940
9.00240000 0.268511 8.9651 0.963250 -89.01 0.963250 -89.01 0.268449 -6.980
9.00250000 0.268503 8.9870 0.963252 -89.02 0.963252 -89.02 0.268441 -7.021
9.00260000 0.268495 9.0091 0.963254 -89.03 0.963254 -89.03 0.268433 -7.062
9.00270000 0.268487 9.0314 0.963256 -89.04 0.963256 -89.04 0.268424 -7.103
9.00280000 0.268479 9.0538 0.963258 -89.05 0.963258 -89.05 0.268416 -7.145
9.00290000 0.268471 9.0763 0.963260 -89.06 0.963260 -89.06 0.268407 -7.187
9.00300000 0.268463 9.0991 0.963262 -89.07 0.963262 -89.07 0.268399 -7.229
9.00310000 0.268455 9.1220 0.963264 -89.08 0.963264 -89.08 0.268391 -7.271
9.00320000 0.268447 9.1450 0.963266 -89.09 0.963266 -89.09 0.268382 -7.314
9.00330000 0.268439 9.1682 0.963269 -89.10 0.963269 -89.10 0.268374 -7.357
9.00340000 0.268431 9.1916 0.963271 -89.11 0.963271 -89.11 0.268366 -7.400
9.00350000 0.268424 9.2151 0.963273 -89.12 0.963273 -89.12 0.268357 -7.443
9.00360000 0.268416 9.2388 0.963275 -89.13 0.963275 -89.13 0.268349 -7.487
9.00370000 0.268408 9.2627 0.963277 -89.14 0.963277 -89.14 0.268341 -7.531
9.00380000 0.268400 9.2867 0.963279 -89.15 0.963279 -89.15 0.268333 -7.576
9.00390000 0.268393 9.3109 0.963281 -89.16 0.963281 -89.16 0.268325 -7.620
9.00400000 0.268385 9.3353 0.963283 -89.17 0.963283 -89.17 0.268316 -7.665
9.00410000 0.268377 9.3599 0.963284 -89.18 0.963284 -89.18 0.268308 -7.711
9.00420000 0.268370 9.3846 0.963286 -89.19 0.963286 -89.19 0.268300 -7.756
9.00430000 0.268362 9.4095 0.963288 -89.20 0.963288 -89.20 0.268292 -7.802
9.00440000 0.268354 9.4346 0.963290 -89.21 0.963290 -89.21 0.268284 -7.848
9.00450000 0.268347 9.4599 0.963292 -89.22 0.963292 -89.22 0.268276 -7.895
9.00460000 0.268339 9.4854 0.963294 -89.23 0.963294 -89.23 0.268268 -7.942
9.00470000 0.268332 9.5111 0.963296 -89.24 0.963296 -89.24 0.268260 -7.989
9.00480000 0.268324 9.5369 0.963298 -89.25 0.963298 -89.25 0.268252 -8.036
9.00490000 0.268317 9.5629 0.963300 -89.26 0.963300 -89.26 0.268244 -8.084
9.00500000 0.268310 9.5892 0.963302 -89.27 0.963302 -89.27 0.268236 -8.132
9.00510000 0.268302 9.6156 0.963303 -89.28 0.963303 -89.28 0.268228 -8.181
9.00520000 0.268295 9.6422 0.963305 -89.29 0.963305 -89.29 0.268221 -8.230
9.00530000 0.268288 9.6690 0.963307 -89.31 0.963307 -89.31 0.268213 -8.279
9.00540000 0.268281 9.6960 0.963309 -89.32 0.963309 -89.32 0.268205 -8.329
9.00550000 0.268274 9.7233 0.963311 -89.33 0.963311 -89.33 0.268198 -8.378
9.00560000 0.268267 9.7507 0.963312 -89.34 0.963312 -89.34 0.268190 -8.429
9.00570000 0.268260 9.7783 0.963314 -89.35 0.963314 -89.35 0.268182 -8.479
9.00580000 0.268253 9.8062 0.963316 -89.36 0.963316 -89.36 0.268175 -8.530
9.00590000 0.268246 9.8342 0.963318 -89.37 0.963318 -89.37 0.268168 -8.582
