! Sonnet Data File
! From: emgraph Version : 16.52
! From Project: Resonator2_cp
! Data is De-embedded 
! Data File Written: 10/09/2017 00:47:18
!< HDATE 10/08/2017 10:09:33
!< MDATE 10/08/2017 10:09:33
!< PARAMS
!< Length = 400.0
!< Pwid1 = 2000.0
!< Pwid2 = 2000.0
!< Air_gap = 12.0
!< Width = 20.0
!< gap = 26.0
!< END PARAMS
# GHZ S MA R 51.00000
8.90000000 0.001718 -176.4 0.999995 -81.52 0.999995 -81.52 0.001718 -166.8
!< P1 F=8.9 Eeff=(6.44624956 -2.9718e-5) Z0=(50.9071399 1.17454e-4) R=0.0 C=0.0 
!< P2 F=8.9 Eeff=(6.44624956 -2.9718e-5) Z0=(50.9071399 1.17454e-4) R=0.0 C=0.0 
8.90010000 0.001720 -176.4 0.999995 -81.52 0.999995 -81.52 0.001720 -166.8
8.90020000 0.001722 -176.4 0.999995 -81.52 0.999995 -81.52 0.001721 -166.8
8.90030000 0.001723 -176.4 0.999995 -81.52 0.999995 -81.52 0.001723 -166.8
8.90040000 0.001725 -176.4 0.999995 -81.53 0.999995 -81.53 0.001725 -166.8
8.90050000 0.001727 -176.5 0.999995 -81.53 0.999995 -81.53 0.001726 -166.8
8.90060000 0.001728 -176.5 0.999995 -81.53 0.999995 -81.53 0.001728 -166.8
8.90070000 0.001730 -176.5 0.999995 -81.53 0.999995 -81.53 0.001730 -166.7
8.90080000 0.001732 -176.5 0.999995 -81.53 0.999995 -81.53 0.001732 -166.7
8.90090000 0.001733 -176.5 0.999995 -81.53 0.999995 -81.53 0.001733 -166.7
8.90100000 0.001735 -176.5 0.999995 -81.53 0.999995 -81.53 0.001735 -166.7
8.90110000 0.001737 -176.5 0.999995 -81.53 0.999995 -81.53 0.001737 -166.7
8.90120000 0.001739 -176.6 0.999995 -81.53 0.999995 -81.53 0.001738 -166.7
8.90130000 0.001740 -176.6 0.999995 -81.54 0.999995 -81.54 0.001740 -166.7
8.90140000 0.001742 -176.6 0.999995 -81.54 0.999995 -81.54 0.001742 -166.7
8.90150000 0.001744 -176.6 0.999995 -81.54 0.999995 -81.54 0.001744 -166.6
8.90160000 0.001746 -176.6 0.999995 -81.54 0.999995 -81.54 0.001746 -166.6
8.90170000 0.001748 -176.6 0.999995 -81.54 0.999995 -81.54 0.001747 -166.6
8.90180000 0.001749 -176.6 0.999995 -81.54 0.999995 -81.54 0.001749 -166.6
8.90190000 0.001751 -176.7 0.999995 -81.54 0.999995 -81.54 0.001751 -166.6
8.90200000 0.001753 -176.7 0.999995 -81.54 0.999995 -81.54 0.001753 -166.6
8.90210000 0.001755 -176.7 0.999995 -81.54 0.999995 -81.54 0.001754 -166.6
8.90220000 0.001756 -176.7 0.999995 -81.54 0.999995 -81.54 0.001756 -166.6
8.90230000 0.001758 -176.7 0.999995 -81.55 0.999995 -81.55 0.001758 -166.5
8.90240000 0.001760 -176.7 0.999995 -81.55 0.999995 -81.55 0.001760 -166.5
8.90250000 0.001762 -176.8 0.999995 -81.55 0.999995 -81.55 0.001762 -166.5
8.90260000 0.001764 -176.8 0.999995 -81.55 0.999995 -81.55 0.001764 -166.5
8.90270000 0.001766 -176.8 0.999995 -81.55 0.999995 -81.55 0.001765 -166.5
8.90280000 0.001767 -176.8 0.999995 -81.55 0.999995 -81.55 0.001767 -166.5
8.90290000 0.001769 -176.8 0.999995 -81.55 0.999995 -81.55 0.001769 -166.5
8.90300000 0.001771 -176.8 0.999995 -81.55 0.999995 -81.55 0.001771 -166.4
8.90310000 0.001773 -176.8 0.999995 -81.55 0.999995 -81.55 0.001773 -166.4
8.90320000 0.001775 -176.9 0.999995 -81.55 0.999995 -81.55 0.001775 -166.4
8.90330000 0.001777 -176.9 0.999995 -81.56 0.999995 -81.56 0.001777 -166.4
8.90340000 0.001779 -176.9 0.999995 -81.56 0.999995 -81.56 0.001778 -166.4
8.90350000 0.001781 -176.9 0.999995 -81.56 0.999995 -81.56 0.001780 -166.4
8.90360000 0.001783 -176.9 0.999995 -81.56 0.999995 -81.56 0.001782 -166.4
8.90370000 0.001784 -176.9 0.999995 -81.56 0.999995 -81.56 0.001784 -166.4
8.90380000 0.001786 -177.0 0.999995 -81.56 0.999995 -81.56 0.001786 -166.3
8.90390000 0.001788 -177.0 0.999995 -81.56 0.999995 -81.56 0.001788 -166.3
8.90400000 0.001790 -177.0 0.999995 -81.56 0.999995 -81.56 0.001790 -166.3
8.90410000 0.001792 -177.0 0.999995 -81.56 0.999995 -81.56 0.001792 -166.3
8.90420000 0.001794 -177.0 0.999995 -81.56 0.999995 -81.56 0.001794 -166.3
8.90430000 0.001796 -177.0 0.999995 -81.57 0.999995 -81.57 0.001796 -166.3
8.90440000 0.001798 -177.0 0.999995 -81.57 0.999995 -81.57 0.001798 -166.3
8.90450000 0.001800 -177.1 0.999995 -81.57 0.999995 -81.57 0.001800 -166.2
8.90460000 0.001802 -177.1 0.999995 -81.57 0.999995 -81.57 0.001802 -166.2
8.90470000 0.001804 -177.1 0.999995 -81.57 0.999995 -81.57 0.001804 -166.2
8.90480000 0.001806 -177.1 0.999995 -81.57 0.999995 -81.57 0.001806 -166.2
8.90490000 0.001808 -177.1 0.999995 -81.57 0.999995 -81.57 0.001808 -166.2
8.90500000 0.001810 -177.1 0.999995 -81.57 0.999995 -81.57 0.001810 -166.2
8.90510000 0.001812 -177.2 0.999995 -81.57 0.999995 -81.57 0.001812 -166.2
8.90520000 0.001814 -177.2 0.999995 -81.58 0.999995 -81.58 0.001814 -166.2
8.90530000 0.001816 -177.2 0.999995 -81.58 0.999995 -81.58 0.001816 -166.1
8.90540000 0.001818 -177.2 0.999995 -81.58 0.999995 -81.58 0.001818 -166.1
8.90550000 0.001820 -177.2 0.999995 -81.58 0.999995 -81.58 0.001820 -166.1
8.90560000 0.001822 -177.2 0.999995 -81.58 0.999995 -81.58 0.001822 -166.1
8.90570000 0.001824 -177.2 0.999995 -81.58 0.999995 -81.58 0.001824 -166.1
8.90580000 0.001826 -177.3 0.999995 -81.58 0.999995 -81.58 0.001826 -166.1
8.90590000 0.001828 -177.3 0.999995 -81.58 0.999995 -81.58 0.001828 -166.1
8.90600000 0.001830 -177.3 0.999995 -81.58 0.999995 -81.58 0.001830 -166.0
8.90610000 0.001832 -177.3 0.999995 -81.58 0.999995 -81.58 0.001832 -166.0
8.90620000 0.001835 -177.3 0.999995 -81.59 0.999995 -81.59 0.001834 -166.0
8.90630000 0.001837 -177.3 0.999995 -81.59 0.999995 -81.59 0.001836 -166.0
8.90640000 0.001839 -177.4 0.999995 -81.59 0.999995 -81.59 0.001839 -166.0
8.90650000 0.001841 -177.4 0.999995 -81.59 0.999995 -81.59 0.001841 -166.0
8.90660000 0.001843 -177.4 0.999995 -81.59 0.999995 -81.59 0.001843 -166.0
8.90670000 0.001845 -177.4 0.999995 -81.59 0.999995 -81.59 0.001845 -165.9
8.90680000 0.001847 -177.4 0.999995 -81.59 0.999995 -81.59 0.001847 -165.9
8.90690000 0.001850 -177.4 0.999995 -81.59 0.999995 -81.59 0.001849 -165.9
8.90700000 0.001852 -177.5 0.999995 -81.59 0.999995 -81.59 0.001851 -165.9
8.90710000 0.001854 -177.5 0.999995 -81.59 0.999995 -81.59 0.001854 -165.9
8.90720000 0.001856 -177.5 0.999995 -81.60 0.999995 -81.60 0.001856 -165.9
8.90730000 0.001858 -177.5 0.999995 -81.60 0.999995 -81.60 0.001858 -165.9
8.90740000 0.001860 -177.5 0.999995 -81.60 0.999995 -81.60 0.001860 -165.8
8.90750000 0.001863 -177.5 0.999995 -81.60 0.999995 -81.60 0.001862 -165.8
8.90760000 0.001865 -177.5 0.999995 -81.60 0.999995 -81.60 0.001865 -165.8
8.90770000 0.001867 -177.6 0.999995 -81.60 0.999995 -81.60 0.001867 -165.8
8.90780000 0.001869 -177.6 0.999995 -81.60 0.999995 -81.60 0.001869 -165.8
8.90790000 0.001872 -177.6 0.999994 -81.60 0.999994 -81.60 0.001871 -165.8
8.90800000 0.001874 -177.6 0.999994 -81.60 0.999994 -81.60 0.001874 -165.8
8.90810000 0.001876 -177.6 0.999994 -81.61 0.999994 -81.61 0.001876 -165.7
8.90820000 0.001878 -177.6 0.999994 -81.61 0.999994 -81.61 0.001878 -165.7
8.90830000 0.001881 -177.7 0.999994 -81.61 0.999994 -81.61 0.001880 -165.7
8.90840000 0.001883 -177.7 0.999994 -81.61 0.999994 -81.61 0.001883 -165.7
8.90850000 0.001885 -177.7 0.999994 -81.61 0.999994 -81.61 0.001885 -165.7
8.90860000 0.001888 -177.7 0.999994 -81.61 0.999994 -81.61 0.001887 -165.7
8.90870000 0.001890 -177.7 0.999994 -81.61 0.999994 -81.61 0.001890 -165.7
8.90880000 0.001892 -177.7 0.999994 -81.61 0.999994 -81.61 0.001892 -165.6
8.90890000 0.001895 -177.8 0.999994 -81.61 0.999994 -81.61 0.001894 -165.6
8.90900000 0.001897 -177.8 0.999994 -81.61 0.999994 -81.61 0.001897 -165.6
8.90910000 0.001899 -177.8 0.999994 -81.62 0.999994 -81.62 0.001899 -165.6
8.90920000 0.001902 -177.8 0.999994 -81.62 0.999994 -81.62 0.001901 -165.6
8.90930000 0.001904 -177.8 0.999994 -81.62 0.999994 -81.62 0.001904 -165.6
8.90940000 0.001906 -177.8 0.999994 -81.62 0.999994 -81.62 0.001906 -165.6
8.90950000 0.001909 -177.9 0.999994 -81.62 0.999994 -81.62 0.001908 -165.5
8.90960000 0.001911 -177.9 0.999994 -81.62 0.999994 -81.62 0.001911 -165.5
8.90970000 0.001914 -177.9 0.999994 -81.62 0.999994 -81.62 0.001913 -165.5
8.90980000 0.001916 -177.9 0.999994 -81.62 0.999994 -81.62 0.001916 -165.5
8.90990000 0.001918 -177.9 0.999994 -81.62 0.999994 -81.62 0.001918 -165.5
8.91000000 0.001921 -177.9 0.999994 -81.63 0.999994 -81.63 0.001921 -165.5
8.91010000 0.001923 -178.0 0.999994 -81.63 0.999994 -81.63 0.001923 -165.5
8.91020000 0.001926 -178.0 0.999994 -81.63 0.999994 -81.63 0.001925 -165.4
8.91030000 0.001928 -178.0 0.999994 -81.63 0.999994 -81.63 0.001928 -165.4
8.91040000 0.001931 -178.0 0.999994 -81.63 0.999994 -81.63 0.001930 -165.4
8.91050000 0.001933 -178.0 0.999994 -81.63 0.999994 -81.63 0.001933 -165.4
8.91060000 0.001936 -178.0 0.999994 -81.63 0.999994 -81.63 0.001935 -165.4
8.91070000 0.001938 -178.1 0.999994 -81.63 0.999994 -81.63 0.001938 -165.4
8.91080000 0.001941 -178.1 0.999994 -81.63 0.999994 -81.63 0.001940 -165.4
8.91090000 0.001943 -178.1 0.999994 -81.63 0.999994 -81.63 0.001943 -165.3
8.91100000 0.001946 -178.1 0.999994 -81.64 0.999994 -81.64 0.001946 -165.3
8.91110000 0.001948 -178.1 0.999994 -81.64 0.999994 -81.64 0.001948 -165.3
8.91120000 0.001951 -178.1 0.999994 -81.64 0.999994 -81.64 0.001951 -165.3
8.91130000 0.001954 -178.2 0.999994 -81.64 0.999994 -81.64 0.001953 -165.3
8.91140000 0.001956 -178.2 0.999994 -81.64 0.999994 -81.64 0.001956 -165.3
8.91150000 0.001959 -178.2 0.999994 -81.64 0.999994 -81.64 0.001958 -165.2
8.91160000 0.001961 -178.2 0.999994 -81.64 0.999994 -81.64 0.001961 -165.2
8.91170000 0.001964 -178.2 0.999994 -81.64 0.999994 -81.64 0.001964 -165.2
8.91180000 0.001967 -178.3 0.999994 -81.64 0.999994 -81.64 0.001966 -165.2
8.91190000 0.001969 -178.3 0.999994 -81.65 0.999994 -81.65 0.001969 -165.2
8.91200000 0.001972 -178.3 0.999994 -81.65 0.999994 -81.65 0.001972 -165.2
8.91210000 0.001975 -178.3 0.999994 -81.65 0.999994 -81.65 0.001974 -165.2
8.91220000 0.001977 -178.3 0.999994 -81.65 0.999994 -81.65 0.001977 -165.1
8.91230000 0.001980 -178.3 0.999994 -81.65 0.999994 -81.65 0.001980 -165.1
8.91240000 0.001983 -178.4 0.999994 -81.65 0.999994 -81.65 0.001982 -165.1
8.91250000 0.001985 -178.4 0.999994 -81.65 0.999994 -81.65 0.001985 -165.1
8.91260000 0.001988 -178.4 0.999994 -81.65 0.999994 -81.65 0.001988 -165.1
8.91270000 0.001991 -178.4 0.999994 -81.65 0.999994 -81.65 0.001991 -165.1
8.91280000 0.001994 -178.4 0.999994 -81.66 0.999994 -81.66 0.001993 -165.0
8.91290000 0.001996 -178.4 0.999994 -81.66 0.999994 -81.66 0.001996 -165.0
8.91300000 0.001999 -178.5 0.999994 -81.66 0.999994 -81.66 0.001999 -165.0
8.91310000 0.002002 -178.5 0.999994 -81.66 0.999994 -81.66 0.002002 -165.0
8.91320000 0.002005 -178.5 0.999994 -81.66 0.999994 -81.66 0.002005 -165.0
8.91330000 0.002008 -178.5 0.999994 -81.66 0.999994 -81.66 0.002007 -165.0
8.91340000 0.002010 -178.5 0.999994 -81.66 0.999994 -81.66 0.002010 -165.0
8.91350000 0.002013 -178.6 0.999994 -81.66 0.999994 -81.66 0.002013 -164.9
8.91360000 0.002016 -178.6 0.999994 -81.66 0.999994 -81.66 0.002016 -164.9
8.91370000 0.002019 -178.6 0.999994 -81.66 0.999994 -81.66 0.002019 -164.9
8.91380000 0.002022 -178.6 0.999994 -81.67 0.999994 -81.67 0.002022 -164.9
8.91390000 0.002025 -178.6 0.999994 -81.67 0.999994 -81.67 0.002025 -164.9
8.91400000 0.002028 -178.6 0.999994 -81.67 0.999994 -81.67 0.002027 -164.9
8.91410000 0.002031 -178.7 0.999994 -81.67 0.999994 -81.67 0.002030 -164.8
8.91420000 0.002034 -178.7 0.999994 -81.67 0.999994 -81.67 0.002033 -164.8
8.91430000 0.002037 -178.7 0.999994 -81.67 0.999994 -81.67 0.002036 -164.8
8.91440000 0.002039 -178.7 0.999994 -81.67 0.999994 -81.67 0.002039 -164.8
8.91450000 0.002042 -178.7 0.999994 -81.67 0.999994 -81.67 0.002042 -164.8
8.91460000 0.002045 -178.7 0.999994 -81.67 0.999994 -81.67 0.002045 -164.8
8.91470000 0.002048 -178.8 0.999994 -81.68 0.999994 -81.68 0.002048 -164.7
8.91480000 0.002051 -178.8 0.999994 -81.68 0.999994 -81.68 0.002051 -164.7
8.91490000 0.002054 -178.8 0.999994 -81.68 0.999994 -81.68 0.002054 -164.7
8.91500000 0.002058 -178.8 0.999994 -81.68 0.999994 -81.68 0.002057 -164.7
8.91510000 0.002061 -178.8 0.999994 -81.68 0.999994 -81.68 0.002060 -164.7
8.91520000 0.002064 -178.9 0.999994 -81.68 0.999994 -81.68 0.002063 -164.7
8.91530000 0.002067 -178.9 0.999994 -81.68 0.999994 -81.68 0.002066 -164.7
8.91540000 0.002070 -178.9 0.999994 -81.68 0.999994 -81.68 0.002070 -164.6
8.91550000 0.002073 -178.9 0.999994 -81.68 0.999994 -81.68 0.002073 -164.6
8.91560000 0.002076 -178.9 0.999994 -81.69 0.999994 -81.69 0.002076 -164.6
8.91570000 0.002079 -178.9 0.999994 -81.69 0.999994 -81.69 0.002079 -164.6
8.91580000 0.002082 -179.0 0.999994 -81.69 0.999994 -81.69 0.002082 -164.6
8.91590000 0.002086 -179.0 0.999994 -81.69 0.999994 -81.69 0.002085 -164.6
8.91600000 0.002089 -179.0 0.999994 -81.69 0.999994 -81.69 0.002088 -164.5
8.91610000 0.002092 -179.0 0.999994 -81.69 0.999994 -81.69 0.002092 -164.5
8.91620000 0.002095 -179.0 0.999994 -81.69 0.999994 -81.69 0.002095 -164.5
8.91630000 0.002098 -179.1 0.999994 -81.69 0.999994 -81.69 0.002098 -164.5
8.91640000 0.002102 -179.1 0.999994 -81.69 0.999994 -81.69 0.002101 -164.5
8.91650000 0.002105 -179.1 0.999994 -81.70 0.999994 -81.70 0.002105 -164.5
8.91660000 0.002108 -179.1 0.999994 -81.70 0.999994 -81.70 0.002108 -164.4
8.91670000 0.002111 -179.1 0.999994 -81.70 0.999994 -81.70 0.002111 -164.4
8.91680000 0.002115 -179.2 0.999994 -81.70 0.999994 -81.70 0.002114 -164.4
8.91690000 0.002118 -179.2 0.999994 -81.70 0.999994 -81.70 0.002118 -164.4
8.91700000 0.002121 -179.2 0.999994 -81.70 0.999994 -81.70 0.002121 -164.4
8.91710000 0.002125 -179.2 0.999994 -81.70 0.999994 -81.70 0.002125 -164.4
8.91720000 0.002128 -179.2 0.999994 -81.70 0.999994 -81.70 0.002128 -164.3
8.91730000 0.002132 -179.2 0.999994 -81.70 0.999994 -81.70 0.002131 -164.3
8.91740000 0.002135 -179.3 0.999994 -81.71 0.999994 -81.71 0.002135 -164.3
8.91750000 0.002138 -179.3 0.999994 -81.71 0.999994 -81.71 0.002138 -164.3
8.91760000 0.002142 -179.3 0.999994 -81.71 0.999994 -81.71 0.002142 -164.3
8.91770000 0.002145 -179.3 0.999994 -81.71 0.999994 -81.71 0.002145 -164.3
8.91780000 0.002149 -179.3 0.999994 -81.71 0.999994 -81.71 0.002149 -164.2
8.91790000 0.002152 -179.4 0.999994 -81.71 0.999994 -81.71 0.002152 -164.2
8.91800000 0.002156 -179.4 0.999994 -81.71 0.999994 -81.71 0.002156 -164.2
8.91810000 0.002159 -179.4 0.999994 -81.71 0.999994 -81.71 0.002159 -164.2
8.91820000 0.002163 -179.4 0.999994 -81.71 0.999994 -81.71 0.002163 -164.2
8.91830000 0.002166 -179.4 0.999994 -81.72 0.999994 -81.72 0.002166 -164.2
8.91840000 0.002170 -179.5 0.999994 -81.72 0.999994 -81.72 0.002170 -164.1
8.91850000 0.002174 -179.5 0.999994 -81.72 0.999994 -81.72 0.002173 -164.1
8.91860000 0.002177 -179.5 0.999994 -81.72 0.999994 -81.72 0.002177 -164.1
8.91870000 0.002181 -179.5 0.999994 -81.72 0.999994 -81.72 0.002181 -164.1
8.91880000 0.002185 -179.5 0.999994 -81.72 0.999994 -81.72 0.002184 -164.1
8.91890000 0.002188 -179.6 0.999994 -81.72 0.999994 -81.72 0.002188 -164.1
8.91900000 0.002192 -179.6 0.999994 -81.72 0.999994 -81.72 0.002192 -164.0
8.91910000 0.002196 -179.6 0.999994 -81.72 0.999994 -81.72 0.002195 -164.0
8.91920000 0.002199 -179.6 0.999994 -81.73 0.999994 -81.73 0.002199 -164.0
8.91930000 0.002203 -179.6 0.999993 -81.73 0.999993 -81.73 0.002203 -164.0
8.91940000 0.002207 -179.6 0.999993 -81.73 0.999993 -81.73 0.002207 -164.0
8.91950000 0.002211 -179.7 0.999993 -81.73 0.999993 -81.73 0.002210 -163.9
8.91960000 0.002215 -179.7 0.999993 -81.73 0.999993 -81.73 0.002214 -163.9
8.91970000 0.002218 -179.7 0.999993 -81.73 0.999993 -81.73 0.002218 -163.9
8.91980000 0.002222 -179.7 0.999993 -81.73 0.999993 -81.73 0.002222 -163.9
8.91990000 0.002226 -179.7 0.999993 -81.73 0.999993 -81.73 0.002226 -163.9
8.92000000 0.002230 -179.8 0.999993 -81.73 0.999993 -81.73 0.002230 -163.9
8.92010000 0.002234 -179.8 0.999993 -81.74 0.999993 -81.74 0.002234 -163.8
8.92020000 0.002238 -179.8 0.999993 -81.74 0.999993 -81.74 0.002237 -163.8
8.92030000 0.002242 -179.8 0.999993 -81.74 0.999993 -81.74 0.002241 -163.8
8.92040000 0.002246 -179.8 0.999993 -81.74 0.999993 -81.74 0.002245 -163.8
8.92050000 0.002250 -179.9 0.999993 -81.74 0.999993 -81.74 0.002249 -163.8
8.92060000 0.002254 -179.9 0.999993 -81.74 0.999993 -81.74 0.002253 -163.8
8.92070000 0.002258 -179.9 0.999993 -81.74 0.999993 -81.74 0.002257 -163.7
8.92080000 0.002262 -179.9 0.999993 -81.74 0.999993 -81.74 0.002261 -163.7
8.92090000 0.002266 -179.9 0.999993 -81.75 0.999993 -81.75 0.002266 -163.7
8.92100000 0.002270 -180.0 0.999993 -81.75 0.999993 -81.75 0.002270 -163.7
8.92110000 0.002274 -180.0 0.999993 -81.75 0.999993 -81.75 0.002274 -163.7
8.92120000 0.002278 180.00 0.999993 -81.75 0.999993 -81.75 0.002278 -163.7
8.92130000 0.002282 179.98 0.999993 -81.75 0.999993 -81.75 0.002282 -163.6
8.92140000 0.002287 179.96 0.999993 -81.75 0.999993 -81.75 0.002286 -163.6
8.92150000 0.002291 179.94 0.999993 -81.75 0.999993 -81.75 0.002290 -163.6
8.92160000 0.002295 179.92 0.999993 -81.75 0.999993 -81.75 0.002295 -163.6
8.92170000 0.002299 179.89 0.999993 -81.75 0.999993 -81.75 0.002299 -163.6
8.92180000 0.002304 179.87 0.999993 -81.76 0.999993 -81.76 0.002303 -163.5
8.92190000 0.002308 179.85 0.999993 -81.76 0.999993 -81.76 0.002308 -163.5
8.92200000 0.002312 179.83 0.999993 -81.76 0.999993 -81.76 0.002312 -163.5
8.92210000 0.002317 179.81 0.999993 -81.76 0.999993 -81.76 0.002316 -163.5
8.92220000 0.002321 179.79 0.999993 -81.76 0.999993 -81.76 0.002321 -163.5
8.92230000 0.002325 179.77 0.999993 -81.76 0.999993 -81.76 0.002325 -163.5
8.92240000 0.002330 179.75 0.999993 -81.76 0.999993 -81.76 0.002329 -163.4
8.92250000 0.002334 179.73 0.999993 -81.76 0.999993 -81.76 0.002334 -163.4
8.92260000 0.002339 179.71 0.999993 -81.77 0.999993 -81.77 0.002338 -163.4
8.92270000 0.002343 179.69 0.999993 -81.77 0.999993 -81.77 0.002343 -163.4
8.92280000 0.002348 179.67 0.999993 -81.77 0.999993 -81.77 0.002347 -163.4
8.92290000 0.002352 179.65 0.999993 -81.77 0.999993 -81.77 0.002352 -163.3
8.92300000 0.002357 179.63 0.999993 -81.77 0.999993 -81.77 0.002356 -163.3
8.92310000 0.002361 179.61 0.999993 -81.77 0.999993 -81.77 0.002361 -163.3
8.92320000 0.002366 179.59 0.999993 -81.77 0.999993 -81.77 0.002366 -163.3
8.92330000 0.002371 179.57 0.999993 -81.77 0.999993 -81.77 0.002370 -163.3
8.92340000 0.002375 179.55 0.999993 -81.77 0.999993 -81.77 0.002375 -163.3
8.92350000 0.002380 179.52 0.999993 -81.78 0.999993 -81.78 0.002380 -163.2
8.92360000 0.002385 179.50 0.999993 -81.78 0.999993 -81.78 0.002384 -163.2
8.92370000 0.002390 179.48 0.999993 -81.78 0.999993 -81.78 0.002389 -163.2
8.92380000 0.002394 179.46 0.999993 -81.78 0.999993 -81.78 0.002394 -163.2
8.92390000 0.002399 179.44 0.999993 -81.78 0.999993 -81.78 0.002399 -163.2
8.92400000 0.002404 179.42 0.999993 -81.78 0.999993 -81.78 0.002404 -163.1
8.92410000 0.002409 179.40 0.999993 -81.78 0.999993 -81.78 0.002409 -163.1
8.92420000 0.002414 179.38 0.999993 -81.78 0.999993 -81.78 0.002413 -163.1
8.92430000 0.002419 179.36 0.999993 -81.79 0.999993 -81.79 0.002418 -163.1
8.92440000 0.002424 179.33 0.999993 -81.79 0.999993 -81.79 0.002423 -163.1
8.92450000 0.002429 179.31 0.999993 -81.79 0.999993 -81.79 0.002428 -163.0
8.92460000 0.002434 179.29 0.999993 -81.79 0.999993 -81.79 0.002433 -163.0
8.92470000 0.002439 179.27 0.999993 -81.79 0.999993 -81.79 0.002438 -163.0
8.92480000 0.002444 179.25 0.999993 -81.79 0.999993 -81.79 0.002443 -163.0
8.92490000 0.002449 179.23 0.999993 -81.79 0.999993 -81.79 0.002449 -163.0
8.92500000 0.002454 179.21 0.999993 -81.79 0.999993 -81.79 0.002454 -162.9
8.92510000 0.002459 179.19 0.999993 -81.79 0.999993 -81.79 0.002459 -162.9
8.92520000 0.002464 179.16 0.999993 -81.80 0.999993 -81.80 0.002464 -162.9
8.92530000 0.002470 179.14 0.999993 -81.80 0.999993 -81.80 0.002469 -162.9
8.92540000 0.002475 179.12 0.999993 -81.80 0.999993 -81.80 0.002475 -162.9
8.92550000 0.002480 179.10 0.999993 -81.80 0.999993 -81.80 0.002480 -162.9
8.92560000 0.002486 179.08 0.999993 -81.80 0.999993 -81.80 0.002485 -162.8
8.92570000 0.002491 179.06 0.999992 -81.80 0.999992 -81.80 0.002491 -162.8
8.92580000 0.002496 179.03 0.999992 -81.80 0.999992 -81.80 0.002496 -162.8
