! Sonnet Data File
! From: emgraph Version : 16.52
! From Project: Resonator2_cp_cp
! Data is De-embedded 
! Data File Written: 10/06/2017 09:20:31
!< HDATE 10/05/2017 21:11:40
!< MDATE 10/05/2017 21:11:40
!< PARAMS
!< gap = 86.0
!< Length = 400.0
!< Pwid1 = 2000.0
!< Pwid2 = 2000.0
!< END PARAMS
# GHZ S MA R 51.80000
8.80000000 9.363e-6 -148.4 0.999997 -80.49 0.999997 -80.49 1.185e-5 146.57
!< P1 F=8.8 Eeff=(6.44679989 -2.9721e-5) Z0=(51.7992624 1.19519e-4) R=0.0 C=0.0 
!< P2 F=8.8 Eeff=(6.44679989 -2.9721e-5) Z0=(51.7992624 1.19519e-4) R=0.0 C=0.0 
8.80020000 9.353e-6 -148.4 0.999997 -80.50 0.999997 -80.50 1.185e-5 146.52
8.80040000 9.348e-6 -148.3 0.999997 -80.50 0.999997 -80.50 1.185e-5 146.46
8.80060000 9.344e-6 -148.2 0.999997 -80.50 0.999997 -80.50 1.185e-5 146.39
8.80080000 9.339e-6 -148.2 0.999997 -80.50 0.999997 -80.50 1.185e-5 146.33
8.80100000 9.334e-6 -148.1 0.999997 -80.50 0.999997 -80.50 1.185e-5 146.27
8.80120000 9.329e-6 -148.0 0.999997 -80.50 0.999997 -80.50 1.185e-5 146.20
8.80140000 9.325e-6 -147.9 0.999997 -80.51 0.999997 -80.51 1.185e-5 146.14
8.80160000 9.320e-6 -147.9 0.999997 -80.51 0.999997 -80.51 1.185e-5 146.08
8.80180000 9.315e-6 -147.8 0.999997 -80.51 0.999997 -80.51 1.185e-5 146.01
8.80200000 9.311e-6 -147.7 0.999997 -80.51 0.999997 -80.51 1.185e-5 145.95
8.80220000 9.306e-6 -147.7 0.999997 -80.51 0.999997 -80.51 1.185e-5 145.89
8.80240000 9.301e-6 -147.6 0.999997 -80.52 0.999997 -80.52 1.185e-5 145.82
8.80260000 9.296e-6 -147.5 0.999997 -80.52 0.999997 -80.52 1.185e-5 145.76
8.80280000 9.292e-6 -147.5 0.999997 -80.52 0.999997 -80.52 1.185e-5 145.69
8.80300000 9.287e-6 -147.4 0.999997 -80.52 0.999997 -80.52 1.185e-5 145.63
8.80320000 9.282e-6 -147.3 0.999997 -80.52 0.999997 -80.52 1.185e-5 145.56
8.80340000 9.277e-6 -147.2 0.999997 -80.52 0.999997 -80.52 1.185e-5 145.50
8.80360000 9.273e-6 -147.2 0.999997 -80.53 0.999997 -80.53 1.185e-5 145.43
8.80380000 9.268e-6 -147.1 0.999997 -80.53 0.999997 -80.53 1.185e-5 145.37
8.80400000 9.263e-6 -147.0 0.999997 -80.53 0.999997 -80.53 1.185e-5 145.30
8.80420000 9.259e-6 -146.9 0.999997 -80.53 0.999997 -80.53 1.185e-5 145.24
8.80440000 9.254e-6 -146.9 0.999997 -80.53 0.999997 -80.53 1.185e-5 145.17
8.80460000 9.249e-6 -146.8 0.999997 -80.54 0.999997 -80.54 1.185e-5 145.10
8.80480000 9.244e-6 -146.7 0.999997 -80.54 0.999997 -80.54 1.185e-5 145.04
8.80500000 9.240e-6 -146.7 0.999997 -80.54 0.999997 -80.54 1.185e-5 144.97
8.80520000 9.235e-6 -146.6 0.999997 -80.54 0.999997 -80.54 1.185e-5 144.90
8.80540000 9.230e-6 -146.5 0.999997 -80.54 0.999997 -80.54 1.185e-5 144.84
8.80560000 9.226e-6 -146.4 0.999997 -80.54 0.999997 -80.54 1.185e-5 144.77
8.80580000 9.221e-6 -146.3 0.999997 -80.55 0.999997 -80.55 1.185e-5 144.70
8.80600000 9.216e-6 -146.3 0.999997 -80.55 0.999997 -80.55 1.185e-5 144.63
8.80620000 9.211e-6 -146.2 0.999997 -80.55 0.999997 -80.55 1.185e-5 144.56
8.80640000 9.207e-6 -146.1 0.999997 -80.55 0.999997 -80.55 1.185e-5 144.50
8.80660000 9.202e-6 -146.0 0.999997 -80.55 0.999997 -80.55 1.185e-5 144.43
8.80680000 9.197e-6 -146.0 0.999997 -80.56 0.999997 -80.56 1.185e-5 144.36
8.80700000 9.192e-6 -145.9 0.999997 -80.56 0.999997 -80.56 1.185e-5 144.29
8.80720000 9.188e-6 -145.8 0.999997 -80.56 0.999997 -80.56 1.185e-5 144.22
8.80740000 9.183e-6 -145.7 0.999997 -80.56 0.999997 -80.56 1.185e-5 144.15
8.80760000 9.178e-6 -145.6 0.999997 -80.56 0.999997 -80.56 1.185e-5 144.08
8.80780000 9.174e-6 -145.6 0.999997 -80.56 0.999997 -80.56 1.185e-5 144.01
8.80800000 9.169e-6 -145.5 0.999997 -80.57 0.999997 -80.57 1.185e-5 143.94
8.80820000 9.164e-6 -145.4 0.999997 -80.57 0.999997 -80.57 1.185e-5 143.87
8.80840000 9.159e-6 -145.3 0.999997 -80.57 0.999997 -80.57 1.185e-5 143.80
8.80860000 9.155e-6 -145.2 0.999997 -80.57 0.999997 -80.57 1.185e-5 143.73
8.80880000 9.150e-6 -145.2 0.999997 -80.57 0.999997 -80.57 1.185e-5 143.66
8.80900000 9.145e-6 -145.1 0.999997 -80.58 0.999997 -80.58 1.185e-5 143.58
8.80920000 9.140e-6 -145.0 0.999997 -80.58 0.999997 -80.58 1.185e-5 143.51
8.80940000 9.136e-6 -144.9 0.999997 -80.58 0.999997 -80.58 1.185e-5 143.44
8.80960000 9.131e-6 -144.8 0.999997 -80.58 0.999997 -80.58 1.185e-5 143.37
8.80980000 9.126e-6 -144.7 0.999997 -80.58 0.999997 -80.58 1.185e-5 143.29
8.81000000 9.122e-6 -144.7 0.999997 -80.58 0.999997 -80.58 1.185e-5 143.22
8.81020000 9.117e-6 -144.6 0.999997 -80.59 0.999997 -80.59 1.185e-5 143.15
8.81040000 9.112e-6 -144.5 0.999997 -80.59 0.999997 -80.59 1.185e-5 143.08
8.81060000 9.107e-6 -144.4 0.999997 -80.59 0.999997 -80.59 1.185e-5 143.00
8.81080000 9.103e-6 -144.3 0.999997 -80.59 0.999997 -80.59 1.185e-5 142.93
8.81100000 9.098e-6 -144.2 0.999997 -80.59 0.999997 -80.59 1.185e-5 142.85
8.81120000 9.093e-6 -144.1 0.999997 -80.60 0.999997 -80.60 1.185e-5 142.78
8.81140000 9.089e-6 -144.1 0.999997 -80.60 0.999997 -80.60 1.185e-5 142.70
8.81160000 9.084e-6 -144.0 0.999997 -80.60 0.999997 -80.60 1.185e-5 142.63
8.81180000 9.079e-6 -143.9 0.999997 -80.60 0.999997 -80.60 1.185e-5 142.55
8.81200000 9.074e-6 -143.8 0.999997 -80.60 0.999997 -80.60 1.186e-5 142.48
8.81220000 9.070e-6 -143.7 0.999997 -80.60 0.999997 -80.60 1.186e-5 142.40
8.81240000 9.065e-6 -143.6 0.999997 -80.61 0.999997 -80.61 1.186e-5 142.33
8.81260000 9.060e-6 -143.5 0.999997 -80.61 0.999997 -80.61 1.186e-5 142.25
8.81280000 9.056e-6 -143.4 0.999997 -80.61 0.999997 -80.61 1.186e-5 142.17
8.81300000 9.051e-6 -143.3 0.999997 -80.61 0.999997 -80.61 1.186e-5 142.10
8.81320000 9.046e-6 -143.3 0.999997 -80.61 0.999997 -80.61 1.186e-5 142.02
8.81340000 9.041e-6 -143.2 0.999997 -80.62 0.999997 -80.62 1.186e-5 141.94
8.81360000 9.037e-6 -143.1 0.999997 -80.62 0.999997 -80.62 1.186e-5 141.86
8.81380000 9.032e-6 -143.0 0.999997 -80.62 0.999997 -80.62 1.186e-5 141.79
8.81400000 9.027e-6 -142.9 0.999997 -80.62 0.999997 -80.62 1.186e-5 141.71
8.81420000 9.023e-6 -142.8 0.999997 -80.62 0.999997 -80.62 1.186e-5 141.63
8.81440000 9.018e-6 -142.7 0.999997 -80.62 0.999997 -80.62 1.186e-5 141.55
8.81460000 9.013e-6 -142.6 0.999997 -80.63 0.999997 -80.63 1.186e-5 141.47
8.81480000 9.009e-6 -142.5 0.999997 -80.63 0.999997 -80.63 1.186e-5 141.39
8.81500000 9.004e-6 -142.4 0.999997 -80.63 0.999997 -80.63 1.187e-5 141.31
8.81520000 8.999e-6 -142.3 0.999997 -80.63 0.999997 -80.63 1.187e-5 141.23
8.81540000 8.994e-6 -142.2 0.999997 -80.63 0.999997 -80.63 1.187e-5 141.15
8.81560000 8.990e-6 -142.1 0.999997 -80.64 0.999997 -80.64 1.187e-5 141.07
8.81580000 8.985e-6 -142.0 0.999997 -80.64 0.999997 -80.64 1.187e-5 140.99
8.81600000 8.980e-6 -141.9 0.999997 -80.64 0.999997 -80.64 1.187e-5 140.91
8.81620000 8.976e-6 -141.8 0.999997 -80.64 0.999997 -80.64 1.187e-5 140.82
8.81640000 8.971e-6 -141.7 0.999997 -80.64 0.999997 -80.64 1.187e-5 140.74
8.81660000 8.966e-6 -141.6 0.999997 -80.65 0.999997 -80.65 1.187e-5 140.66
8.81680000 8.962e-6 -141.5 0.999997 -80.65 0.999997 -80.65 1.187e-5 140.58
8.81700000 8.957e-6 -141.4 0.999997 -80.65 0.999997 -80.65 1.187e-5 140.49
8.81720000 8.952e-6 -141.3 0.999997 -80.65 0.999997 -80.65 1.188e-5 140.41
8.81740000 8.948e-6 -141.2 0.999997 -80.65 0.999997 -80.65 1.188e-5 140.33
8.81760000 8.943e-6 -141.1 0.999997 -80.65 0.999997 -80.65 1.188e-5 140.24
8.81780000 8.939e-6 -141.0 0.999997 -80.66 0.999997 -80.66 1.188e-5 140.16
8.81800000 8.934e-6 -140.9 0.999997 -80.66 0.999997 -80.66 1.188e-5 140.07
8.81820000 8.929e-6 -140.8 0.999997 -80.66 0.999997 -80.66 1.188e-5 139.99
8.81840000 8.925e-6 -140.7 0.999997 -80.66 0.999997 -80.66 1.188e-5 139.90
8.81860000 8.920e-6 -140.6 0.999997 -80.66 0.999997 -80.66 1.188e-5 139.82
8.81880000 8.915e-6 -140.5 0.999997 -80.67 0.999997 -80.67 1.189e-5 139.73
8.81900000 8.911e-6 -140.4 0.999997 -80.67 0.999997 -80.67 1.189e-5 139.64
8.81920000 8.906e-6 -140.3 0.999997 -80.67 0.999997 -80.67 1.189e-5 139.56
8.81940000 8.902e-6 -140.2 0.999997 -80.67 0.999997 -80.67 1.189e-5 139.47
8.81960000 8.897e-6 -140.1 0.999997 -80.67 0.999997 -80.67 1.189e-5 139.38
8.81980000 8.892e-6 -139.9 0.999997 -80.67 0.999997 -80.67 1.189e-5 139.29
8.82000000 8.888e-6 -139.8 0.999997 -80.68 0.999997 -80.68 1.189e-5 139.21
8.82020000 8.883e-6 -139.7 0.999997 -80.68 0.999997 -80.68 1.189e-5 139.12
8.82040000 8.879e-6 -139.6 0.999997 -80.68 0.999997 -80.68 1.190e-5 139.03
8.82060000 8.874e-6 -139.5 0.999997 -80.68 0.999997 -80.68 1.190e-5 138.94
8.82080000 8.869e-6 -139.4 0.999997 -80.68 0.999997 -80.68 1.190e-5 138.85
8.82100000 8.865e-6 -139.3 0.999997 -80.69 0.999997 -80.69 1.190e-5 138.76
8.82120000 8.860e-6 -139.2 0.999997 -80.69 0.999997 -80.69 1.190e-5 138.67
8.82140000 8.856e-6 -139.1 0.999997 -80.69 0.999997 -80.69 1.190e-5 138.58
8.82160000 8.851e-6 -138.9 0.999997 -80.69 0.999997 -80.69 1.191e-5 138.49
8.82180000 8.847e-6 -138.8 0.999997 -80.69 0.999997 -80.69 1.191e-5 138.40
8.82200000 8.842e-6 -138.7 0.999997 -80.69 0.999997 -80.69 1.191e-5 138.30
8.82220000 8.838e-6 -138.6 0.999997 -80.70 0.999997 -80.70 1.191e-5 138.21
8.82240000 8.833e-6 -138.5 0.999997 -80.70 0.999997 -80.70 1.191e-5 138.12
8.82260000 8.829e-6 -138.4 0.999997 -80.70 0.999997 -80.70 1.191e-5 138.03
8.82280000 8.824e-6 -138.2 0.999997 -80.70 0.999997 -80.70 1.192e-5 137.93
8.82300000 8.820e-6 -138.1 0.999997 -80.70 0.999997 -80.70 1.192e-5 137.84
8.82320000 8.815e-6 -138.0 0.999997 -80.71 0.999997 -80.71 1.192e-5 137.74
8.82340000 8.811e-6 -137.9 0.999997 -80.71 0.999997 -80.71 1.192e-5 137.65
8.82360000 8.807e-6 -137.8 0.999997 -80.71 0.999997 -80.71 1.192e-5 137.56
8.82380000 8.802e-6 -137.6 0.999997 -80.71 0.999997 -80.71 1.193e-5 137.46
8.82400000 8.798e-6 -137.5 0.999997 -80.71 0.999997 -80.71 1.193e-5 137.36
8.82420000 8.793e-6 -137.4 0.999997 -80.71 0.999997 -80.71 1.193e-5 137.27
8.82440000 8.789e-6 -137.3 0.999997 -80.72 0.999997 -80.72 1.193e-5 137.17
8.82460000 8.785e-6 -137.1 0.999997 -80.72 0.999997 -80.72 1.193e-5 137.07
8.82480000 8.780e-6 -137.0 0.999997 -80.72 0.999997 -80.72 1.194e-5 136.98
8.82500000 8.776e-6 -136.9 0.999997 -80.72 0.999997 -80.72 1.194e-5 136.88
8.82520000 8.771e-6 -136.8 0.999997 -80.72 0.999997 -80.72 1.194e-5 136.78
8.82540000 8.767e-6 -136.6 0.999997 -80.73 0.999997 -80.73 1.194e-5 136.68
8.82560000 8.763e-6 -136.5 0.999997 -80.73 0.999997 -80.73 1.194e-5 136.58
8.82580000 8.759e-6 -136.4 0.999997 -80.73 0.999997 -80.73 1.195e-5 136.48
8.82600000 8.754e-6 -136.3 0.999997 -80.73 0.999997 -80.73 1.195e-5 136.38
8.82620000 8.750e-6 -136.1 0.999997 -80.73 0.999997 -80.73 1.195e-5 136.28
8.82640000 8.746e-6 -136.0 0.999997 -80.73 0.999997 -80.73 1.195e-5 136.18
8.82660000 8.742e-6 -135.9 0.999997 -80.74 0.999997 -80.74 1.196e-5 136.08
8.82680000 8.737e-6 -135.7 0.999997 -80.74 0.999997 -80.74 1.196e-5 135.98
8.82700000 8.733e-6 -135.6 0.999997 -80.74 0.999997 -80.74 1.196e-5 135.88
8.82720000 8.729e-6 -135.5 0.999997 -80.74 0.999997 -80.74 1.196e-5 135.77
8.82740000 8.725e-6 -135.3 0.999997 -80.74 0.999997 -80.74 1.197e-5 135.67
8.82760000 8.721e-6 -135.2 0.999997 -80.75 0.999997 -80.75 1.197e-5 135.57
8.82780000 8.717e-6 -135.1 0.999997 -80.75 0.999997 -80.75 1.197e-5 135.46
8.82800000 8.712e-6 -134.9 0.999997 -80.75 0.999997 -80.75 1.197e-5 135.36
8.82820000 8.708e-6 -134.8 0.999997 -80.75 0.999997 -80.75 1.198e-5 135.25
8.82840000 8.704e-6 -134.6 0.999997 -80.75 0.999997 -80.75 1.198e-5 135.15
8.82860000 8.700e-6 -134.5 0.999997 -80.75 0.999997 -80.75 1.198e-5 135.04
8.82880000 8.696e-6 -134.4 0.999997 -80.76 0.999997 -80.76 1.198e-5 134.94
8.82900000 8.692e-6 -134.2 0.999997 -80.76 0.999997 -80.76 1.199e-5 134.83
8.82920000 8.688e-6 -134.1 0.999997 -80.76 0.999997 -80.76 1.199e-5 134.72
8.82940000 8.684e-6 -133.9 0.999997 -80.76 0.999997 -80.76 1.199e-5 134.62
8.82960000 8.680e-6 -133.8 0.999997 -80.76 0.999997 -80.76 1.200e-5 134.51
8.82980000 8.676e-6 -133.6 0.999997 -80.77 0.999997 -80.77 1.200e-5 134.40
8.83000000 8.673e-6 -133.5 0.999997 -80.77 0.999997 -80.77 1.200e-5 134.29
8.83020000 8.669e-6 -133.4 0.999997 -80.77 0.999997 -80.77 1.201e-5 134.18
8.83040000 8.665e-6 -133.2 0.999997 -80.77 0.999997 -80.77 1.201e-5 134.07
8.83060000 8.661e-6 -133.1 0.999997 -80.77 0.999997 -80.77 1.201e-5 133.96
8.83080000 8.657e-6 -132.9 0.999997 -80.77 0.999997 -80.77 1.201e-5 133.85
8.83100000 8.654e-6 -132.8 0.999997 -80.78 0.999997 -80.78 1.202e-5 133.74
8.83120000 8.650e-6 -132.6 0.999997 -80.78 0.999997 -80.78 1.202e-5 133.62
8.83140000 8.646e-6 -132.5 0.999997 -80.78 0.999997 -80.78 1.202e-5 133.51
8.83160000 8.643e-6 -132.3 0.999997 -80.78 0.999997 -80.78 1.203e-5 133.40
8.83180000 8.639e-6 -132.2 0.999997 -80.78 0.999997 -80.78 1.203e-5 133.29
8.83200000 8.635e-6 -132.0 0.999997 -80.79 0.999997 -80.79 1.204e-5 133.17
8.83220000 8.632e-6 -131.8 0.999997 -80.79 0.999997 -80.79 1.204e-5 133.06
8.83240000 8.628e-6 -131.7 0.999997 -80.79 0.999997 -80.79 1.204e-5 132.94
8.83260000 8.625e-6 -131.5 0.999997 -80.79 0.999997 -80.79 1.205e-5 132.83
8.83280000 8.621e-6 -131.4 0.999997 -80.79 0.999997 -80.79 1.205e-5 132.71
8.83300000 8.618e-6 -131.2 0.999997 -80.80 0.999997 -80.80 1.205e-5 132.59
8.83320000 8.614e-6 -131.1 0.999997 -80.80 0.999997 -80.80 1.206e-5 132.48
8.83340000 8.611e-6 -130.9 0.999997 -80.80 0.999997 -80.80 1.206e-5 132.36
8.83360000 8.608e-6 -130.7 0.999997 -80.80 0.999997 -80.80 1.207e-5 132.24
8.83380000 8.604e-6 -130.6 0.999997 -80.80 0.999997 -80.80 1.207e-5 132.12
8.83400000 8.601e-6 -130.4 0.999997 -80.80 0.999997 -80.80 1.207e-5 132.00
8.83420000 8.598e-6 -130.2 0.999997 -80.81 0.999997 -80.81 1.208e-5 131.88
8.83440000 8.595e-6 -130.1 0.999997 -80.81 0.999997 -80.81 1.208e-5 131.76
8.83460000 8.592e-6 -129.9 0.999997 -80.81 0.999997 -80.81 1.209e-5 131.64
8.83480000 8.589e-6 -129.7 0.999997 -80.81 0.999997 -80.81 1.209e-5 131.52
8.83500000 8.586e-6 -129.6 0.999997 -80.81 0.999997 -80.81 1.210e-5 131.40
8.83520000 8.583e-6 -129.4 0.999997 -80.82 0.999997 -80.82 1.210e-5 131.27
8.83540000 8.580e-6 -129.2 0.999997 -80.82 0.999997 -80.82 1.210e-5 131.15
8.83560000 8.577e-6 -129.1 0.999997 -80.82 0.999997 -80.82 1.211e-5 131.03
8.83580000 8.574e-6 -128.9 0.999997 -80.82 0.999997 -80.82 1.211e-5 130.90
8.83600000 8.571e-6 -128.7 0.999997 -80.82 0.999997 -80.82 1.212e-5 130.78
8.83620000 8.568e-6 -128.5 0.999997 -80.82 0.999997 -80.82 1.212e-5 130.65
8.83640000 8.566e-6 -128.4 0.999997 -80.83 0.999997 -80.83 1.213e-5 130.52
8.83660000 8.563e-6 -128.2 0.999997 -80.83 0.999997 -80.83 1.213e-5 130.40
8.83680000 8.560e-6 -128.0 0.999997 -80.83 0.999997 -80.83 1.214e-5 130.27
8.83700000 8.558e-6 -127.8 0.999997 -80.83 0.999997 -80.83 1.214e-5 130.14
8.83720000 8.555e-6 -127.6 0.999997 -80.83 0.999997 -80.83 1.215e-5 130.01
8.83740000 8.553e-6 -127.5 0.999997 -80.84 0.999997 -80.84 1.215e-5 129.88
8.83760000 8.551e-6 -127.3 0.999997 -80.84 0.999997 -80.84 1.216e-5 129.75
8.83780000 8.548e-6 -127.1 0.999997 -80.84 0.999997 -80.84 1.216e-5 129.62
8.83800000 8.546e-6 -126.9 0.999997 -80.84 0.999997 -80.84 1.217e-5 129.49
8.83820000 8.544e-6 -126.7 0.999997 -80.84 0.999997 -80.84 1.217e-5 129.36
8.83840000 8.542e-6 -126.5 0.999997 -80.84 0.999997 -80.84 1.218e-5 129.23
8.83860000 8.540e-6 -126.4 0.999997 -80.85 0.999997 -80.85 1.218e-5 129.10
8.83880000 8.538e-6 -126.2 0.999997 -80.85 0.999997 -80.85 1.219e-5 128.96
8.83900000 8.536e-6 -126.0 0.999997 -80.85 0.999997 -80.85 1.220e-5 128.83
8.83920000 8.534e-6 -125.8 0.999997 -80.85 0.999997 -80.85 1.220e-5 128.69
8.83940000 8.532e-6 -125.6 0.999997 -80.85 0.999997 -80.85 1.221e-5 128.56
8.83960000 8.530e-6 -125.4 0.999997 -80.86 0.999997 -80.86 1.221e-5 128.42
8.83980000 8.529e-6 -125.2 0.999997 -80.86 0.999997 -80.86 1.222e-5 128.29
8.84000000 8.527e-6 -125.0 0.999997 -80.86 0.999997 -80.86 1.223e-5 128.15
8.84020000 8.525e-6 -124.8 0.999997 -80.86 0.999997 -80.86 1.223e-5 128.01
8.84040000 8.524e-6 -124.6 0.999997 -80.86 0.999997 -80.86 1.224e-5 127.87
8.84060000 8.523e-6 -124.4 0.999997 -80.86 0.999997 -80.86 1.225e-5 127.73
8.84080000 8.521e-6 -124.2 0.999997 -80.87 0.999997 -80.87 1.225e-5 127.59
8.84100000 8.520e-6 -124.0 0.999997 -80.87 0.999997 -80.87 1.226e-5 127.45
8.84120000 8.519e-6 -123.8 0.999997 -80.87 0.999997 -80.87 1.226e-5 127.31
8.84140000 8.518e-6 -123.6 0.999997 -80.87 0.999997 -80.87 1.227e-5 127.17
8.84160000 8.517e-6 -123.4 0.999997 -80.87 0.999997 -80.87 1.228e-5 127.03
8.84180000 8.516e-6 -123.2 0.999997 -80.88 0.999997 -80.88 1.229e-5 126.89
8.84200000 8.515e-6 -123.0 0.999997 -80.88 0.999997 -80.88 1.229e-5 126.74
8.84220000 8.515e-6 -122.8 0.999997 -80.88 0.999997 -80.88 1.230e-5 126.60
8.84240000 8.514e-6 -122.6 0.999997 -80.88 0.999997 -80.88 1.231e-5 126.45
8.84260000 8.514e-6 -122.3 0.999997 -80.88 0.999997 -80.88 1.231e-5 126.31
8.84280000 8.513e-6 -122.1 0.999997 -80.88 0.999997 -80.88 1.232e-5 126.16
8.84300000 8.513e-6 -121.9 0.999997 -80.89 0.999997 -80.89 1.233e-5 126.01
8.84320000 8.513e-6 -121.7 0.999997 -80.89 0.999997 -80.89 1.234e-5 125.86
8.84340000 8.513e-6 -121.5 0.999997 -80.89 0.999997 -80.89 1.234e-5 125.72
8.84360000 8.513e-6 -121.3 0.999997 -80.89 0.999997 -80.89 1.235e-5 125.57
8.84380000 8.513e-6 -121.0 0.999997 -80.89 0.999997 -80.89 1.236e-5 125.42
8.84400000 8.513e-6 -120.8 0.999997 -80.90 0.999997 -80.90 1.237e-5 125.27
8.84420000 8.513e-6 -120.6 0.999997 -80.90 0.999997 -80.90 1.238e-5 125.11
8.84440000 8.514e-6 -120.4 0.999997 -80.90 0.999997 -80.90 1.238e-5 124.96
8.84460000 8.514e-6 -120.2 0.999997 -80.90 0.999997 -80.90 1.239e-5 124.81
8.84480000 8.515e-6 -119.9 0.999997 -80.90 0.999997 -80.90 1.240e-5 124.66
8.84500000 8.516e-6 -119.7 0.999997 -80.90 0.999997 -80.90 1.241e-5 124.50
8.84520000 8.516e-6 -119.5 0.999997 -80.91 0.999997 -80.91 1.242e-5 124.35
8.84540000 8.517e-6 -119.2 0.999997 -80.91 0.999997 -80.91 1.243e-5 124.19
8.84560000 8.519e-6 -119.0 0.999997 -80.91 0.999997 -80.91 1.244e-5 124.03
8.84580000 8.520e-6 -118.8 0.999997 -80.91 0.999997 -80.91 1.245e-5 123.88
8.84600000 8.521e-6 -118.5 0.999997 -80.91 0.999997 -80.91 1.246e-5 123.72
8.84620000 8.523e-6 -118.3 0.999997 -80.92 0.999997 -80.92 1.246e-5 123.56
8.84640000 8.524e-6 -118.1 0.999997 -80.92 0.999997 -80.92 1.247e-5 123.40
8.84660000 8.526e-6 -117.8 0.999997 -80.92 0.999997 -80.92 1.248e-5 123.24
8.84680000 8.528e-6 -117.6 0.999997 -80.92 0.999997 -80.92 1.249e-5 123.08
8.84700000 8.530e-6 -117.3 0.999997 -80.92 0.999997 -80.92 1.250e-5 122.92
8.84720000 8.532e-6 -117.1 0.999997 -80.93 0.999997 -80.93 1.251e-5 122.75
8.84740000 8.535e-6 -116.9 0.999997 -80.93 0.999997 -80.93 1.252e-5 122.59
8.84760000 8.537e-6 -116.6 0.999997 -80.93 0.999997 -80.93 1.253e-5 122.43
8.84780000 8.540e-6 -116.4 0.999997 -80.93 0.999997 -80.93 1.254e-5 122.26
8.84800000 8.543e-6 -116.1 0.999997 -80.93 0.999997 -80.93 1.255e-5 122.10
8.84820000 8.546e-6 -115.9 0.999997 -80.93 0.999997 -80.93 1.257e-5 121.93
8.84840000 8.549e-6 -115.6 0.999997 -80.94 0.999997 -80.94 1.258e-5 121.76
8.84860000 8.552e-6 -115.4 0.999997 -80.94 0.999997 -80.94 1.259e-5 121.60
8.84880000 8.555e-6 -115.1 0.999997 -80.94 0.999997 -80.94 1.260e-5 121.43
8.84900000 8.559e-6 -114.9 0.999997 -80.94 0.999997 -80.94 1.261e-5 121.26
8.84920000 8.563e-6 -114.6 0.999997 -80.94 0.999997 -80.94 1.262e-5 121.09
8.84940000 8.567e-6 -114.3 0.999997 -80.95 0.999997 -80.95 1.263e-5 120.92
8.84960000 8.571e-6 -114.1 0.999997 -80.95 0.999997 -80.95 1.264e-5 120.74
8.84980000 8.575e-6 -113.8 0.999997 -80.95 0.999997 -80.95 1.266e-5 120.57
8.85000000 8.580e-6 -113.6 0.999997 -80.95 0.999997 -80.95 1.267e-5 120.40
8.85020000 8.584e-6 -113.3 0.999997 -80.95 0.999997 -80.95 1.268e-5 120.22
8.85040000 8.589e-6 -113.0 0.999997 -80.95 0.999997 -80.95 1.269e-5 120.05
8.85060000 8.594e-6 -112.8 0.999997 -80.96 0.999997 -80.96 1.271e-5 119.87
8.85080000 8.600e-6 -112.5 0.999997 -80.96 0.999997 -80.96 1.272e-5 119.70
8.85100000 8.605e-6 -112.2 0.999997 -80.96 0.999997 -80.96 1.273e-5 119.52
8.85120000 8.611e-6 -112.0 0.999997 -80.96 0.999997 -80.96 1.274e-5 119.34
8.85140000 8.616e-6 -111.7 0.999997 -80.96 0.999997 -80.96 1.276e-5 119.16
8.85160000 8.623e-6 -111.4 0.999997 -80.97 0.999997 -80.97 1.277e-5 118.98
8.85180000 8.629e-6 -111.1 0.999997 -80.97 0.999997 -80.97 1.278e-5 118.80
