! Sonnet Data File
! From: emgraph Version : 16.52
! From Project: Resonator2_cp_varyW
! Data is De-embedded 
! Data File Written: 10/07/2017 09:25:23
!< HDATE 10/06/2017 17:18:21
!< MDATE 10/06/2017 17:18:21
!< PARAMS
!< gap = 6.0
!< Length = 400.0
!< Pwid1 = 2000.0
!< Pwid2 = 2000.0
!< Air_gap = 18.0
!< Width = 30.0
!< END PARAMS
# GHZ S MA R 51.80000
8.80000000 0.009704 -154.3 0.999948 -81.26 0.999948 -81.26 0.009704 171.83
!< P1 F=8.8 Eeff=(6.44507571 -2.9713e-5) Z0=(50.6188468 1.16784e-4) R=0.0 C=0.0 
!< P2 F=8.8 Eeff=(6.44507571 -2.9713e-5) Z0=(50.6188468 1.16784e-4) R=0.0 C=0.0 
8.80020000 0.009688 -154.3 0.999948 -81.26 0.999948 -81.26 0.009687 171.77
8.80040000 0.009671 -154.2 0.999948 -81.26 0.999948 -81.26 0.009670 171.71
8.80060000 0.009654 -154.2 0.999948 -81.27 0.999948 -81.27 0.009653 171.64
8.80080000 0.009637 -154.1 0.999948 -81.27 0.999948 -81.27 0.009636 171.58
8.80100000 0.009619 -154.1 0.999948 -81.27 0.999948 -81.27 0.009619 171.52
8.80120000 0.009602 -154.0 0.999949 -81.27 0.999949 -81.27 0.009601 171.45
8.80140000 0.009585 -153.9 0.999949 -81.28 0.999949 -81.28 0.009584 171.39
8.80160000 0.009567 -153.9 0.999949 -81.28 0.999949 -81.28 0.009567 171.32
8.80180000 0.009550 -153.8 0.999949 -81.28 0.999949 -81.28 0.009549 171.26
8.80200000 0.009532 -153.8 0.999949 -81.29 0.999949 -81.29 0.009532 171.19
8.80220000 0.009515 -153.7 0.999949 -81.29 0.999949 -81.29 0.009514 171.12
8.80240000 0.009497 -153.6 0.999950 -81.29 0.999950 -81.29 0.009496 171.05
8.80260000 0.009479 -153.6 0.999950 -81.30 0.999950 -81.30 0.009478 170.99
8.80280000 0.009461 -153.5 0.999950 -81.30 0.999950 -81.30 0.009461 170.92
8.80300000 0.009443 -153.5 0.999950 -81.30 0.999950 -81.30 0.009443 170.85
8.80320000 0.009425 -153.4 0.999950 -81.30 0.999950 -81.30 0.009425 170.78
8.80340000 0.009407 -153.3 0.999950 -81.31 0.999950 -81.31 0.009407 170.71
8.80360000 0.009389 -153.3 0.999951 -81.31 0.999951 -81.31 0.009388 170.64
8.80380000 0.009371 -153.2 0.999951 -81.31 0.999951 -81.31 0.009370 170.56
8.80400000 0.009353 -153.1 0.999951 -81.32 0.999951 -81.32 0.009352 170.49
8.80420000 0.009334 -153.1 0.999951 -81.32 0.999951 -81.32 0.009333 170.42
8.80440000 0.009316 -153.0 0.999951 -81.32 0.999951 -81.32 0.009315 170.34
8.80460000 0.009297 -152.9 0.999951 -81.33 0.999951 -81.33 0.009296 170.27
8.80480000 0.009279 -152.9 0.999951 -81.33 0.999951 -81.33 0.009278 170.20
8.80500000 0.009260 -152.8 0.999952 -81.33 0.999952 -81.33 0.009259 170.12
8.80520000 0.009241 -152.7 0.999952 -81.34 0.999952 -81.34 0.009240 170.04
8.80540000 0.009222 -152.6 0.999952 -81.34 0.999952 -81.34 0.009221 169.97
8.80560000 0.009203 -152.6 0.999952 -81.34 0.999952 -81.34 0.009202 169.89
8.80580000 0.009184 -152.5 0.999952 -81.34 0.999952 -81.34 0.009183 169.81
8.80600000 0.009165 -152.4 0.999952 -81.35 0.999952 -81.35 0.009164 169.73
8.80620000 0.009146 -152.4 0.999953 -81.35 0.999953 -81.35 0.009145 169.65
8.80640000 0.009126 -152.3 0.999953 -81.35 0.999953 -81.35 0.009125 169.57
8.80660000 0.009107 -152.2 0.999953 -81.36 0.999953 -81.36 0.009106 169.49
8.80680000 0.009087 -152.1 0.999953 -81.36 0.999953 -81.36 0.009086 169.41
8.80700000 0.009068 -152.1 0.999953 -81.36 0.999953 -81.36 0.009067 169.32
8.80720000 0.009048 -152.0 0.999953 -81.37 0.999953 -81.37 0.009047 169.24
8.80740000 0.009028 -151.9 0.999954 -81.37 0.999954 -81.37 0.009027 169.15
8.80760000 0.009009 -151.8 0.999954 -81.37 0.999954 -81.37 0.009008 169.07
8.80780000 0.008989 -151.7 0.999954 -81.38 0.999954 -81.38 0.008988 168.98
8.80800000 0.008969 -151.7 0.999954 -81.38 0.999954 -81.38 0.008968 168.90
8.80820000 0.008949 -151.6 0.999954 -81.38 0.999954 -81.38 0.008947 168.81
8.80840000 0.008928 -151.5 0.999954 -81.39 0.999954 -81.39 0.008927 168.72
8.80860000 0.008908 -151.4 0.999955 -81.39 0.999955 -81.39 0.008907 168.63
8.80880000 0.008888 -151.3 0.999955 -81.39 0.999955 -81.39 0.008887 168.54
8.80900000 0.008867 -151.2 0.999955 -81.40 0.999955 -81.40 0.008866 168.45
8.80920000 0.008847 -151.2 0.999955 -81.40 0.999955 -81.40 0.008845 168.35
8.80940000 0.008826 -151.1 0.999955 -81.40 0.999955 -81.40 0.008825 168.26
8.80960000 0.008805 -151.0 0.999955 -81.41 0.999955 -81.41 0.008804 168.17
8.80980000 0.008784 -150.9 0.999956 -81.41 0.999956 -81.41 0.008783 168.07
8.81000000 0.008764 -150.8 0.999956 -81.41 0.999956 -81.41 0.008762 167.98
8.81020000 0.008743 -150.7 0.999956 -81.42 0.999956 -81.42 0.008741 167.88
8.81040000 0.008721 -150.6 0.999956 -81.42 0.999956 -81.42 0.008720 167.78
8.81060000 0.008700 -150.5 0.999956 -81.42 0.999956 -81.42 0.008699 167.68
8.81080000 0.008679 -150.4 0.999956 -81.43 0.999956 -81.43 0.008678 167.58
8.81100000 0.008658 -150.3 0.999957 -81.43 0.999957 -81.43 0.008656 167.48
8.81120000 0.008636 -150.2 0.999957 -81.43 0.999957 -81.43 0.008635 167.38
8.81140000 0.008614 -150.1 0.999957 -81.44 0.999957 -81.44 0.008613 167.28
8.81160000 0.008593 -150.0 0.999957 -81.44 0.999957 -81.44 0.008591 167.17
8.81180000 0.008571 -149.9 0.999957 -81.44 0.999957 -81.44 0.008570 167.07
8.81200000 0.008549 -149.8 0.999957 -81.45 0.999957 -81.45 0.008548 166.96
8.81220000 0.008527 -149.7 0.999958 -81.45 0.999958 -81.45 0.008526 166.85
8.81240000 0.008505 -149.6 0.999958 -81.45 0.999958 -81.45 0.008504 166.74
8.81260000 0.008483 -149.5 0.999958 -81.46 0.999958 -81.46 0.008481 166.63
8.81280000 0.008461 -149.4 0.999958 -81.46 0.999958 -81.46 0.008459 166.52
8.81300000 0.008438 -149.3 0.999958 -81.46 0.999958 -81.46 0.008437 166.41
8.81320000 0.008416 -149.2 0.999959 -81.47 0.999959 -81.47 0.008414 166.30
8.81340000 0.008393 -149.1 0.999959 -81.47 0.999959 -81.47 0.008392 166.18
8.81360000 0.008371 -149.0 0.999959 -81.47 0.999959 -81.47 0.008369 166.07
8.81380000 0.008348 -148.9 0.999959 -81.48 0.999959 -81.48 0.008346 165.95
8.81400000 0.008325 -148.8 0.999959 -81.48 0.999959 -81.48 0.008323 165.83
8.81420000 0.008302 -148.7 0.999959 -81.48 0.999959 -81.48 0.008300 165.71
8.81440000 0.008279 -148.6 0.999960 -81.49 0.999960 -81.49 0.008277 165.59
8.81460000 0.008256 -148.4 0.999960 -81.49 0.999960 -81.49 0.008254 165.47
8.81480000 0.008232 -148.3 0.999960 -81.49 0.999960 -81.49 0.008231 165.34
8.81500000 0.008209 -148.2 0.999960 -81.50 0.999960 -81.50 0.008207 165.22
8.81520000 0.008186 -148.1 0.999960 -81.50 0.999960 -81.50 0.008184 165.09
8.81540000 0.008162 -148.0 0.999960 -81.50 0.999960 -81.50 0.008160 164.96
8.81560000 0.008138 -147.8 0.999961 -81.51 0.999961 -81.51 0.008137 164.83
8.81580000 0.008115 -147.7 0.999961 -81.51 0.999961 -81.51 0.008113 164.70
8.81600000 0.008091 -147.6 0.999961 -81.51 0.999961 -81.51 0.008089 164.57
8.81620000 0.008067 -147.5 0.999961 -81.52 0.999961 -81.52 0.008065 164.43
8.81640000 0.008043 -147.3 0.999961 -81.52 0.999961 -81.52 0.008041 164.30
8.81660000 0.008018 -147.2 0.999961 -81.53 0.999961 -81.53 0.008016 164.16
8.81680000 0.007994 -147.1 0.999962 -81.53 0.999962 -81.53 0.007992 164.02
8.81700000 0.007970 -146.9 0.999962 -81.53 0.999962 -81.53 0.007968 163.88
8.81720000 0.007945 -146.8 0.999962 -81.54 0.999962 -81.54 0.007943 163.74
8.81740000 0.007921 -146.7 0.999962 -81.54 0.999962 -81.54 0.007919 163.59
8.81760000 0.007896 -146.5 0.999962 -81.54 0.999962 -81.54 0.007894 163.45
8.81780000 0.007871 -146.4 0.999963 -81.55 0.999963 -81.55 0.007869 163.30
8.81800000 0.007846 -146.2 0.999963 -81.55 0.999963 -81.55 0.007844 163.15
8.81820000 0.007821 -146.1 0.999963 -81.55 0.999963 -81.55 0.007819 163.00
8.81840000 0.007796 -146.0 0.999963 -81.56 0.999963 -81.56 0.007794 162.84
8.81860000 0.007771 -145.8 0.999963 -81.56 0.999963 -81.56 0.007768 162.69
8.81880000 0.007745 -145.7 0.999963 -81.57 0.999963 -81.57 0.007743 162.53
8.81900000 0.007720 -145.5 0.999964 -81.57 0.999964 -81.57 0.007718 162.37
8.81920000 0.007694 -145.3 0.999964 -81.57 0.999964 -81.57 0.007692 162.21
8.81940000 0.007669 -145.2 0.999964 -81.58 0.999964 -81.58 0.007666 162.05
8.81960000 0.007643 -145.0 0.999964 -81.58 0.999964 -81.58 0.007641 161.88
8.81980000 0.007617 -144.9 0.999964 -81.58 0.999964 -81.58 0.007615 161.71
8.82000000 0.007591 -144.7 0.999964 -81.59 0.999964 -81.59 0.007589 161.54
8.82020000 0.007565 -144.5 0.999965 -81.59 0.999965 -81.59 0.007563 161.37
8.82040000 0.007539 -144.4 0.999965 -81.60 0.999965 -81.60 0.007536 161.19
8.82060000 0.007513 -144.2 0.999965 -81.60 0.999965 -81.60 0.007510 161.02
8.82080000 0.007486 -144.0 0.999965 -81.60 0.999965 -81.60 0.007484 160.84
8.82100000 0.007460 -143.9 0.999965 -81.61 0.999965 -81.61 0.007457 160.66
8.82120000 0.007433 -143.7 0.999966 -81.61 0.999966 -81.61 0.007430 160.47
8.82140000 0.007406 -143.5 0.999966 -81.61 0.999966 -81.61 0.007404 160.29
8.82160000 0.007380 -143.3 0.999966 -81.62 0.999966 -81.62 0.007377 160.10
8.82180000 0.007353 -143.1 0.999966 -81.62 0.999966 -81.62 0.007350 159.90
8.82200000 0.007326 -143.0 0.999966 -81.63 0.999966 -81.63 0.007323 159.71
8.82220000 0.007299 -142.8 0.999966 -81.63 0.999966 -81.63 0.007296 159.51
8.82240000 0.007272 -142.6 0.999967 -81.63 0.999967 -81.63 0.007269 159.31
8.82260000 0.007244 -142.4 0.999967 -81.64 0.999967 -81.64 0.007241 159.11
8.82280000 0.007217 -142.2 0.999967 -81.64 0.999967 -81.64 0.007214 158.90
8.82300000 0.007189 -142.0 0.999967 -81.65 0.999967 -81.65 0.007186 158.69
8.82320000 0.007162 -141.8 0.999967 -81.65 0.999967 -81.65 0.007159 158.48
8.82340000 0.007134 -141.6 0.999967 -81.65 0.999967 -81.65 0.007131 158.27
8.82360000 0.007107 -141.4 0.999968 -81.66 0.999968 -81.66 0.007103 158.05
8.82380000 0.007079 -141.1 0.999968 -81.66 0.999968 -81.66 0.007076 157.83
8.82400000 0.007051 -140.9 0.999968 -81.67 0.999968 -81.67 0.007048 157.61
8.82420000 0.007023 -140.7 0.999968 -81.67 0.999968 -81.67 0.007020 157.38
8.82440000 0.006995 -140.5 0.999968 -81.67 0.999968 -81.67 0.006991 157.15
8.82460000 0.006967 -140.3 0.999968 -81.68 0.999968 -81.68 0.006963 156.91
8.82480000 0.006938 -140.0 0.999969 -81.68 0.999969 -81.68 0.006935 156.67
8.82500000 0.006910 -139.8 0.999969 -81.69 0.999969 -81.69 0.006907 156.43
8.82520000 0.006882 -139.6 0.999969 -81.69 0.999969 -81.69 0.006878 156.19
8.82540000 0.006853 -139.3 0.999969 -81.70 0.999969 -81.70 0.006850 155.94
8.82560000 0.006824 -139.1 0.999969 -81.70 0.999969 -81.70 0.006821 155.69
8.82580000 0.006796 -138.8 0.999969 -81.70 0.999969 -81.70 0.006792 155.43
8.82600000 0.006767 -138.6 0.999970 -81.71 0.999970 -81.71 0.006763 155.17
8.82620000 0.006738 -138.3 0.999970 -81.71 0.999970 -81.71 0.006735 154.90
8.82640000 0.006710 -138.1 0.999970 -81.72 0.999970 -81.72 0.006706 154.64
8.82660000 0.006681 -137.8 0.999970 -81.72 0.999970 -81.72 0.006677 154.36
8.82680000 0.006652 -137.5 0.999970 -81.73 0.999970 -81.73 0.006648 154.09
8.82700000 0.006623 -137.2 0.999970 -81.73 0.999970 -81.73 0.006619 153.80
8.82720000 0.006594 -137.0 0.999971 -81.73 0.999971 -81.73 0.006590 153.52
8.82740000 0.006564 -136.7 0.999971 -81.74 0.999971 -81.74 0.006560 153.23
8.82760000 0.006535 -136.4 0.999971 -81.74 0.999971 -81.74 0.006531 152.93
8.82780000 0.006506 -136.1 0.999971 -81.75 0.999971 -81.75 0.006502 152.63
8.82800000 0.006477 -135.8 0.999971 -81.75 0.999971 -81.75 0.006473 152.33
8.82820000 0.006448 -135.5 0.999971 -81.76 0.999971 -81.76 0.006443 152.02
8.82840000 0.006418 -135.2 0.999972 -81.76 0.999972 -81.76 0.006414 151.70
8.82860000 0.006389 -134.9 0.999972 -81.76 0.999972 -81.76 0.006384 151.38
8.82880000 0.006360 -134.6 0.999972 -81.77 0.999972 -81.77 0.006355 151.05
8.82900000 0.006330 -134.2 0.999972 -81.77 0.999972 -81.77 0.006326 150.72
8.82920000 0.006301 -133.9 0.999972 -81.78 0.999972 -81.78 0.006296 150.38
8.82940000 0.006271 -133.6 0.999972 -81.78 0.999972 -81.78 0.006267 150.04
8.82960000 0.006242 -133.2 0.999972 -81.79 0.999972 -81.79 0.006237 149.69
8.82980000 0.006213 -132.9 0.999973 -81.79 0.999973 -81.79 0.006208 149.34
8.83000000 0.006183 -132.5 0.999973 -81.80 0.999973 -81.80 0.006178 148.98
8.83020000 0.006154 -132.2 0.999973 -81.80 0.999973 -81.80 0.006149 148.61
8.83040000 0.006124 -131.8 0.999973 -81.81 0.999973 -81.81 0.006119 148.24
8.83060000 0.006095 -131.5 0.999973 -81.81 0.999973 -81.81 0.006090 147.86
8.83080000 0.006066 -131.1 0.999973 -81.82 0.999973 -81.82 0.006061 147.47
8.83100000 0.006037 -130.7 0.999973 -81.82 0.999973 -81.82 0.006031 147.08
8.83120000 0.006007 -130.3 0.999974 -81.82 0.999974 -81.82 0.006002 146.68
8.83140000 0.005978 -129.9 0.999974 -81.83 0.999974 -81.83 0.005973 146.27
8.83160000 0.005949 -129.5 0.999974 -81.83 0.999974 -81.83 0.005944 145.86
8.83180000 0.005920 -129.1 0.999974 -81.84 0.999974 -81.84 0.005915 145.44
8.83200000 0.005891 -128.7 0.999974 -81.84 0.999974 -81.84 0.005886 145.01
8.83220000 0.005863 -128.2 0.999974 -81.85 0.999974 -81.85 0.005857 144.57
8.83240000 0.005834 -127.8 0.999974 -81.85 0.999974 -81.85 0.005828 144.13
8.83260000 0.005805 -127.4 0.999974 -81.86 0.999974 -81.86 0.005799 143.68
8.83280000 0.005777 -126.9 0.999975 -81.86 0.999975 -81.86 0.005771 143.21
8.83300000 0.005749 -126.5 0.999975 -81.87 0.999975 -81.87 0.005743 142.75
8.83320000 0.005721 -126.0 0.999975 -81.87 0.999975 -81.87 0.005714 142.27
8.83340000 0.005693 -125.5 0.999975 -81.88 0.999975 -81.88 0.005686 141.78
8.83360000 0.005665 -125.0 0.999975 -81.88 0.999975 -81.88 0.005658 141.29
8.83380000 0.005637 -124.5 0.999975 -81.89 0.999975 -81.89 0.005631 140.78
8.83400000 0.005610 -124.0 0.999975 -81.89 0.999975 -81.89 0.005603 140.27
8.83420000 0.005583 -123.5 0.999975 -81.90 0.999975 -81.90 0.005576 139.75
8.83440000 0.005556 -123.0 0.999975 -81.90 0.999975 -81.90 0.005549 139.22
8.83460000 0.005529 -122.5 0.999976 -81.91 0.999976 -81.91 0.005522 138.68
8.83480000 0.005503 -121.9 0.999976 -81.91 0.999976 -81.91 0.005496 138.13
8.83500000 0.005477 -121.4 0.999976 -81.92 0.999976 -81.92 0.005469 137.57
8.83520000 0.005451 -120.8 0.999976 -81.92 0.999976 -81.92 0.005443 136.99
8.83540000 0.005425 -120.2 0.999976 -81.93 0.999976 -81.93 0.005418 136.41
8.83560000 0.005400 -119.7 0.999976 -81.94 0.999976 -81.94 0.005392 135.82
8.83580000 0.005375 -119.1 0.999976 -81.94 0.999976 -81.94 0.005368 135.22
8.83600000 0.005351 -118.5 0.999976 -81.95 0.999976 -81.95 0.005343 134.60
8.83620000 0.005327 -117.9 0.999976 -81.95 0.999976 -81.95 0.005319 133.98
8.83640000 0.005303 -117.2 0.999976 -81.96 0.999976 -81.96 0.005295 133.35
8.83660000 0.005280 -116.6 0.999976 -81.96 0.999976 -81.96 0.005272 132.70
8.83680000 0.005257 -116.0 0.999976 -81.97 0.999976 -81.97 0.005249 132.04
8.83700000 0.005235 -115.3 0.999976 -81.97 0.999976 -81.97 0.005227 131.37
8.83720000 0.005214 -114.6 0.999977 -81.98 0.999977 -81.98 0.005205 130.69
8.83740000 0.005192 -113.9 0.999977 -81.98 0.999977 -81.98 0.005184 130.00
8.83760000 0.005172 -113.3 0.999977 -81.99 0.999977 -81.99 0.005163 129.29
8.83780000 0.005152 -112.5 0.999977 -82.00 0.999977 -82.00 0.005143 128.57
8.83800000 0.005133 -111.8 0.999977 -82.00 0.999977 -82.00 0.005123 127.85
8.83820000 0.005114 -111.1 0.999977 -82.01 0.999977 -82.01 0.005105 127.11
8.83840000 0.005096 -110.4 0.999977 -82.01 0.999977 -82.01 0.005086 126.35
8.83860000 0.005079 -109.6 0.999977 -82.02 0.999977 -82.02 0.005069 125.59
8.83880000 0.005062 -108.8 0.999977 -82.03 0.999977 -82.03 0.005052 124.81
8.83900000 0.005046 -108.1 0.999977 -82.03 0.999977 -82.03 0.005037 124.02
8.83920000 0.005032 -107.3 0.999977 -82.04 0.999977 -82.04 0.005021 123.22
8.83940000 0.005017 -106.5 0.999977 -82.04 0.999977 -82.04 0.005007 122.40
8.83960000 0.005004 -105.7 0.999977 -82.05 0.999977 -82.05 0.004994 121.58
8.83980000 0.004992 -104.8 0.999977 -82.05 0.999977 -82.05 0.004982 120.74
8.84000000 0.004981 -104.0 0.999977 -82.06 0.999977 -82.06 0.004970 119.89
8.84020000 0.004970 -103.2 0.999977 -82.07 0.999977 -82.07 0.004960 119.02
8.84040000 0.004961 -102.3 0.999977 -82.07 0.999977 -82.07 0.004950 118.15
8.84060000 0.004953 -101.4 0.999977 -82.08 0.999977 -82.08 0.004942 117.26
8.84080000 0.004946 -100.5 0.999977 -82.09 0.999977 -82.09 0.004934 116.37
8.84100000 0.004940 -99.65 0.999977 -82.09 0.999977 -82.09 0.004928 115.46
8.84120000 0.004935 -98.74 0.999977 -82.10 0.999977 -82.10 0.004923 114.54
8.84140000 0.004931 -97.83 0.999977 -82.10 0.999977 -82.10 0.004920 113.61
8.84160000 0.004929 -96.90 0.999976 -82.11 0.999976 -82.11 0.004917 112.67
8.84180000 0.004928 -95.97 0.999976 -82.12 0.999976 -82.12 0.004916 111.72
8.84200000 0.004928 -95.02 0.999976 -82.12 0.999976 -82.12 0.004916 110.76
8.84220000 0.004930 -94.07 0.999976 -82.13 0.999976 -82.13 0.004918 109.79
8.84240000 0.004933 -93.10 0.999976 -82.14 0.999976 -82.14 0.004921 108.81
8.84260000 0.004938 -92.13 0.999976 -82.14 0.999976 -82.14 0.004925 107.82
8.84280000 0.004944 -91.15 0.999976 -82.15 0.999976 -82.15 0.004931 106.83
8.84300000 0.004951 -90.17 0.999976 -82.16 0.999976 -82.16 0.004939 105.83
8.84320000 0.004961 -89.18 0.999976 -82.16 0.999976 -82.16 0.004948 104.82
8.84340000 0.004971 -88.18 0.999975 -82.17 0.999975 -82.17 0.004958 103.80
8.84360000 0.004984 -87.17 0.999975 -82.18 0.999975 -82.18 0.004971 102.78
8.84380000 0.004998 -86.16 0.999975 -82.19 0.999975 -82.19 0.004985 101.75
8.84400000 0.005014 -85.15 0.999975 -82.19 0.999975 -82.19 0.005001 100.72
8.84420000 0.005032 -84.13 0.999975 -82.20 0.999975 -82.20 0.005018 99.687
8.84440000 0.005051 -83.11 0.999975 -82.21 0.999975 -82.21 0.005038 98.648
8.84460000 0.005073 -82.08 0.999974 -82.21 0.999974 -82.21 0.005059 97.606
8.84480000 0.005096 -81.06 0.999974 -82.22 0.999974 -82.22 0.005082 96.563
8.84500000 0.005121 -80.03 0.999974 -82.23 0.999974 -82.23 0.005107 95.518
8.84520000 0.005148 -79.00 0.999974 -82.24 0.999974 -82.24 0.005134 94.472
8.84540000 0.005177 -77.98 0.999973 -82.24 0.999973 -82.24 0.005163 93.427
8.84560000 0.005209 -76.95 0.999973 -82.25 0.999973 -82.25 0.005194 92.382
8.84580000 0.005242 -75.92 0.999973 -82.26 0.999973 -82.26 0.005227 91.338
8.84600000 0.005277 -74.90 0.999973 -82.27 0.999973 -82.27 0.005262 90.296
8.84620000 0.005314 -73.88 0.999972 -82.27 0.999972 -82.27 0.005300 89.257
8.84640000 0.005354 -72.86 0.999972 -82.28 0.999972 -82.28 0.005339 88.222
8.84660000 0.005396 -71.85 0.999972 -82.29 0.999972 -82.29 0.005381 87.190
8.84680000 0.005439 -70.84 0.999971 -82.30 0.999971 -82.30 0.005425 86.163
8.84700000 0.005486 -69.84 0.999971 -82.30 0.999971 -82.30 0.005471 85.141
8.84720000 0.005534 -68.84 0.999970 -82.31 0.999970 -82.31 0.005519 84.124
8.84740000 0.005584 -67.85 0.999970 -82.32 0.999970 -82.32 0.005569 83.115
8.84760000 0.005637 -66.87 0.999970 -82.33 0.999970 -82.33 0.005622 82.112
8.84780000 0.005692 -65.89 0.999969 -82.34 0.999969 -82.34 0.005677 81.116
8.84800000 0.005750 -64.92 0.999969 -82.35 0.999969 -82.35 0.005735 80.128
8.84820000 0.005810 -63.96 0.999968 -82.35 0.999968 -82.35 0.005794 79.149
8.84840000 0.005872 -63.01 0.999968 -82.36 0.999968 -82.36 0.005857 78.178
8.84860000 0.005937 -62.07 0.999967 -82.37 0.999967 -82.37 0.005921 77.217
8.84880000 0.006004 -61.14 0.999967 -82.38 0.999967 -82.38 0.005988 76.265
8.84900000 0.006073 -60.22 0.999966 -82.39 0.999966 -82.39 0.006057 75.324
8.84920000 0.006145 -59.31 0.999966 -82.40 0.999966 -82.40 0.006129 74.392
8.84940000 0.006219 -58.41 0.999965 -82.41 0.999965 -82.41 0.006204 73.471
8.84960000 0.006296 -57.52 0.999964 -82.42 0.999964 -82.42 0.006280 72.561
8.84980000 0.006375 -56.64 0.999964 -82.42 0.999964 -82.42 0.006360 71.662
8.85000000 0.006457 -55.77 0.999963 -82.43 0.999963 -82.43 0.006441 70.775
8.85020000 0.006541 -54.92 0.999962 -82.44 0.999962 -82.44 0.006526 69.898
8.85040000 0.006628 -54.07 0.999961 -82.45 0.999961 -82.45 0.006613 69.034
8.85060000 0.006718 -53.24 0.999961 -82.46 0.999961 -82.46 0.006702 68.181
8.85080000 0.006810 -52.42 0.999960 -82.47 0.999960 -82.47 0.006794 67.340
8.85100000 0.006904 -51.61 0.999959 -82.48 0.999959 -82.48 0.006889 66.511
8.85120000 0.007002 -50.82 0.999958 -82.49 0.999958 -82.49 0.006986 65.694
8.85140000 0.007102 -50.03 0.999957 -82.50 0.999957 -82.50 0.007086 64.889
8.85160000 0.007204 -49.26 0.999956 -82.51 0.999956 -82.51 0.007188 64.097
