! Sonnet Data File
! From: emgraph Version : 16.52
! From Project: Resonator2_cp
! Data is De-embedded 
! Data File Written: 10/09/2017 00:47:19
!< HDATE 10/08/2017 10:09:33
!< MDATE 10/08/2017 10:09:33
!< PARAMS
!< Length = 400.0
!< Pwid1 = 2000.0
!< Pwid2 = 2000.0
!< Air_gap = 24.0
!< Width = 40.0
!< gap = 26.0
!< END PARAMS
# GHZ S MA R 51.00000
8.90000000 0.009318 -172.8 0.999953 -81.61 0.999953 -81.61 0.009318 -170.5
!< P1 F=8.9 Eeff=(6.44311882 -2.9701e-5) Z0=(50.4817959 1.16462e-4) R=0.0 C=0.0 
!< P2 F=8.9 Eeff=(6.44311882 -2.9701e-5) Z0=(50.4817959 1.16462e-4) R=0.0 C=0.0 
8.90010000 0.009320 -172.8 0.999953 -81.61 0.999953 -81.61 0.009321 -170.5
8.90020000 0.009323 -172.8 0.999953 -81.61 0.999953 -81.61 0.009323 -170.5
8.90030000 0.009326 -172.8 0.999953 -81.61 0.999953 -81.61 0.009326 -170.5
8.90040000 0.009328 -172.8 0.999953 -81.61 0.999953 -81.61 0.009328 -170.5
8.90050000 0.009331 -172.8 0.999953 -81.61 0.999953 -81.61 0.009331 -170.5
8.90060000 0.009333 -172.8 0.999953 -81.61 0.999953 -81.61 0.009334 -170.5
8.90070000 0.009336 -172.8 0.999953 -81.62 0.999953 -81.62 0.009336 -170.5
8.90080000 0.009339 -172.8 0.999953 -81.62 0.999953 -81.62 0.009339 -170.5
8.90090000 0.009341 -172.8 0.999953 -81.62 0.999953 -81.62 0.009342 -170.5
8.90100000 0.009344 -172.8 0.999952 -81.62 0.999952 -81.62 0.009344 -170.5
8.90110000 0.009347 -172.8 0.999952 -81.62 0.999952 -81.62 0.009347 -170.4
8.90120000 0.009349 -172.8 0.999952 -81.62 0.999952 -81.62 0.009350 -170.4
8.90130000 0.009352 -172.8 0.999952 -81.62 0.999952 -81.62 0.009352 -170.4
8.90140000 0.009355 -172.8 0.999952 -81.62 0.999952 -81.62 0.009355 -170.4
8.90150000 0.009358 -172.9 0.999952 -81.62 0.999952 -81.62 0.009358 -170.4
8.90160000 0.009360 -172.9 0.999952 -81.63 0.999952 -81.63 0.009361 -170.4
8.90170000 0.009363 -172.9 0.999952 -81.63 0.999952 -81.63 0.009363 -170.4
8.90180000 0.009366 -172.9 0.999952 -81.63 0.999952 -81.63 0.009366 -170.4
8.90190000 0.009369 -172.9 0.999952 -81.63 0.999952 -81.63 0.009369 -170.4
8.90200000 0.009371 -172.9 0.999952 -81.63 0.999952 -81.63 0.009372 -170.4
8.90210000 0.009374 -172.9 0.999952 -81.63 0.999952 -81.63 0.009374 -170.4
8.90220000 0.009377 -172.9 0.999952 -81.63 0.999952 -81.63 0.009377 -170.4
8.90230000 0.009380 -172.9 0.999952 -81.63 0.999952 -81.63 0.009380 -170.4
8.90240000 0.009382 -172.9 0.999952 -81.63 0.999952 -81.63 0.009383 -170.4
8.90250000 0.009385 -172.9 0.999952 -81.64 0.999952 -81.64 0.009386 -170.4
8.90260000 0.009388 -172.9 0.999952 -81.64 0.999952 -81.64 0.009388 -170.4
8.90270000 0.009391 -172.9 0.999952 -81.64 0.999952 -81.64 0.009391 -170.4
8.90280000 0.009394 -172.9 0.999952 -81.64 0.999952 -81.64 0.009394 -170.4
8.90290000 0.009397 -173.0 0.999952 -81.64 0.999952 -81.64 0.009397 -170.4
8.90300000 0.009400 -173.0 0.999952 -81.64 0.999952 -81.64 0.009400 -170.4
8.90310000 0.009402 -173.0 0.999952 -81.64 0.999952 -81.64 0.009403 -170.4
8.90320000 0.009405 -173.0 0.999952 -81.64 0.999952 -81.64 0.009406 -170.3
8.90330000 0.009408 -173.0 0.999952 -81.64 0.999952 -81.64 0.009409 -170.3
8.90340000 0.009411 -173.0 0.999952 -81.64 0.999952 -81.64 0.009411 -170.3
8.90350000 0.009414 -173.0 0.999952 -81.65 0.999952 -81.65 0.009414 -170.3
8.90360000 0.009417 -173.0 0.999952 -81.65 0.999952 -81.65 0.009417 -170.3
8.90370000 0.009420 -173.0 0.999952 -81.65 0.999952 -81.65 0.009420 -170.3
8.90380000 0.009423 -173.0 0.999952 -81.65 0.999952 -81.65 0.009423 -170.3
8.90390000 0.009426 -173.0 0.999952 -81.65 0.999952 -81.65 0.009426 -170.3
8.90400000 0.009429 -173.0 0.999952 -81.65 0.999952 -81.65 0.009429 -170.3
8.90410000 0.009432 -173.0 0.999952 -81.65 0.999952 -81.65 0.009432 -170.3
8.90420000 0.009435 -173.0 0.999952 -81.65 0.999952 -81.65 0.009435 -170.3
8.90430000 0.009438 -173.1 0.999952 -81.65 0.999952 -81.65 0.009438 -170.3
8.90440000 0.009441 -173.1 0.999951 -81.66 0.999951 -81.66 0.009441 -170.3
8.90450000 0.009444 -173.1 0.999951 -81.66 0.999951 -81.66 0.009444 -170.3
8.90460000 0.009447 -173.1 0.999951 -81.66 0.999951 -81.66 0.009447 -170.3
8.90470000 0.009450 -173.1 0.999951 -81.66 0.999951 -81.66 0.009450 -170.3
8.90480000 0.009453 -173.1 0.999951 -81.66 0.999951 -81.66 0.009453 -170.3
8.90490000 0.009456 -173.1 0.999951 -81.66 0.999951 -81.66 0.009456 -170.3
8.90500000 0.009459 -173.1 0.999951 -81.66 0.999951 -81.66 0.009460 -170.3
8.90510000 0.009462 -173.1 0.999951 -81.66 0.999951 -81.66 0.009463 -170.2
8.90520000 0.009465 -173.1 0.999951 -81.66 0.999951 -81.66 0.009466 -170.2
8.90530000 0.009469 -173.1 0.999951 -81.67 0.999951 -81.67 0.009469 -170.2
8.90540000 0.009472 -173.1 0.999951 -81.67 0.999951 -81.67 0.009472 -170.2
8.90550000 0.009475 -173.1 0.999951 -81.67 0.999951 -81.67 0.009475 -170.2
8.90560000 0.009478 -173.2 0.999951 -81.67 0.999951 -81.67 0.009478 -170.2
8.90570000 0.009481 -173.2 0.999951 -81.67 0.999951 -81.67 0.009481 -170.2
8.90580000 0.009484 -173.2 0.999951 -81.67 0.999951 -81.67 0.009485 -170.2
8.90590000 0.009488 -173.2 0.999951 -81.67 0.999951 -81.67 0.009488 -170.2
8.90600000 0.009491 -173.2 0.999951 -81.67 0.999951 -81.67 0.009491 -170.2
8.90610000 0.009494 -173.2 0.999951 -81.67 0.999951 -81.67 0.009494 -170.2
8.90620000 0.009497 -173.2 0.999951 -81.68 0.999951 -81.68 0.009497 -170.2
8.90630000 0.009500 -173.2 0.999951 -81.68 0.999951 -81.68 0.009501 -170.2
8.90640000 0.009504 -173.2 0.999951 -81.68 0.999951 -81.68 0.009504 -170.2
8.90650000 0.009507 -173.2 0.999951 -81.68 0.999951 -81.68 0.009507 -170.2
8.90660000 0.009510 -173.2 0.999951 -81.68 0.999951 -81.68 0.009511 -170.2
8.90670000 0.009514 -173.2 0.999951 -81.68 0.999951 -81.68 0.009514 -170.2
8.90680000 0.009517 -173.2 0.999951 -81.68 0.999951 -81.68 0.009517 -170.2
8.90690000 0.009520 -173.3 0.999951 -81.68 0.999951 -81.68 0.009520 -170.2
8.90700000 0.009523 -173.3 0.999951 -81.68 0.999951 -81.68 0.009524 -170.1
8.90710000 0.009527 -173.3 0.999951 -81.69 0.999951 -81.69 0.009527 -170.1
8.90720000 0.009530 -173.3 0.999951 -81.69 0.999951 -81.69 0.009531 -170.1
8.90730000 0.009534 -173.3 0.999951 -81.69 0.999951 -81.69 0.009534 -170.1
8.90740000 0.009537 -173.3 0.999950 -81.69 0.999950 -81.69 0.009537 -170.1
8.90750000 0.009540 -173.3 0.999950 -81.69 0.999950 -81.69 0.009541 -170.1
8.90760000 0.009544 -173.3 0.999950 -81.69 0.999950 -81.69 0.009544 -170.1
8.90770000 0.009547 -173.3 0.999950 -81.69 0.999950 -81.69 0.009548 -170.1
8.90780000 0.009551 -173.3 0.999950 -81.69 0.999950 -81.69 0.009551 -170.1
8.90790000 0.009554 -173.3 0.999950 -81.69 0.999950 -81.69 0.009554 -170.1
8.90800000 0.009558 -173.3 0.999950 -81.70 0.999950 -81.70 0.009558 -170.1
8.90810000 0.009561 -173.3 0.999950 -81.70 0.999950 -81.70 0.009561 -170.1
8.90820000 0.009564 -173.4 0.999950 -81.70 0.999950 -81.70 0.009565 -170.1
8.90830000 0.009568 -173.4 0.999950 -81.70 0.999950 -81.70 0.009568 -170.1
8.90840000 0.009572 -173.4 0.999950 -81.70 0.999950 -81.70 0.009572 -170.1
8.90850000 0.009575 -173.4 0.999950 -81.70 0.999950 -81.70 0.009575 -170.1
8.90860000 0.009579 -173.4 0.999950 -81.70 0.999950 -81.70 0.009579 -170.1
8.90870000 0.009582 -173.4 0.999950 -81.70 0.999950 -81.70 0.009583 -170.0
8.90880000 0.009586 -173.4 0.999950 -81.71 0.999950 -81.71 0.009586 -170.0
8.90890000 0.009589 -173.4 0.999950 -81.71 0.999950 -81.71 0.009590 -170.0
8.90900000 0.009593 -173.4 0.999950 -81.71 0.999950 -81.71 0.009593 -170.0
8.90910000 0.009597 -173.4 0.999950 -81.71 0.999950 -81.71 0.009597 -170.0
8.90920000 0.009600 -173.4 0.999950 -81.71 0.999950 -81.71 0.009601 -170.0
8.90930000 0.009604 -173.5 0.999950 -81.71 0.999950 -81.71 0.009604 -170.0
8.90940000 0.009607 -173.5 0.999950 -81.71 0.999950 -81.71 0.009608 -170.0
8.90950000 0.009611 -173.5 0.999950 -81.71 0.999950 -81.71 0.009612 -170.0
8.90960000 0.009615 -173.5 0.999950 -81.71 0.999950 -81.71 0.009615 -170.0
8.90970000 0.009619 -173.5 0.999950 -81.72 0.999950 -81.72 0.009619 -170.0
8.90980000 0.009622 -173.5 0.999950 -81.72 0.999950 -81.72 0.009623 -170.0
8.90990000 0.009626 -173.5 0.999950 -81.72 0.999950 -81.72 0.009626 -170.0
8.91000000 0.009630 -173.5 0.999950 -81.72 0.999950 -81.72 0.009630 -170.0
8.91010000 0.009634 -173.5 0.999949 -81.72 0.999949 -81.72 0.009634 -170.0
8.91020000 0.009637 -173.5 0.999949 -81.72 0.999949 -81.72 0.009638 -170.0
8.91030000 0.009641 -173.5 0.999949 -81.72 0.999949 -81.72 0.009642 -169.9
8.91040000 0.009645 -173.5 0.999949 -81.72 0.999949 -81.72 0.009645 -169.9
8.91050000 0.009649 -173.6 0.999949 -81.72 0.999949 -81.72 0.009649 -169.9
8.91060000 0.009653 -173.6 0.999949 -81.73 0.999949 -81.73 0.009653 -169.9
8.91070000 0.009657 -173.6 0.999949 -81.73 0.999949 -81.73 0.009657 -169.9
8.91080000 0.009660 -173.6 0.999949 -81.73 0.999949 -81.73 0.009661 -169.9
8.91090000 0.009664 -173.6 0.999949 -81.73 0.999949 -81.73 0.009665 -169.9
8.91100000 0.009668 -173.6 0.999949 -81.73 0.999949 -81.73 0.009669 -169.9
8.91110000 0.009672 -173.6 0.999949 -81.73 0.999949 -81.73 0.009673 -169.9
8.91120000 0.009676 -173.6 0.999949 -81.73 0.999949 -81.73 0.009676 -169.9
8.91130000 0.009680 -173.6 0.999949 -81.73 0.999949 -81.73 0.009680 -169.9
8.91140000 0.009684 -173.6 0.999949 -81.73 0.999949 -81.73 0.009684 -169.9
8.91150000 0.009688 -173.6 0.999949 -81.74 0.999949 -81.74 0.009688 -169.9
8.91160000 0.009692 -173.7 0.999949 -81.74 0.999949 -81.74 0.009692 -169.9
8.91170000 0.009696 -173.7 0.999949 -81.74 0.999949 -81.74 0.009696 -169.9
8.91180000 0.009700 -173.7 0.999949 -81.74 0.999949 -81.74 0.009701 -169.8
8.91190000 0.009704 -173.7 0.999949 -81.74 0.999949 -81.74 0.009705 -169.8
8.91200000 0.009708 -173.7 0.999949 -81.74 0.999949 -81.74 0.009709 -169.8
8.91210000 0.009712 -173.7 0.999949 -81.74 0.999949 -81.74 0.009713 -169.8
8.91220000 0.009717 -173.7 0.999949 -81.74 0.999949 -81.74 0.009717 -169.8
8.91230000 0.009721 -173.7 0.999949 -81.75 0.999949 -81.75 0.009721 -169.8
8.91240000 0.009725 -173.7 0.999949 -81.75 0.999949 -81.75 0.009725 -169.8
8.91250000 0.009729 -173.7 0.999948 -81.75 0.999948 -81.75 0.009729 -169.8
8.91260000 0.009733 -173.7 0.999948 -81.75 0.999948 -81.75 0.009734 -169.8
8.91270000 0.009737 -173.8 0.999948 -81.75 0.999948 -81.75 0.009738 -169.8
8.91280000 0.009742 -173.8 0.999948 -81.75 0.999948 -81.75 0.009742 -169.8
8.91290000 0.009746 -173.8 0.999948 -81.75 0.999948 -81.75 0.009746 -169.8
8.91300000 0.009750 -173.8 0.999948 -81.75 0.999948 -81.75 0.009751 -169.8
8.91310000 0.009754 -173.8 0.999948 -81.75 0.999948 -81.75 0.009755 -169.8
8.91320000 0.009759 -173.8 0.999948 -81.76 0.999948 -81.76 0.009759 -169.7
8.91330000 0.009763 -173.8 0.999948 -81.76 0.999948 -81.76 0.009763 -169.7
8.91340000 0.009767 -173.8 0.999948 -81.76 0.999948 -81.76 0.009768 -169.7
8.91350000 0.009772 -173.8 0.999948 -81.76 0.999948 -81.76 0.009772 -169.7
8.91360000 0.009776 -173.8 0.999948 -81.76 0.999948 -81.76 0.009777 -169.7
8.91370000 0.009780 -173.9 0.999948 -81.76 0.999948 -81.76 0.009781 -169.7
8.91380000 0.009785 -173.9 0.999948 -81.76 0.999948 -81.76 0.009785 -169.7
8.91390000 0.009789 -173.9 0.999948 -81.76 0.999948 -81.76 0.009790 -169.7
8.91400000 0.009794 -173.9 0.999948 -81.77 0.999948 -81.77 0.009794 -169.7
8.91410000 0.009798 -173.9 0.999948 -81.77 0.999948 -81.77 0.009799 -169.7
8.91420000 0.009803 -173.9 0.999948 -81.77 0.999948 -81.77 0.009803 -169.7
8.91430000 0.009807 -173.9 0.999948 -81.77 0.999948 -81.77 0.009808 -169.7
8.91440000 0.009812 -173.9 0.999948 -81.77 0.999948 -81.77 0.009812 -169.7
8.91450000 0.009816 -173.9 0.999948 -81.77 0.999948 -81.77 0.009817 -169.6
8.91460000 0.009821 -173.9 0.999947 -81.77 0.999947 -81.77 0.009821 -169.6
8.91470000 0.009826 -174.0 0.999947 -81.77 0.999947 -81.77 0.009826 -169.6
8.91480000 0.009830 -174.0 0.999947 -81.77 0.999947 -81.77 0.009831 -169.6
8.91490000 0.009835 -174.0 0.999947 -81.78 0.999947 -81.78 0.009835 -169.6
8.91500000 0.009840 -174.0 0.999947 -81.78 0.999947 -81.78 0.009840 -169.6
8.91510000 0.009844 -174.0 0.999947 -81.78 0.999947 -81.78 0.009845 -169.6
8.91520000 0.009849 -174.0 0.999947 -81.78 0.999947 -81.78 0.009849 -169.6
8.91530000 0.009854 -174.0 0.999947 -81.78 0.999947 -81.78 0.009854 -169.6
8.91540000 0.009858 -174.0 0.999947 -81.78 0.999947 -81.78 0.009859 -169.6
8.91550000 0.009863 -174.0 0.999947 -81.78 0.999947 -81.78 0.009864 -169.6
8.91560000 0.009868 -174.0 0.999947 -81.78 0.999947 -81.78 0.009868 -169.6
8.91570000 0.009873 -174.1 0.999947 -81.79 0.999947 -81.79 0.009873 -169.6
8.91580000 0.009878 -174.1 0.999947 -81.79 0.999947 -81.79 0.009878 -169.5
8.91590000 0.009882 -174.1 0.999947 -81.79 0.999947 -81.79 0.009883 -169.5
8.91600000 0.009887 -174.1 0.999947 -81.79 0.999947 -81.79 0.009888 -169.5
8.91610000 0.009892 -174.1 0.999947 -81.79 0.999947 -81.79 0.009893 -169.5
8.91620000 0.009897 -174.1 0.999947 -81.79 0.999947 -81.79 0.009898 -169.5
8.91630000 0.009902 -174.1 0.999947 -81.79 0.999947 -81.79 0.009903 -169.5
8.91640000 0.009907 -174.1 0.999947 -81.79 0.999947 -81.79 0.009908 -169.5
8.91650000 0.009912 -174.1 0.999946 -81.80 0.999946 -81.80 0.009913 -169.5
8.91660000 0.009917 -174.1 0.999946 -81.80 0.999946 -81.80 0.009918 -169.5
8.91670000 0.009922 -174.2 0.999946 -81.80 0.999946 -81.80 0.009923 -169.5
8.91680000 0.009927 -174.2 0.999946 -81.80 0.999946 -81.80 0.009928 -169.5
8.91690000 0.009932 -174.2 0.999946 -81.80 0.999946 -81.80 0.009933 -169.5
8.91700000 0.009938 -174.2 0.999946 -81.80 0.999946 -81.80 0.009938 -169.4
8.91710000 0.009943 -174.2 0.999946 -81.80 0.999946 -81.80 0.009943 -169.4
8.91720000 0.009948 -174.2 0.999946 -81.80 0.999946 -81.80 0.009948 -169.4
8.91730000 0.009953 -174.2 0.999946 -81.81 0.999946 -81.81 0.009954 -169.4
8.91740000 0.009958 -174.2 0.999946 -81.81 0.999946 -81.81 0.009959 -169.4
8.91750000 0.009964 -174.2 0.999946 -81.81 0.999946 -81.81 0.009964 -169.4
8.91760000 0.009969 -174.3 0.999946 -81.81 0.999946 -81.81 0.009969 -169.4
8.91770000 0.009974 -174.3 0.999946 -81.81 0.999946 -81.81 0.009975 -169.4
8.91780000 0.009979 -174.3 0.999946 -81.81 0.999946 -81.81 0.009980 -169.4
8.91790000 0.009985 -174.3 0.999946 -81.81 0.999946 -81.81 0.009985 -169.4
8.91800000 0.009990 -174.3 0.999946 -81.81 0.999946 -81.81 0.009991 -169.4
8.91810000 0.009996 -174.3 0.999946 -81.81 0.999946 -81.81 0.009996 -169.4
8.91820000 0.010001 -174.3 0.999946 -81.82 0.999946 -81.82 0.010001 -169.3
8.91830000 0.010006 -174.3 0.999945 -81.82 0.999945 -81.82 0.010007 -169.3
8.91840000 0.010012 -174.3 0.999945 -81.82 0.999945 -81.82 0.010012 -169.3
8.91850000 0.010017 -174.4 0.999945 -81.82 0.999945 -81.82 0.010018 -169.3
8.91860000 0.010023 -174.4 0.999945 -81.82 0.999945 -81.82 0.010024 -169.3
8.91870000 0.010029 -174.4 0.999945 -81.82 0.999945 -81.82 0.010029 -169.3
8.91880000 0.010034 -174.4 0.999945 -81.82 0.999945 -81.82 0.010035 -169.3
8.91890000 0.010040 -174.4 0.999945 -81.82 0.999945 -81.82 0.010040 -169.3
8.91900000 0.010045 -174.4 0.999945 -81.83 0.999945 -81.83 0.010046 -169.3
8.91910000 0.010051 -174.4 0.999945 -81.83 0.999945 -81.83 0.010052 -169.3
8.91920000 0.010057 -174.4 0.999945 -81.83 0.999945 -81.83 0.010057 -169.3
8.91930000 0.010063 -174.5 0.999945 -81.83 0.999945 -81.83 0.010063 -169.2
8.91940000 0.010068 -174.5 0.999945 -81.83 0.999945 -81.83 0.010069 -169.2
8.91950000 0.010074 -174.5 0.999945 -81.83 0.999945 -81.83 0.010075 -169.2
8.91960000 0.010080 -174.5 0.999945 -81.83 0.999945 -81.83 0.010080 -169.2
8.91970000 0.010086 -174.5 0.999945 -81.84 0.999945 -81.84 0.010086 -169.2
8.91980000 0.010092 -174.5 0.999944 -81.84 0.999944 -81.84 0.010092 -169.2
8.91990000 0.010098 -174.5 0.999944 -81.84 0.999944 -81.84 0.010098 -169.2
8.92000000 0.010104 -174.5 0.999944 -81.84 0.999944 -81.84 0.010104 -169.2
8.92010000 0.010110 -174.6 0.999944 -81.84 0.999944 -81.84 0.010110 -169.2
8.92020000 0.010116 -174.6 0.999944 -81.84 0.999944 -81.84 0.010116 -169.2
8.92030000 0.010122 -174.6 0.999944 -81.84 0.999944 -81.84 0.010122 -169.2
8.92040000 0.010128 -174.6 0.999944 -81.84 0.999944 -81.84 0.010128 -169.1
8.92050000 0.010134 -174.6 0.999944 -81.85 0.999944 -81.85 0.010134 -169.1
8.92060000 0.010140 -174.6 0.999944 -81.85 0.999944 -81.85 0.010140 -169.1
8.92070000 0.010146 -174.6 0.999944 -81.85 0.999944 -81.85 0.010147 -169.1
8.92080000 0.010152 -174.6 0.999944 -81.85 0.999944 -81.85 0.010153 -169.1
8.92090000 0.010158 -174.6 0.999944 -81.85 0.999944 -81.85 0.010159 -169.1
8.92100000 0.010165 -174.7 0.999944 -81.85 0.999944 -81.85 0.010165 -169.1
8.92110000 0.010171 -174.7 0.999944 -81.85 0.999944 -81.85 0.010172 -169.1
8.92120000 0.010177 -174.7 0.999944 -81.85 0.999944 -81.85 0.010178 -169.1
8.92130000 0.010184 -174.7 0.999943 -81.86 0.999943 -81.86 0.010184 -169.1
8.92140000 0.010190 -174.7 0.999943 -81.86 0.999943 -81.86 0.010191 -169.0
8.92150000 0.010197 -174.7 0.999943 -81.86 0.999943 -81.86 0.010197 -169.0
8.92160000 0.010203 -174.7 0.999943 -81.86 0.999943 -81.86 0.010204 -169.0
8.92170000 0.010210 -174.8 0.999943 -81.86 0.999943 -81.86 0.010210 -169.0
8.92180000 0.010216 -174.8 0.999943 -81.86 0.999943 -81.86 0.010217 -169.0
8.92190000 0.010223 -174.8 0.999943 -81.86 0.999943 -81.86 0.010223 -169.0
8.92200000 0.010229 -174.8 0.999943 -81.86 0.999943 -81.86 0.010230 -169.0
8.92210000 0.010236 -174.8 0.999943 -81.87 0.999943 -81.87 0.010237 -169.0
8.92220000 0.010243 -174.8 0.999943 -81.87 0.999943 -81.87 0.010243 -169.0
8.92230000 0.010249 -174.8 0.999943 -81.87 0.999943 -81.87 0.010250 -168.9
8.92240000 0.010256 -174.8 0.999943 -81.87 0.999943 -81.87 0.010257 -168.9
8.92250000 0.010263 -174.9 0.999943 -81.87 0.999943 -81.87 0.010264 -168.9
8.92260000 0.010270 -174.9 0.999942 -81.87 0.999942 -81.87 0.010270 -168.9
8.92270000 0.010277 -174.9 0.999942 -81.87 0.999942 -81.87 0.010277 -168.9
8.92280000 0.010284 -174.9 0.999942 -81.88 0.999942 -81.88 0.010284 -168.9
8.92290000 0.010291 -174.9 0.999942 -81.88 0.999942 -81.88 0.010291 -168.9
8.92300000 0.010297 -174.9 0.999942 -81.88 0.999942 -81.88 0.010298 -168.9
8.92310000 0.010305 -174.9 0.999942 -81.88 0.999942 -81.88 0.010305 -168.9
8.92320000 0.010312 -175.0 0.999942 -81.88 0.999942 -81.88 0.010312 -168.9
8.92330000 0.010319 -175.0 0.999942 -81.88 0.999942 -81.88 0.010319 -168.8
8.92340000 0.010326 -175.0 0.999942 -81.88 0.999942 -81.88 0.010327 -168.8
8.92350000 0.010333 -175.0 0.999942 -81.88 0.999942 -81.88 0.010334 -168.8
8.92360000 0.010340 -175.0 0.999942 -81.89 0.999942 -81.89 0.010341 -168.8
8.92370000 0.010348 -175.0 0.999942 -81.89 0.999942 -81.89 0.010348 -168.8
8.92380000 0.010355 -175.0 0.999941 -81.89 0.999941 -81.89 0.010356 -168.8
8.92390000 0.010362 -175.0 0.999941 -81.89 0.999941 -81.89 0.010363 -168.8
8.92400000 0.010370 -175.1 0.999941 -81.89 0.999941 -81.89 0.010370 -168.8
8.92410000 0.010377 -175.1 0.999941 -81.89 0.999941 -81.89 0.010378 -168.8
8.92420000 0.010385 -175.1 0.999941 -81.89 0.999941 -81.89 0.010385 -168.7
8.92430000 0.010392 -175.1 0.999941 -81.90 0.999941 -81.90 0.010393 -168.7
8.92440000 0.010400 -175.1 0.999941 -81.90 0.999941 -81.90 0.010400 -168.7
8.92450000 0.010407 -175.1 0.999941 -81.90 0.999941 -81.90 0.010408 -168.7
8.92460000 0.010415 -175.1 0.999941 -81.90 0.999941 -81.90 0.010416 -168.7
8.92470000 0.010423 -175.2 0.999941 -81.90 0.999941 -81.90 0.010423 -168.7
8.92480000 0.010430 -175.2 0.999941 -81.90 0.999941 -81.90 0.010431 -168.7
8.92490000 0.010438 -175.2 0.999941 -81.90 0.999941 -81.90 0.010439 -168.7
8.92500000 0.010446 -175.2 0.999940 -81.91 0.999940 -81.91 0.010447 -168.6
8.92510000 0.010454 -175.2 0.999940 -81.91 0.999940 -81.91 0.010455 -168.6
8.92520000 0.010462 -175.2 0.999940 -81.91 0.999940 -81.91 0.010463 -168.6
8.92530000 0.010470 -175.3 0.999940 -81.91 0.999940 -81.91 0.010471 -168.6
8.92540000 0.010478 -175.3 0.999940 -81.91 0.999940 -81.91 0.010479 -168.6
8.92550000 0.010486 -175.3 0.999940 -81.91 0.999940 -81.91 0.010487 -168.6
8.92560000 0.010494 -175.3 0.999940 -81.91 0.999940 -81.91 0.010495 -168.6
8.92570000 0.010502 -175.3 0.999940 -81.92 0.999940 -81.92 0.010503 -168.6
8.92580000 0.010510 -175.3 0.999940 -81.92 0.999940 -81.92 0.010511 -168.5
