! Sonnet Data File
! From: emgraph Version : 16.52
! From Project: Resonator2_extremeCap
! Data is De-embedded 
! Data File Written: 10/10/2017 20:29:21
!< HDATE 10/09/2017 23:04:37
!< MDATE 10/09/2017 23:04:37
!< PARAMS
!< Pwid1 = 2000.0
!< Pwid2 = 2000.0
!< Air_gap = 12.0
!< Width = 20.0
!< Gap = 13.0
!< END PARAMS
# GHZ S MA R 51.80000
8.98000000 0.073110 51.293 0.997290 -92.35 0.997290 -92.35 0.073049 -56.02
!< P1 F=8.98 Eeff=(6.44620984 -2.9718e-5) Z0=(50.9069029 1.17456e-4) R=0.0 C=0.0 
!< P2 F=8.98 Eeff=(6.44620984 -2.9718e-5) Z0=(50.9069029 1.17456e-4) R=0.0 C=0.0 
8.98010000 0.073176 51.392 0.997285 -92.36 0.997285 -92.36 0.073115 -56.14
8.98020000 0.073242 51.492 0.997280 -92.37 0.997280 -92.37 0.073181 -56.26
8.98030000 0.073309 51.592 0.997275 -92.38 0.997275 -92.38 0.073247 -56.38
8.98040000 0.073377 51.692 0.997270 -92.39 0.997270 -92.39 0.073314 -56.50
8.98050000 0.073444 51.792 0.997265 -92.40 0.997265 -92.40 0.073382 -56.62
8.98060000 0.073513 51.892 0.997260 -92.41 0.997260 -92.41 0.073450 -56.74
8.98070000 0.073582 51.993 0.997255 -92.42 0.997255 -92.42 0.073519 -56.86
8.98080000 0.073651 52.093 0.997249 -92.43 0.997249 -92.43 0.073588 -56.98
8.98090000 0.073721 52.194 0.997244 -92.44 0.997244 -92.44 0.073658 -57.10
8.98100000 0.073791 52.295 0.997239 -92.45 0.997239 -92.45 0.073728 -57.22
8.98110000 0.073863 52.397 0.997233 -92.46 0.997233 -92.46 0.073799 -57.35
8.98120000 0.073934 52.498 0.997228 -92.47 0.997228 -92.47 0.073871 -57.47
8.98130000 0.074006 52.600 0.997223 -92.49 0.997223 -92.49 0.073943 -57.59
8.98140000 0.074079 52.701 0.997217 -92.50 0.997217 -92.50 0.074015 -57.71
8.98150000 0.074152 52.803 0.997211 -92.51 0.997211 -92.51 0.074088 -57.84
8.98160000 0.074226 52.906 0.997206 -92.52 0.997206 -92.52 0.074162 -57.96
8.98170000 0.074301 53.008 0.997200 -92.53 0.997200 -92.53 0.074236 -58.08
8.98180000 0.074376 53.111 0.997194 -92.54 0.997194 -92.54 0.074311 -58.21
8.98190000 0.074451 53.213 0.997189 -92.55 0.997189 -92.55 0.074386 -58.33
8.98200000 0.074527 53.316 0.997183 -92.56 0.997183 -92.56 0.074462 -58.46
8.98210000 0.074604 53.419 0.997177 -92.57 0.997177 -92.57 0.074539 -58.58
8.98220000 0.074682 53.523 0.997171 -92.58 0.997171 -92.58 0.074616 -58.71
8.98230000 0.074760 53.626 0.997165 -92.59 0.997165 -92.59 0.074694 -58.83
8.98240000 0.074838 53.730 0.997159 -92.60 0.997159 -92.60 0.074772 -58.96
8.98250000 0.074917 53.834 0.997153 -92.61 0.997153 -92.61 0.074851 -59.08
8.98260000 0.074997 53.938 0.997147 -92.62 0.997147 -92.62 0.074931 -59.21
8.98270000 0.075078 54.042 0.997141 -92.63 0.997141 -92.63 0.075011 -59.33
8.98280000 0.075159 54.146 0.997134 -92.64 0.997134 -92.64 0.075092 -59.46
8.98290000 0.075240 54.251 0.997128 -92.66 0.997128 -92.66 0.075174 -59.59
8.98300000 0.075323 54.356 0.997122 -92.67 0.997122 -92.67 0.075256 -59.71
8.98310000 0.075406 54.461 0.997115 -92.68 0.997115 -92.68 0.075338 -59.84
8.98320000 0.075489 54.566 0.997109 -92.69 0.997109 -92.69 0.075422 -59.97
8.98330000 0.075573 54.671 0.997102 -92.70 0.997102 -92.70 0.075506 -60.10
8.98340000 0.075658 54.777 0.997096 -92.71 0.997096 -92.71 0.075591 -60.22
8.98350000 0.075744 54.882 0.997089 -92.72 0.997089 -92.72 0.075676 -60.35
8.98360000 0.075830 54.988 0.997082 -92.73 0.997082 -92.73 0.075762 -60.48
8.98370000 0.075917 55.094 0.997076 -92.74 0.997076 -92.74 0.075849 -60.61
8.98380000 0.076005 55.200 0.997069 -92.76 0.997069 -92.76 0.075936 -60.74
8.98390000 0.076093 55.306 0.997062 -92.77 0.997062 -92.77 0.076024 -60.87
8.98400000 0.076182 55.413 0.997055 -92.78 0.997055 -92.78 0.076113 -61.00
8.98410000 0.076271 55.520 0.997048 -92.79 0.997048 -92.79 0.076202 -61.13
8.98420000 0.076362 55.627 0.997041 -92.80 0.997041 -92.80 0.076292 -61.26
8.98430000 0.076453 55.734 0.997034 -92.81 0.997034 -92.81 0.076383 -61.39
8.98440000 0.076544 55.841 0.997027 -92.83 0.997027 -92.83 0.076474 -61.52
8.98450000 0.076637 55.948 0.997019 -92.84 0.997019 -92.84 0.076567 -61.65
8.98460000 0.076730 56.056 0.997012 -92.85 0.997012 -92.85 0.076659 -61.78
8.98470000 0.076824 56.163 0.997005 -92.86 0.997005 -92.86 0.076753 -61.91
8.98480000 0.076918 56.271 0.996997 -92.87 0.996997 -92.87 0.076847 -62.04
8.98490000 0.077013 56.379 0.996990 -92.88 0.996990 -92.88 0.076943 -62.17
8.98500000 0.077109 56.488 0.996982 -92.90 0.996982 -92.90 0.077038 -62.31
8.98510000 0.077206 56.596 0.996975 -92.91 0.996975 -92.91 0.077135 -62.44
8.98520000 0.077304 56.704 0.996967 -92.92 0.996967 -92.92 0.077232 -62.57
8.98530000 0.077402 56.813 0.996959 -92.93 0.996959 -92.93 0.077330 -62.70
8.98540000 0.077501 56.922 0.996951 -92.94 0.996951 -92.94 0.077429 -62.84
8.98550000 0.077601 57.031 0.996943 -92.96 0.996943 -92.96 0.077529 -62.97
8.98560000 0.077701 57.140 0.996935 -92.97 0.996935 -92.97 0.077629 -63.10
8.98570000 0.077803 57.250 0.996927 -92.98 0.996927 -92.98 0.077730 -63.24
8.98580000 0.077905 57.359 0.996919 -92.99 0.996919 -92.99 0.077832 -63.37
8.98590000 0.078007 57.469 0.996911 -93.00 0.996911 -93.00 0.077935 -63.51
8.98600000 0.078111 57.579 0.996903 -93.02 0.996903 -93.02 0.078038 -63.64
8.98610000 0.078216 57.689 0.996894 -93.03 0.996894 -93.03 0.078142 -63.78
8.98620000 0.078321 57.799 0.996886 -93.04 0.996886 -93.04 0.078247 -63.91
8.98630000 0.078427 57.909 0.996877 -93.05 0.996877 -93.05 0.078353 -64.05
8.98640000 0.078534 58.019 0.996869 -93.07 0.996869 -93.07 0.078460 -64.18
8.98650000 0.078642 58.130 0.996860 -93.08 0.996860 -93.08 0.078567 -64.32
8.98660000 0.078750 58.241 0.996851 -93.09 0.996851 -93.09 0.078676 -64.46
8.98670000 0.078860 58.352 0.996843 -93.10 0.996843 -93.10 0.078785 -64.59
8.98680000 0.078970 58.463 0.996834 -93.12 0.996834 -93.12 0.078895 -64.73
8.98690000 0.079081 58.574 0.996825 -93.13 0.996825 -93.13 0.079006 -64.87
8.98700000 0.079193 58.685 0.996816 -93.14 0.996816 -93.14 0.079117 -65.00
8.98710000 0.079306 58.797 0.996806 -93.16 0.996806 -93.16 0.079230 -65.14
8.98720000 0.079419 58.908 0.996797 -93.17 0.996797 -93.17 0.079343 -65.28
8.98730000 0.079534 59.020 0.996788 -93.18 0.996788 -93.18 0.079458 -65.42
8.98740000 0.079649 59.132 0.996779 -93.19 0.996779 -93.19 0.079573 -65.55
8.98750000 0.079766 59.244 0.996769 -93.21 0.996769 -93.21 0.079689 -65.69
8.98760000 0.079883 59.357 0.996760 -93.22 0.996760 -93.22 0.079806 -65.83
8.98770000 0.080001 59.469 0.996750 -93.23 0.996750 -93.23 0.079924 -65.97
8.98780000 0.080120 59.581 0.996740 -93.25 0.996740 -93.25 0.080043 -66.11
8.98790000 0.080240 59.694 0.996730 -93.26 0.996730 -93.26 0.080162 -66.25
8.98800000 0.080361 59.807 0.996720 -93.27 0.996720 -93.27 0.080283 -66.39
8.98810000 0.080482 59.920 0.996710 -93.29 0.996710 -93.29 0.080405 -66.53
8.98820000 0.080605 60.033 0.996700 -93.30 0.996700 -93.30 0.080527 -66.67
8.98830000 0.080729 60.146 0.996690 -93.31 0.996690 -93.31 0.080650 -66.81
8.98840000 0.080853 60.259 0.996680 -93.33 0.996680 -93.33 0.080775 -66.95
8.98850000 0.080979 60.373 0.996669 -93.34 0.996669 -93.34 0.080900 -67.09
8.98860000 0.081106 60.486 0.996659 -93.36 0.996659 -93.36 0.081027 -67.23
8.98870000 0.081233 60.600 0.996648 -93.37 0.996648 -93.37 0.081154 -67.37
8.98880000 0.081362 60.714 0.996638 -93.38 0.996638 -93.38 0.081282 -67.52
8.98890000 0.081491 60.828 0.996627 -93.40 0.996627 -93.40 0.081411 -67.66
8.98900000 0.081621 60.942 0.996616 -93.41 0.996616 -93.41 0.081542 -67.80
8.98910000 0.081753 61.056 0.996605 -93.42 0.996605 -93.42 0.081673 -67.94
8.98920000 0.081885 61.170 0.996594 -93.44 0.996594 -93.44 0.081805 -68.09
8.98930000 0.082019 61.285 0.996583 -93.45 0.996583 -93.45 0.081938 -68.23
8.98940000 0.082153 61.399 0.996571 -93.47 0.996571 -93.47 0.082073 -68.37
8.98950000 0.082289 61.514 0.996560 -93.48 0.996560 -93.48 0.082208 -68.51
8.98960000 0.082426 61.629 0.996549 -93.50 0.996549 -93.50 0.082344 -68.66
8.98970000 0.082563 61.744 0.996537 -93.51 0.996537 -93.51 0.082482 -68.80
8.98980000 0.082702 61.859 0.996525 -93.52 0.996525 -93.52 0.082620 -68.95
8.98990000 0.082842 61.974 0.996513 -93.54 0.996513 -93.54 0.082760 -69.09
8.99000000 0.082983 62.089 0.996501 -93.55 0.996501 -93.55 0.082900 -69.24
8.99010000 0.083125 62.205 0.996489 -93.57 0.996489 -93.57 0.083042 -69.38
8.99020000 0.083268 62.320 0.996477 -93.58 0.996477 -93.58 0.083185 -69.53
8.99030000 0.083412 62.436 0.996465 -93.60 0.996465 -93.60 0.083329 -69.67
8.99040000 0.083557 62.551 0.996453 -93.61 0.996453 -93.61 0.083474 -69.82
8.99050000 0.083704 62.667 0.996440 -93.63 0.996440 -93.63 0.083620 -69.96
8.99060000 0.083851 62.783 0.996427 -93.64 0.996427 -93.64 0.083767 -70.11
8.99070000 0.084000 62.899 0.996415 -93.66 0.996415 -93.66 0.083916 -70.25
8.99080000 0.084150 63.015 0.996402 -93.67 0.996402 -93.67 0.084065 -70.40
8.99090000 0.084301 63.131 0.996389 -93.69 0.996389 -93.69 0.084216 -70.55
8.99100000 0.084453 63.247 0.996376 -93.70 0.996376 -93.70 0.084368 -70.69
8.99110000 0.084606 63.364 0.996362 -93.72 0.996362 -93.72 0.084521 -70.84
8.99120000 0.084761 63.480 0.996349 -93.73 0.996349 -93.73 0.084675 -70.99
8.99130000 0.084916 63.597 0.996336 -93.75 0.996336 -93.75 0.084831 -71.14
8.99140000 0.085073 63.714 0.996322 -93.76 0.996322 -93.76 0.084987 -71.28
8.99150000 0.085231 63.830 0.996308 -93.78 0.996308 -93.78 0.085145 -71.43
8.99160000 0.085391 63.947 0.996294 -93.80 0.996294 -93.80 0.085304 -71.58
8.99170000 0.085551 64.064 0.996280 -93.81 0.996280 -93.81 0.085464 -71.73
8.99180000 0.085713 64.181 0.996266 -93.83 0.996266 -93.83 0.085626 -71.88
8.99190000 0.085876 64.298 0.996252 -93.84 0.996252 -93.84 0.085789 -72.03
8.99200000 0.086040 64.415 0.996237 -93.86 0.996237 -93.86 0.085953 -72.18
8.99210000 0.086206 64.533 0.996223 -93.87 0.996223 -93.87 0.086118 -72.33
8.99220000 0.086373 64.650 0.996208 -93.89 0.996208 -93.89 0.086285 -72.48
8.99230000 0.086541 64.767 0.996193 -93.91 0.996193 -93.91 0.086453 -72.63
8.99240000 0.086710 64.885 0.996178 -93.92 0.996178 -93.92 0.086622 -72.78
8.99250000 0.086881 65.002 0.996163 -93.94 0.996163 -93.94 0.086792 -72.93
8.99260000 0.087053 65.120 0.996148 -93.96 0.996148 -93.96 0.086964 -73.08
8.99270000 0.087226 65.238 0.996132 -93.97 0.996132 -93.97 0.087137 -73.23
8.99280000 0.087401 65.355 0.996117 -93.99 0.996117 -93.99 0.087312 -73.38
8.99290000 0.087577 65.473 0.996101 -94.01 0.996101 -94.01 0.087488 -73.53
8.99300000 0.087755 65.591 0.996085 -94.02 0.996085 -94.02 0.087665 -73.68
8.99310000 0.087934 65.709 0.996069 -94.04 0.996069 -94.04 0.087843 -73.83
8.99320000 0.088114 65.827 0.996053 -94.06 0.996053 -94.06 0.088023 -73.99
8.99330000 0.088296 65.945 0.996037 -94.07 0.996037 -94.07 0.088205 -74.14
8.99340000 0.088479 66.063 0.996020 -94.09 0.996020 -94.09 0.088388 -74.29
8.99350000 0.088663 66.181 0.996003 -94.11 0.996003 -94.11 0.088572 -74.44
8.99360000 0.088849 66.299 0.995987 -94.12 0.995987 -94.12 0.088758 -74.60
8.99370000 0.089037 66.418 0.995970 -94.14 0.995970 -94.14 0.088945 -74.75
8.99380000 0.089225 66.536 0.995952 -94.16 0.995952 -94.16 0.089133 -74.90
8.99390000 0.089416 66.654 0.995935 -94.18 0.995935 -94.18 0.089323 -75.06
8.99400000 0.089607 66.773 0.995918 -94.19 0.995918 -94.19 0.089515 -75.21
8.99410000 0.089801 66.891 0.995900 -94.21 0.995900 -94.21 0.089708 -75.36
8.99420000 0.089995 67.009 0.995882 -94.23 0.995882 -94.23 0.089902 -75.52
8.99430000 0.090192 67.128 0.995864 -94.25 0.995864 -94.25 0.090098 -75.67
8.99440000 0.090390 67.246 0.995846 -94.26 0.995846 -94.26 0.090296 -75.83
8.99450000 0.090589 67.365 0.995827 -94.28 0.995827 -94.28 0.090495 -75.98
8.99460000 0.090790 67.484 0.995809 -94.30 0.995809 -94.30 0.090696 -76.14
8.99470000 0.090992 67.602 0.995790 -94.32 0.995790 -94.32 0.090898 -76.29
8.99480000 0.091197 67.721 0.995771 -94.34 0.995771 -94.34 0.091102 -76.45
8.99490000 0.091402 67.840 0.995752 -94.35 0.995752 -94.35 0.091307 -76.60
8.99500000 0.091610 67.958 0.995732 -94.37 0.995732 -94.37 0.091514 -76.76
8.99510000 0.091818 68.077 0.995713 -94.39 0.995713 -94.39 0.091723 -76.91
8.99520000 0.092029 68.196 0.995693 -94.41 0.995693 -94.41 0.091933 -77.07
8.99530000 0.092241 68.314 0.995673 -94.43 0.995673 -94.43 0.092145 -77.23
8.99540000 0.092455 68.433 0.995653 -94.45 0.995653 -94.45 0.092358 -77.38
8.99550000 0.092671 68.552 0.995633 -94.47 0.995633 -94.47 0.092574 -77.54
8.99560000 0.092888 68.671 0.995612 -94.49 0.995612 -94.49 0.092791 -77.70
8.99570000 0.093107 68.790 0.995591 -94.50 0.995591 -94.50 0.093009 -77.85
8.99580000 0.093328 68.908 0.995570 -94.52 0.995570 -94.52 0.093230 -78.01
8.99590000 0.093550 69.027 0.995549 -94.54 0.995549 -94.54 0.093452 -78.17
8.99600000 0.093774 69.146 0.995528 -94.56 0.995528 -94.56 0.093676 -78.33
8.99610000 0.094000 69.265 0.995506 -94.58 0.995506 -94.58 0.093901 -78.49
8.99620000 0.094228 69.384 0.995484 -94.60 0.995484 -94.60 0.094129 -78.64
8.99630000 0.094457 69.502 0.995462 -94.62 0.995462 -94.62 0.094358 -78.80
8.99640000 0.094689 69.621 0.995440 -94.64 0.995440 -94.64 0.094589 -78.96
8.99650000 0.094922 69.740 0.995417 -94.66 0.995417 -94.66 0.094822 -79.12
8.99660000 0.095157 69.859 0.995394 -94.68 0.995394 -94.68 0.095057 -79.28
8.99670000 0.095394 69.977 0.995371 -94.70 0.995371 -94.70 0.095293 -79.44
8.99680000 0.095632 70.096 0.995348 -94.72 0.995348 -94.72 0.095532 -79.60
8.99690000 0.095873 70.215 0.995324 -94.74 0.995324 -94.74 0.095772 -79.76
8.99700000 0.096116 70.333 0.995301 -94.76 0.995301 -94.76 0.096014 -79.92
8.99710000 0.096360 70.452 0.995277 -94.78 0.995277 -94.78 0.096258 -80.08
8.99720000 0.096606 70.571 0.995252 -94.80 0.995252 -94.80 0.096504 -80.24
8.99730000 0.096855 70.689 0.995228 -94.82 0.995228 -94.82 0.096752 -80.40
8.99740000 0.097105 70.808 0.995203 -94.84 0.995203 -94.84 0.097002 -80.56
8.99750000 0.097357 70.926 0.995178 -94.87 0.995178 -94.87 0.097254 -80.72
8.99760000 0.097612 71.045 0.995153 -94.89 0.995153 -94.89 0.097508 -80.88
8.99770000 0.097868 71.163 0.995127 -94.91 0.995127 -94.91 0.097764 -81.04
8.99780000 0.098126 71.281 0.995101 -94.93 0.995101 -94.93 0.098022 -81.20
8.99790000 0.098387 71.400 0.995075 -94.95 0.995075 -94.95 0.098283 -81.36
8.99800000 0.098649 71.518 0.995049 -94.97 0.995049 -94.97 0.098545 -81.52
8.99810000 0.098914 71.636 0.995022 -94.99 0.995022 -94.99 0.098809 -81.69
8.99820000 0.099181 71.754 0.994995 -95.01 0.994995 -95.01 0.099075 -81.85
8.99830000 0.099450 71.872 0.994968 -95.04 0.994968 -95.04 0.099344 -82.01
8.99840000 0.099721 71.991 0.994940 -95.06 0.994940 -95.06 0.099615 -82.17
8.99850000 0.099994 72.109 0.994913 -95.08 0.994913 -95.08 0.099888 -82.34
8.99860000 0.100269 72.226 0.994884 -95.10 0.994884 -95.10 0.100163 -82.50
8.99870000 0.100547 72.344 0.994856 -95.13 0.994856 -95.13 0.100440 -82.66
8.99880000 0.100827 72.462 0.994827 -95.15 0.994827 -95.15 0.100719 -82.82
8.99890000 0.101109 72.580 0.994798 -95.17 0.994798 -95.17 0.101001 -82.99
8.99900000 0.101393 72.697 0.994769 -95.19 0.994769 -95.19 0.101285 -83.15
8.99910000 0.101680 72.815 0.994739 -95.22 0.994739 -95.22 0.101572 -83.32
8.99920000 0.101969 72.932 0.994709 -95.24 0.994709 -95.24 0.101860 -83.48
8.99930000 0.102260 73.050 0.994679 -95.26 0.994679 -95.26 0.102151 -83.64
8.99940000 0.102554 73.167 0.994648 -95.29 0.994648 -95.29 0.102445 -83.81
8.99950000 0.102850 73.284 0.994617 -95.31 0.994617 -95.31 0.102740 -83.97
8.99960000 0.103148 73.401 0.994586 -95.33 0.994586 -95.33 0.103038 -84.14
8.99970000 0.103449 73.518 0.994554 -95.36 0.994554 -95.36 0.103339 -84.30
8.99980000 0.103752 73.635 0.994522 -95.38 0.994522 -95.38 0.103642 -84.47
8.99990000 0.104058 73.752 0.994489 -95.40 0.994489 -95.40 0.103947 -84.63
9.00000000 0.104366 73.869 0.994457 -95.43 0.994457 -95.43 0.104255 -84.80
9.00010000 0.104677 73.985 0.994423 -95.45 0.994423 -95.45 0.104566 -84.96
9.00020000 0.104990 74.102 0.994390 -95.48 0.994390 -95.48 0.104878 -85.13
9.00030000 0.105306 74.218 0.994356 -95.50 0.994356 -95.50 0.105194 -85.29
9.00040000 0.105625 74.334 0.994322 -95.53 0.994322 -95.53 0.105512 -85.46
9.00050000 0.105946 74.451 0.994287 -95.55 0.994287 -95.55 0.105833 -85.63
9.00060000 0.106269 74.567 0.994252 -95.58 0.994252 -95.58 0.106156 -85.79
9.00070000 0.106596 74.682 0.994217 -95.60 0.994217 -95.60 0.106482 -85.96
9.00080000 0.106925 74.798 0.994181 -95.63 0.994181 -95.63 0.106811 -86.13
9.00090000 0.107256 74.914 0.994144 -95.65 0.994144 -95.65 0.107142 -86.29
9.00100000 0.107591 75.029 0.994108 -95.68 0.994108 -95.68 0.107476 -86.46
9.00110000 0.107928 75.145 0.994071 -95.70 0.994071 -95.70 0.107813 -86.63
9.00120000 0.108268 75.260 0.994033 -95.73 0.994033 -95.73 0.108153 -86.79
9.00130000 0.108611 75.375 0.993995 -95.76 0.993995 -95.76 0.108495 -86.96
9.00140000 0.108956 75.490 0.993957 -95.78 0.993957 -95.78 0.108840 -87.13
9.00150000 0.109305 75.604 0.993918 -95.81 0.993918 -95.81 0.109188 -87.30
9.00160000 0.109656 75.719 0.993879 -95.83 0.993879 -95.83 0.109539 -87.47
9.00170000 0.110010 75.833 0.993839 -95.86 0.993839 -95.86 0.109893 -87.63
9.00180000 0.110368 75.948 0.993799 -95.89 0.993799 -95.89 0.110250 -87.80
9.00190000 0.110728 76.062 0.993758 -95.92 0.993758 -95.92 0.110610 -87.97
9.00200000 0.111091 76.176 0.993717 -95.94 0.993717 -95.94 0.110973 -88.14
9.00210000 0.111457 76.289 0.993676 -95.97 0.993676 -95.97 0.111338 -88.31
9.00220000 0.111826 76.403 0.993634 -96.00 0.993634 -96.00 0.111707 -88.48
9.00230000 0.112199 76.516 0.993591 -96.03 0.993591 -96.03 0.112079 -88.65
9.00240000 0.112574 76.630 0.993548 -96.05 0.993548 -96.05 0.112454 -88.82
9.00250000 0.112953 76.743 0.993504 -96.08 0.993504 -96.08 0.112833 -88.99
9.00260000 0.113335 76.855 0.993460 -96.11 0.993460 -96.11 0.113214 -89.16
9.00270000 0.113720 76.968 0.993416 -96.14 0.993416 -96.14 0.113599 -89.33
9.00280000 0.114108 77.080 0.993370 -96.17 0.993370 -96.17 0.113987 -89.50
9.00290000 0.114500 77.193 0.993325 -96.20 0.993325 -96.20 0.114378 -89.67
9.00300000 0.114894 77.305 0.993279 -96.22 0.993279 -96.22 0.114772 -89.84
9.00310000 0.115293 77.417 0.993232 -96.25 0.993232 -96.25 0.115170 -90.01
9.00320000 0.115694 77.528 0.993184 -96.28 0.993184 -96.28 0.115571 -90.18
9.00330000 0.116099 77.640 0.993136 -96.31 0.993136 -96.31 0.115976 -90.35
9.00340000 0.116508 77.751 0.993088 -96.34 0.993088 -96.34 0.116384 -90.52
9.00350000 0.116919 77.862 0.993039 -96.37 0.993039 -96.37 0.116795 -90.69
9.00360000 0.117335 77.972 0.992989 -96.40 0.992989 -96.40 0.117210 -90.86
9.00370000 0.117754 78.083 0.992939 -96.43 0.992939 -96.43 0.117629 -91.04
9.00380000 0.118176 78.193 0.992888 -96.46 0.992888 -96.46 0.118051 -91.21
9.00390000 0.118602 78.303 0.992837 -96.49 0.992837 -96.49 0.118477 -91.38
9.00400000 0.119032 78.413 0.992784 -96.53 0.992784 -96.53 0.118906 -91.55
9.00410000 0.119466 78.523 0.992732 -96.56 0.992732 -96.56 0.119339 -91.72
9.00420000 0.119903 78.632 0.992678 -96.59 0.992678 -96.59 0.119776 -91.90
9.00430000 0.120344 78.741 0.992624 -96.62 0.992624 -96.62 0.120216 -92.07
9.00440000 0.120789 78.850 0.992569 -96.65 0.992569 -96.65 0.120661 -92.24
9.00450000 0.121237 78.958 0.992514 -96.68 0.992514 -96.68 0.121109 -92.42
9.00460000 0.121690 79.066 0.992458 -96.72 0.992458 -96.72 0.121561 -92.59
9.00470000 0.122146 79.174 0.992401 -96.75 0.992401 -96.75 0.122017 -92.76
9.00480000 0.122607 79.282 0.992343 -96.78 0.992343 -96.78 0.122477 -92.94
9.00490000 0.123071 79.390 0.992285 -96.81 0.992285 -96.81 0.122941 -93.11
9.00500000 0.123540 79.497 0.992226 -96.85 0.992226 -96.85 0.123409 -93.28
9.00510000 0.124012 79.604 0.992166 -96.88 0.992166 -96.88 0.123881 -93.46
9.00520000 0.124489 79.710 0.992106 -96.91 0.992106 -96.91 0.124358 -93.63
9.00530000 0.124970 79.816 0.992044 -96.95 0.992044 -96.95 0.124838 -93.81
9.00540000 0.125455 79.922 0.991982 -96.98 0.991982 -96.98 0.125323 -93.98
9.00550000 0.125945 80.028 0.991920 -97.02 0.991920 -97.02 0.125812 -94.16
9.00560000 0.126438 80.134 0.991856 -97.05 0.991856 -97.05 0.126305 -94.33
9.00570000 0.126936 80.239 0.991791 -97.09 0.991791 -97.09 0.126803 -94.51
9.00580000 0.127439 80.343 0.991726 -97.12 0.991726 -97.12 0.127305 -94.68
