! Sonnet Data File
! From: emgraph Version : 16.52
! From Project: Resonator2_cp
! Data is De-embedded 
! Data File Written: 10/07/2017 13:01:14
!< HDATE 10/07/2017 09:22:27
!< MDATE 10/07/2017 09:22:27
!< PARAMS
!< gap = 6.0
!< Length = 400.0
!< Pwid1 = 2000.0
!< Pwid2 = 2000.0
!< Air_gap = 18.0
!< Width = 30.0
!< END PARAMS
# GHZ S MA R 43.07000
8.80000000 0.049566 -0.720 0.998764 -74.88 0.998764 -74.88 0.049570 30.946
!< P1 F=8.8 Eeff=(5.15948137 -2.2525e-5) Z0=(43.0696006 9.54461e-5) R=0.0 C=0.0 
!< P2 F=8.8 Eeff=(5.15948137 -2.2525e-5) Z0=(43.0696006 9.54461e-5) R=0.0 C=0.0 
8.80020000 0.049608 -0.736 0.998761 -74.89 0.998761 -74.89 0.049612 30.953
8.80040000 0.049651 -0.752 0.998759 -74.89 0.998759 -74.89 0.049654 30.961
8.80060000 0.049693 -0.769 0.998757 -74.90 0.998757 -74.90 0.049697 30.970
8.80080000 0.049736 -0.786 0.998755 -74.90 0.998755 -74.90 0.049739 30.978
8.80100000 0.049779 -0.802 0.998753 -74.91 0.998753 -74.91 0.049782 30.986
8.80120000 0.049822 -0.819 0.998751 -74.91 0.998751 -74.91 0.049826 30.994
8.80140000 0.049866 -0.836 0.998748 -74.91 0.998748 -74.91 0.049869 31.002
8.80160000 0.049909 -0.852 0.998746 -74.92 0.998746 -74.92 0.049913 31.010
8.80180000 0.049953 -0.869 0.998744 -74.92 0.998744 -74.92 0.049957 31.018
8.80200000 0.049997 -0.886 0.998742 -74.93 0.998742 -74.93 0.050001 31.027
8.80220000 0.050042 -0.903 0.998740 -74.93 0.998740 -74.93 0.050045 31.035
8.80240000 0.050086 -0.920 0.998737 -74.94 0.998737 -74.94 0.050090 31.043
8.80260000 0.050131 -0.937 0.998735 -74.94 0.998735 -74.94 0.050134 31.051
8.80280000 0.050176 -0.954 0.998733 -74.94 0.998733 -74.94 0.050179 31.060
8.80300000 0.050221 -0.971 0.998730 -74.95 0.998730 -74.95 0.050225 31.068
8.80320000 0.050267 -0.988 0.998728 -74.95 0.998728 -74.95 0.050270 31.077
8.80340000 0.050312 -1.006 0.998726 -74.96 0.998726 -74.96 0.050316 31.085
8.80360000 0.050358 -1.023 0.998724 -74.96 0.998724 -74.96 0.050362 31.094
8.80380000 0.050405 -1.040 0.998721 -74.97 0.998721 -74.97 0.050408 31.102
8.80400000 0.050451 -1.058 0.998719 -74.97 0.998719 -74.97 0.050454 31.111
8.80420000 0.050498 -1.075 0.998716 -74.97 0.998716 -74.97 0.050501 31.119
8.80440000 0.050545 -1.093 0.998714 -74.98 0.998714 -74.98 0.050548 31.128
8.80460000 0.050592 -1.110 0.998712 -74.98 0.998712 -74.98 0.050595 31.136
8.80480000 0.050639 -1.128 0.998709 -74.99 0.998709 -74.99 0.050643 31.145
8.80500000 0.050687 -1.146 0.998707 -74.99 0.998707 -74.99 0.050690 31.154
8.80520000 0.050735 -1.163 0.998704 -75.00 0.998704 -75.00 0.050738 31.162
8.80540000 0.050783 -1.181 0.998702 -75.00 0.998702 -75.00 0.050786 31.171
8.80560000 0.050831 -1.199 0.998699 -75.01 0.998699 -75.01 0.050835 31.180
8.80580000 0.050880 -1.217 0.998697 -75.01 0.998697 -75.01 0.050884 31.189
8.80600000 0.050929 -1.235 0.998694 -75.02 0.998694 -75.02 0.050932 31.197
8.80620000 0.050978 -1.253 0.998692 -75.02 0.998692 -75.02 0.050982 31.206
8.80640000 0.051028 -1.271 0.998689 -75.02 0.998689 -75.02 0.051031 31.215
8.80660000 0.051077 -1.290 0.998687 -75.03 0.998687 -75.03 0.051081 31.224
8.80680000 0.051127 -1.308 0.998684 -75.03 0.998684 -75.03 0.051131 31.233
8.80700000 0.051178 -1.326 0.998681 -75.04 0.998681 -75.04 0.051181 31.242
8.80720000 0.051228 -1.345 0.998679 -75.04 0.998679 -75.04 0.051232 31.251
8.80740000 0.051279 -1.363 0.998676 -75.05 0.998676 -75.05 0.051283 31.260
8.80760000 0.051330 -1.382 0.998673 -75.05 0.998673 -75.05 0.051334 31.269
8.80780000 0.051381 -1.400 0.998671 -75.06 0.998671 -75.06 0.051385 31.278
8.80800000 0.051433 -1.419 0.998668 -75.06 0.998668 -75.06 0.051437 31.287
8.80820000 0.051485 -1.438 0.998665 -75.07 0.998665 -75.07 0.051489 31.296
8.80840000 0.051537 -1.456 0.998663 -75.07 0.998663 -75.07 0.051541 31.305
8.80860000 0.051590 -1.475 0.998660 -75.08 0.998660 -75.08 0.051594 31.315
8.80880000 0.051643 -1.494 0.998657 -75.08 0.998657 -75.08 0.051646 31.324
8.80900000 0.051696 -1.513 0.998654 -75.09 0.998654 -75.09 0.051700 31.333
8.80920000 0.051749 -1.532 0.998652 -75.09 0.998652 -75.09 0.051753 31.343
8.80940000 0.051803 -1.551 0.998649 -75.10 0.998649 -75.10 0.051807 31.352
8.80960000 0.051857 -1.570 0.998646 -75.10 0.998646 -75.10 0.051861 31.361
8.80980000 0.051911 -1.590 0.998643 -75.11 0.998643 -75.11 0.051915 31.371
8.81000000 0.051966 -1.609 0.998640 -75.11 0.998640 -75.11 0.051970 31.380
8.81020000 0.052021 -1.628 0.998637 -75.12 0.998637 -75.12 0.052025 31.390
8.81040000 0.052076 -1.648 0.998634 -75.12 0.998634 -75.12 0.052080 31.399
8.81060000 0.052132 -1.667 0.998631 -75.13 0.998631 -75.13 0.052136 31.409
8.81080000 0.052188 -1.687 0.998628 -75.13 0.998628 -75.13 0.052192 31.418
8.81100000 0.052244 -1.707 0.998626 -75.14 0.998626 -75.14 0.052248 31.428
8.81120000 0.052300 -1.726 0.998623 -75.14 0.998623 -75.14 0.052304 31.437
8.81140000 0.052357 -1.746 0.998620 -75.15 0.998620 -75.15 0.052361 31.447
8.81160000 0.052415 -1.766 0.998616 -75.15 0.998616 -75.15 0.052418 31.457
8.81180000 0.052472 -1.786 0.998613 -75.16 0.998613 -75.16 0.052476 31.466
8.81200000 0.052530 -1.806 0.998610 -75.16 0.998610 -75.16 0.052534 31.476
8.81220000 0.052588 -1.826 0.998607 -75.17 0.998607 -75.17 0.052592 31.486
8.81240000 0.052647 -1.846 0.998604 -75.17 0.998604 -75.17 0.052651 31.496
8.81260000 0.052706 -1.867 0.998601 -75.18 0.998601 -75.18 0.052710 31.506
8.81280000 0.052765 -1.887 0.998598 -75.18 0.998598 -75.18 0.052769 31.516
8.81300000 0.052824 -1.907 0.998595 -75.19 0.998595 -75.19 0.052829 31.526
8.81320000 0.052884 -1.928 0.998591 -75.19 0.998591 -75.19 0.052889 31.536
8.81340000 0.052945 -1.948 0.998588 -75.20 0.998588 -75.20 0.052949 31.546
8.81360000 0.053005 -1.969 0.998585 -75.20 0.998585 -75.20 0.053010 31.556
8.81380000 0.053066 -1.990 0.998582 -75.21 0.998582 -75.21 0.053071 31.566
8.81400000 0.053128 -2.010 0.998578 -75.21 0.998578 -75.21 0.053132 31.576
8.81420000 0.053190 -2.031 0.998575 -75.22 0.998575 -75.22 0.053194 31.586
8.81440000 0.053252 -2.052 0.998572 -75.22 0.998572 -75.22 0.053256 31.596
8.81460000 0.053314 -2.073 0.998568 -75.23 0.998568 -75.23 0.053319 31.606
8.81480000 0.053377 -2.094 0.998565 -75.23 0.998565 -75.23 0.053381 31.616
8.81500000 0.053441 -2.116 0.998561 -75.24 0.998561 -75.24 0.053445 31.627
8.81520000 0.053504 -2.137 0.998558 -75.24 0.998558 -75.24 0.053508 31.637
8.81540000 0.053568 -2.158 0.998554 -75.25 0.998554 -75.25 0.053573 31.647
8.81560000 0.053633 -2.180 0.998551 -75.26 0.998551 -75.26 0.053637 31.658
8.81580000 0.053698 -2.201 0.998547 -75.26 0.998547 -75.26 0.053702 31.668
8.81600000 0.053763 -2.223 0.998544 -75.27 0.998544 -75.27 0.053767 31.679
8.81620000 0.053829 -2.244 0.998540 -75.27 0.998540 -75.27 0.053833 31.689
8.81640000 0.053895 -2.266 0.998537 -75.28 0.998537 -75.28 0.053899 31.700
8.81660000 0.053961 -2.288 0.998533 -75.28 0.998533 -75.28 0.053966 31.710
8.81680000 0.054028 -2.310 0.998529 -75.29 0.998529 -75.29 0.054033 31.721
8.81700000 0.054095 -2.332 0.998526 -75.29 0.998526 -75.29 0.054100 31.732
8.81720000 0.054163 -2.354 0.998522 -75.30 0.998522 -75.30 0.054168 31.742
8.81740000 0.054231 -2.376 0.998518 -75.31 0.998518 -75.31 0.054236 31.753
8.81760000 0.054300 -2.398 0.998514 -75.31 0.998514 -75.31 0.054305 31.764
8.81780000 0.054369 -2.421 0.998511 -75.32 0.998511 -75.32 0.054374 31.774
8.81800000 0.054439 -2.443 0.998507 -75.32 0.998507 -75.32 0.054443 31.785
8.81820000 0.054509 -2.466 0.998503 -75.33 0.998503 -75.33 0.054513 31.796
8.81840000 0.054579 -2.488 0.998499 -75.34 0.998499 -75.34 0.054584 31.807
8.81860000 0.054650 -2.511 0.998495 -75.34 0.998495 -75.34 0.054655 31.818
8.81880000 0.054721 -2.534 0.998491 -75.35 0.998491 -75.35 0.054726 31.829
8.81900000 0.054793 -2.557 0.998487 -75.35 0.998487 -75.35 0.054798 31.840
8.81920000 0.054865 -2.580 0.998483 -75.36 0.998483 -75.36 0.054870 31.851
8.81940000 0.054938 -2.603 0.998479 -75.36 0.998479 -75.36 0.054943 31.862
8.81960000 0.055011 -2.626 0.998475 -75.37 0.998475 -75.37 0.055016 31.873
8.81980000 0.055085 -2.649 0.998471 -75.38 0.998471 -75.38 0.055090 31.884
8.82000000 0.055159 -2.673 0.998467 -75.38 0.998467 -75.38 0.055164 31.895
8.82020000 0.055234 -2.696 0.998463 -75.39 0.998463 -75.39 0.055239 31.907
8.82040000 0.055309 -2.720 0.998458 -75.40 0.998458 -75.40 0.055314 31.918
8.82060000 0.055385 -2.744 0.998454 -75.40 0.998454 -75.40 0.055390 31.929
8.82080000 0.055461 -2.767 0.998450 -75.41 0.998450 -75.41 0.055466 31.941
8.82100000 0.055538 -2.791 0.998446 -75.41 0.998446 -75.41 0.055543 31.952
8.82120000 0.055615 -2.815 0.998441 -75.42 0.998441 -75.42 0.055620 31.963
8.82140000 0.055693 -2.839 0.998437 -75.43 0.998437 -75.43 0.055698 31.975
8.82160000 0.055771 -2.863 0.998432 -75.43 0.998432 -75.43 0.055776 31.986
8.82180000 0.055850 -2.888 0.998428 -75.44 0.998428 -75.44 0.055855 31.998
8.82200000 0.055929 -2.912 0.998423 -75.44 0.998423 -75.44 0.055934 32.009
8.82220000 0.056009 -2.937 0.998419 -75.45 0.998419 -75.45 0.056014 32.021
8.82240000 0.056090 -2.961 0.998414 -75.46 0.998414 -75.46 0.056094 32.033
8.82260000 0.056171 -2.986 0.998410 -75.46 0.998410 -75.46 0.056176 32.044
8.82280000 0.056252 -3.011 0.998405 -75.47 0.998405 -75.47 0.056257 32.056
8.82300000 0.056334 -3.036 0.998400 -75.48 0.998400 -75.48 0.056339 32.068
8.82320000 0.056417 -3.061 0.998396 -75.48 0.998396 -75.48 0.056422 32.080
8.82340000 0.056500 -3.086 0.998391 -75.49 0.998391 -75.49 0.056505 32.092
8.82360000 0.056584 -3.111 0.998386 -75.50 0.998386 -75.50 0.056589 32.104
8.82380000 0.056669 -3.136 0.998381 -75.50 0.998381 -75.50 0.056674 32.115
8.82400000 0.056754 -3.162 0.998376 -75.51 0.998376 -75.51 0.056759 32.127
8.82420000 0.056840 -3.187 0.998371 -75.52 0.998371 -75.52 0.056845 32.139
8.82440000 0.056926 -3.213 0.998366 -75.52 0.998366 -75.52 0.056931 32.151
8.82460000 0.057013 -3.239 0.998361 -75.53 0.998361 -75.53 0.057018 32.164
8.82480000 0.057100 -3.265 0.998356 -75.54 0.998356 -75.54 0.057105 32.176
8.82500000 0.057189 -3.291 0.998351 -75.54 0.998351 -75.54 0.057194 32.188
8.82520000 0.057277 -3.317 0.998346 -75.55 0.998346 -75.55 0.057283 32.200
8.82540000 0.057367 -3.343 0.998341 -75.56 0.998341 -75.56 0.057372 32.212
8.82560000 0.057457 -3.369 0.998335 -75.57 0.998335 -75.57 0.057462 32.225
8.82580000 0.057548 -3.396 0.998330 -75.57 0.998330 -75.57 0.057553 32.237
8.82600000 0.057639 -3.422 0.998325 -75.58 0.998325 -75.58 0.057644 32.249
8.82620000 0.057731 -3.449 0.998319 -75.59 0.998319 -75.59 0.057737 32.262
8.82640000 0.057824 -3.476 0.998314 -75.59 0.998314 -75.59 0.057830 32.274
8.82660000 0.057918 -3.503 0.998309 -75.60 0.998309 -75.60 0.057923 32.287
8.82680000 0.058012 -3.530 0.998303 -75.61 0.998303 -75.61 0.058017 32.299
8.82700000 0.058107 -3.557 0.998297 -75.61 0.998297 -75.61 0.058112 32.312
8.82720000 0.058202 -3.585 0.998292 -75.62 0.998292 -75.62 0.058208 32.324
8.82740000 0.058299 -3.612 0.998286 -75.63 0.998286 -75.63 0.058304 32.337
8.82760000 0.058396 -3.640 0.998280 -75.64 0.998280 -75.64 0.058401 32.350
8.82780000 0.058494 -3.667 0.998274 -75.64 0.998274 -75.64 0.058499 32.363
8.82800000 0.058592 -3.695 0.998269 -75.65 0.998269 -75.65 0.058598 32.375
8.82820000 0.058692 -3.723 0.998263 -75.66 0.998263 -75.66 0.058697 32.388
8.82840000 0.058792 -3.751 0.998257 -75.67 0.998257 -75.67 0.058797 32.401
8.82860000 0.058893 -3.779 0.998251 -75.67 0.998251 -75.67 0.058898 32.414
8.82880000 0.058994 -3.808 0.998245 -75.68 0.998245 -75.68 0.059000 32.427
8.82900000 0.059097 -3.836 0.998238 -75.69 0.998238 -75.69 0.059102 32.440
8.82920000 0.059200 -3.865 0.998232 -75.70 0.998232 -75.70 0.059206 32.453
8.82940000 0.059304 -3.894 0.998226 -75.71 0.998226 -75.71 0.059310 32.466
8.82960000 0.059409 -3.923 0.998220 -75.71 0.998220 -75.71 0.059415 32.479
8.82980000 0.059514 -3.952 0.998213 -75.72 0.998213 -75.72 0.059520 32.492
8.83000000 0.059621 -3.981 0.998207 -75.73 0.998207 -75.73 0.059627 32.505
8.83020000 0.059728 -4.010 0.998200 -75.74 0.998200 -75.74 0.059734 32.519
8.83040000 0.059837 -4.040 0.998194 -75.75 0.998194 -75.75 0.059843 32.532
8.83060000 0.059946 -4.069 0.998187 -75.75 0.998187 -75.75 0.059952 32.545
8.83080000 0.060056 -4.099 0.998180 -75.76 0.998180 -75.76 0.060062 32.559
8.83100000 0.060167 -4.129 0.998174 -75.77 0.998174 -75.77 0.060173 32.572
8.83120000 0.060279 -4.159 0.998167 -75.78 0.998167 -75.78 0.060285 32.585
8.83140000 0.060391 -4.189 0.998160 -75.79 0.998160 -75.79 0.060397 32.599
8.83160000 0.060505 -4.220 0.998153 -75.79 0.998153 -75.79 0.060511 32.612
8.83180000 0.060620 -4.250 0.998146 -75.80 0.998146 -75.80 0.060626 32.626
8.83200000 0.060735 -4.281 0.998139 -75.81 0.998139 -75.81 0.060741 32.640
8.83220000 0.060852 -4.312 0.998132 -75.82 0.998132 -75.82 0.060858 32.653
8.83240000 0.060969 -4.343 0.998124 -75.83 0.998124 -75.83 0.060975 32.667
8.83260000 0.061087 -4.374 0.998117 -75.84 0.998117 -75.84 0.061094 32.681
8.83280000 0.061207 -4.405 0.998109 -75.85 0.998109 -75.85 0.061213 32.694
8.83300000 0.061327 -4.436 0.998102 -75.85 0.998102 -75.85 0.061334 32.708
8.83320000 0.061449 -4.468 0.998094 -75.86 0.998094 -75.86 0.061455 32.722
8.83340000 0.061571 -4.500 0.998087 -75.87 0.998087 -75.87 0.061578 32.736
8.83360000 0.061695 -4.532 0.998079 -75.88 0.998079 -75.88 0.061701 32.750
8.83380000 0.061820 -4.564 0.998071 -75.89 0.998071 -75.89 0.061826 32.764
8.83400000 0.061945 -4.596 0.998063 -75.90 0.998063 -75.90 0.061952 32.778
8.83420000 0.062072 -4.629 0.998055 -75.91 0.998055 -75.91 0.062079 32.792
8.83440000 0.062200 -4.661 0.998047 -75.92 0.998047 -75.92 0.062207 32.806
8.83460000 0.062329 -4.694 0.998039 -75.93 0.998039 -75.93 0.062336 32.820
8.83480000 0.062459 -4.727 0.998031 -75.94 0.998031 -75.94 0.062466 32.834
8.83500000 0.062590 -4.760 0.998022 -75.95 0.998022 -75.95 0.062597 32.849
8.83520000 0.062723 -4.793 0.998014 -75.95 0.998014 -75.95 0.062730 32.863
8.83540000 0.062857 -4.827 0.998005 -75.96 0.998005 -75.96 0.062863 32.877
8.83560000 0.062991 -4.861 0.997997 -75.97 0.997997 -75.97 0.062998 32.891
8.83580000 0.063128 -4.894 0.997988 -75.98 0.997988 -75.98 0.063134 32.906
8.83600000 0.063265 -4.928 0.997979 -75.99 0.997979 -75.99 0.063272 32.920
8.83620000 0.063403 -4.963 0.997970 -76.00 0.997970 -76.00 0.063410 32.935
8.83640000 0.063543 -4.997 0.997961 -76.01 0.997961 -76.01 0.063550 32.949
8.83660000 0.063684 -5.032 0.997952 -76.02 0.997952 -76.02 0.063691 32.964
8.83680000 0.063827 -5.066 0.997943 -76.03 0.997943 -76.03 0.063834 32.978
8.83700000 0.063970 -5.101 0.997934 -76.04 0.997934 -76.04 0.063977 32.993
8.83720000 0.064115 -5.136 0.997924 -76.05 0.997924 -76.05 0.064122 33.007
8.83740000 0.064262 -5.172 0.997915 -76.06 0.997915 -76.06 0.064269 33.022
8.83760000 0.064409 -5.207 0.997905 -76.07 0.997905 -76.07 0.064417 33.037
8.83780000 0.064559 -5.243 0.997895 -76.08 0.997895 -76.08 0.064566 33.052
8.83800000 0.064709 -5.279 0.997885 -76.09 0.997885 -76.09 0.064716 33.066
8.83820000 0.064861 -5.315 0.997875 -76.10 0.997875 -76.10 0.064868 33.081
8.83840000 0.065014 -5.352 0.997865 -76.12 0.997865 -76.12 0.065022 33.096
8.83860000 0.065169 -5.388 0.997855 -76.13 0.997855 -76.13 0.065177 33.111
8.83880000 0.065326 -5.425 0.997844 -76.14 0.997844 -76.14 0.065333 33.126
8.83900000 0.065484 -5.462 0.997834 -76.15 0.997834 -76.15 0.065491 33.141
8.83920000 0.065643 -5.499 0.997823 -76.16 0.997823 -76.16 0.065651 33.156
8.83940000 0.065804 -5.537 0.997813 -76.17 0.997813 -76.17 0.065812 33.171
8.83960000 0.065967 -5.574 0.997802 -76.18 0.997802 -76.18 0.065974 33.186
8.83980000 0.066131 -5.612 0.997791 -76.19 0.997791 -76.19 0.066138 33.201
8.84000000 0.066297 -5.650 0.997779 -76.20 0.997779 -76.20 0.066304 33.216
8.84020000 0.066464 -5.689 0.997768 -76.22 0.997768 -76.22 0.066472 33.231
8.84040000 0.066633 -5.727 0.997757 -76.23 0.997757 -76.23 0.066641 33.246
8.84060000 0.066804 -5.766 0.997745 -76.24 0.997745 -76.24 0.066812 33.262
8.84080000 0.066977 -5.805 0.997733 -76.25 0.997733 -76.25 0.066985 33.277
8.84100000 0.067151 -5.844 0.997721 -76.26 0.997721 -76.26 0.067159 33.292
8.84120000 0.067327 -5.884 0.997709 -76.27 0.997709 -76.27 0.067335 33.307
8.84140000 0.067505 -5.923 0.997697 -76.29 0.997697 -76.29 0.067513 33.323
8.84160000 0.067685 -5.963 0.997685 -76.30 0.997685 -76.30 0.067693 33.338
8.84180000 0.067866 -6.003 0.997672 -76.31 0.997672 -76.31 0.067875 33.354
8.84200000 0.068050 -6.044 0.997659 -76.32 0.997659 -76.32 0.068058 33.369
8.84220000 0.068235 -6.085 0.997647 -76.34 0.997647 -76.34 0.068244 33.384
8.84240000 0.068423 -6.126 0.997634 -76.35 0.997634 -76.35 0.068431 33.400
8.84260000 0.068612 -6.167 0.997620 -76.36 0.997620 -76.36 0.068620 33.415
8.84280000 0.068803 -6.208 0.997607 -76.37 0.997607 -76.37 0.068812 33.431
8.84300000 0.068997 -6.250 0.997593 -76.39 0.997593 -76.39 0.069005 33.446
8.84320000 0.069192 -6.292 0.997580 -76.40 0.997580 -76.40 0.069201 33.462
8.84340000 0.069390 -6.334 0.997566 -76.41 0.997566 -76.41 0.069399 33.477
8.84360000 0.069590 -6.377 0.997551 -76.43 0.997551 -76.43 0.069599 33.493
8.84380000 0.069792 -6.420 0.997537 -76.44 0.997537 -76.44 0.069801 33.509
8.84400000 0.069996 -6.463 0.997523 -76.45 0.997523 -76.45 0.070005 33.524
8.84420000 0.070202 -6.506 0.997508 -76.47 0.997508 -76.47 0.070211 33.540
8.84440000 0.070411 -6.550 0.997493 -76.48 0.997493 -76.48 0.070420 33.556
8.84460000 0.070622 -6.594 0.997478 -76.50 0.997478 -76.50 0.070631 33.571
8.84480000 0.070836 -6.638 0.997462 -76.51 0.997462 -76.51 0.070845 33.587
8.84500000 0.071052 -6.683 0.997447 -76.52 0.997447 -76.52 0.071061 33.603
8.84520000 0.071270 -6.728 0.997431 -76.54 0.997431 -76.54 0.071279 33.618
8.84540000 0.071491 -6.773 0.997415 -76.55 0.997415 -76.55 0.071500 33.634
8.84560000 0.071714 -6.818 0.997399 -76.57 0.997399 -76.57 0.071724 33.650
8.84580000 0.071940 -6.864 0.997382 -76.58 0.997382 -76.58 0.071950 33.666
8.84600000 0.072169 -6.910 0.997365 -76.60 0.997365 -76.60 0.072178 33.681
8.84620000 0.072400 -6.956 0.997348 -76.61 0.997348 -76.61 0.072410 33.697
8.84640000 0.072634 -7.003 0.997331 -76.63 0.997331 -76.63 0.072644 33.713
8.84660000 0.072871 -7.050 0.997313 -76.64 0.997313 -76.64 0.072881 33.728
8.84680000 0.073110 -7.098 0.997295 -76.66 0.997295 -76.66 0.073120 33.744
8.84700000 0.073353 -7.145 0.997277 -76.67 0.997277 -76.67 0.073363 33.760
8.84720000 0.073598 -7.193 0.997259 -76.69 0.997259 -76.69 0.073608 33.776
8.84740000 0.073847 -7.242 0.997240 -76.71 0.997240 -76.71 0.073857 33.791
8.84760000 0.074098 -7.290 0.997221 -76.72 0.997221 -76.72 0.074108 33.807
8.84780000 0.074353 -7.340 0.997202 -76.74 0.997202 -76.74 0.074363 33.823
8.84800000 0.074610 -7.389 0.997182 -76.76 0.997182 -76.76 0.074620 33.839
8.84820000 0.074871 -7.439 0.997163 -76.77 0.997163 -76.77 0.074881 33.854
8.84840000 0.075135 -7.489 0.997142 -76.79 0.997142 -76.79 0.075145 33.870
8.84860000 0.075402 -7.540 0.997122 -76.81 0.997122 -76.81 0.075413 33.886
8.84880000 0.075673 -7.590 0.997101 -76.82 0.997101 -76.82 0.075684 33.901
8.84900000 0.075948 -7.642 0.997080 -76.84 0.997080 -76.84 0.075958 33.917
8.84920000 0.076225 -7.693 0.997058 -76.86 0.997058 -76.86 0.076236 33.932
8.84940000 0.076507 -7.746 0.997036 -76.88 0.997036 -76.88 0.076517 33.948
8.84960000 0.076792 -7.798 0.997014 -76.90 0.997014 -76.90 0.076803 33.964
8.84980000 0.077080 -7.851 0.996991 -76.92 0.996991 -76.92 0.077091 33.979
8.85000000 0.077373 -7.904 0.996968 -76.93 0.996968 -76.93 0.077384 33.995
8.85020000 0.077669 -7.958 0.996945 -76.95 0.996945 -76.95 0.077680 34.010
8.85030372 0.077825 -7.986 0.996932 -76.96 0.996932 -76.96 0.077836 34.018
8.85040000 0.077970 -8.012 0.996921 -76.97 0.996921 -76.97 0.077981 34.025
8.85060000 0.078274 -8.067 0.996897 -76.99 0.996897 -76.99 0.078285 34.041
8.85080000 0.078582 -8.122 0.996872 -77.01 0.996872 -77.01 0.078594 34.056
8.85099131 0.078881 -8.175 0.996848 -77.03 0.996848 -77.03 0.078893 34.071
8.85100000 0.078895 -8.177 0.996847 -77.03 0.996847 -77.03 0.078907 34.071
8.85120000 0.079212 -8.233 0.996821 -77.05 0.996821 -77.05 0.079224 34.086
