! Sonnet Data File
! From: emgraph Version : 16.52
! From Project: Resonator2_cp_varyW
! Data is De-embedded 
! Data File Written: 10/08/2017 22:08:32
!< HDATE 10/08/2017 15:20:13
!< MDATE 10/08/2017 15:20:13
!< PARAMS
!< Length = 400.0
!< Pwid1 = 2000.0
!< Pwid2 = 2000.0
!< Air_gap = 24.0
!< Width = 40.0
!< gap = 26.0
!< END PARAMS
# GHZ S MA R 45.40000
8.90000000 0.016009 17.181 0.999867 -73.84 0.999867 -73.84 0.016006 15.166
!< P1 F=8.9 Eeff=(5.09096395 -2.214e-5) Z0=(45.4059169 1.00354e-4) R=0.0 C=0.0 
!< P2 F=8.9 Eeff=(5.09096395 -2.214e-5) Z0=(45.4059169 1.00354e-4) R=0.0 C=0.0 
8.90010000 0.016001 17.200 0.999867 -73.84 0.999867 -73.84 0.015999 15.144
8.90020000 0.015994 17.218 0.999867 -73.84 0.999867 -73.84 0.015991 15.123
8.90030000 0.015986 17.237 0.999867 -73.84 0.999867 -73.84 0.015984 15.102
8.90040000 0.015978 17.256 0.999868 -73.85 0.999868 -73.85 0.015976 15.080
8.90050000 0.015971 17.275 0.999868 -73.85 0.999868 -73.85 0.015968 15.058
8.90060000 0.015963 17.294 0.999868 -73.85 0.999868 -73.85 0.015961 15.037
8.90070000 0.015955 17.313 0.999868 -73.85 0.999868 -73.85 0.015953 15.015
8.90080000 0.015948 17.332 0.999868 -73.85 0.999868 -73.85 0.015945 14.993
8.90090000 0.015940 17.351 0.999868 -73.85 0.999868 -73.85 0.015938 14.971
8.90100000 0.015932 17.371 0.999868 -73.85 0.999868 -73.85 0.015930 14.949
8.90110000 0.015925 17.390 0.999868 -73.85 0.999868 -73.85 0.015922 14.926
8.90120000 0.015917 17.410 0.999869 -73.86 0.999869 -73.86 0.015914 14.904
8.90130000 0.015909 17.429 0.999869 -73.86 0.999869 -73.86 0.015906 14.882
8.90140000 0.015901 17.449 0.999869 -73.86 0.999869 -73.86 0.015899 14.859
8.90150000 0.015893 17.469 0.999869 -73.86 0.999869 -73.86 0.015891 14.837
8.90160000 0.015885 17.489 0.999869 -73.86 0.999869 -73.86 0.015883 14.814
8.90170000 0.015877 17.509 0.999869 -73.86 0.999869 -73.86 0.015875 14.791
8.90180000 0.015869 17.529 0.999869 -73.86 0.999869 -73.86 0.015867 14.768
8.90190000 0.015862 17.549 0.999869 -73.87 0.999869 -73.87 0.015859 14.745
8.90200000 0.015854 17.569 0.999869 -73.87 0.999869 -73.87 0.015851 14.722
8.90210000 0.015846 17.590 0.999870 -73.87 0.999870 -73.87 0.015843 14.699
8.90220000 0.015837 17.610 0.999870 -73.87 0.999870 -73.87 0.015835 14.676
8.90230000 0.015829 17.631 0.999870 -73.87 0.999870 -73.87 0.015827 14.652
8.90240000 0.015821 17.652 0.999870 -73.87 0.999870 -73.87 0.015819 14.629
8.90250000 0.015813 17.672 0.999870 -73.87 0.999870 -73.87 0.015811 14.605
8.90260000 0.015805 17.693 0.999870 -73.88 0.999870 -73.88 0.015802 14.582
8.90270000 0.015797 17.714 0.999870 -73.88 0.999870 -73.88 0.015794 14.558
8.90280000 0.015789 17.735 0.999870 -73.88 0.999870 -73.88 0.015786 14.534
8.90290000 0.015780 17.757 0.999871 -73.88 0.999871 -73.88 0.015778 14.510
8.90300000 0.015772 17.778 0.999871 -73.88 0.999871 -73.88 0.015769 14.486
8.90310000 0.015764 17.799 0.999871 -73.88 0.999871 -73.88 0.015761 14.461
8.90320000 0.015756 17.821 0.999871 -73.88 0.999871 -73.88 0.015753 14.437
8.90330000 0.015747 17.842 0.999871 -73.89 0.999871 -73.89 0.015744 14.413
8.90340000 0.015739 17.864 0.999871 -73.89 0.999871 -73.89 0.015736 14.388
8.90350000 0.015730 17.886 0.999871 -73.89 0.999871 -73.89 0.015728 14.363
8.90360000 0.015722 17.908 0.999871 -73.89 0.999871 -73.89 0.015719 14.339
8.90370000 0.015714 17.930 0.999872 -73.89 0.999872 -73.89 0.015711 14.314
8.90380000 0.015705 17.952 0.999872 -73.89 0.999872 -73.89 0.015702 14.289
8.90390000 0.015697 17.974 0.999872 -73.90 0.999872 -73.90 0.015694 14.264
8.90400000 0.015688 17.997 0.999872 -73.90 0.999872 -73.90 0.015685 14.238
8.90410000 0.015680 18.019 0.999872 -73.90 0.999872 -73.90 0.015677 14.213
8.90420000 0.015671 18.042 0.999872 -73.90 0.999872 -73.90 0.015668 14.188
8.90430000 0.015662 18.065 0.999872 -73.90 0.999872 -73.90 0.015659 14.162
8.90440000 0.015654 18.087 0.999872 -73.90 0.999872 -73.90 0.015651 14.136
8.90450000 0.015645 18.110 0.999873 -73.90 0.999873 -73.90 0.015642 14.110
8.90460000 0.015636 18.133 0.999873 -73.91 0.999873 -73.91 0.015633 14.084
8.90470000 0.015628 18.156 0.999873 -73.91 0.999873 -73.91 0.015625 14.058
8.90480000 0.015619 18.180 0.999873 -73.91 0.999873 -73.91 0.015616 14.032
8.90490000 0.015610 18.203 0.999873 -73.91 0.999873 -73.91 0.015607 14.006
8.90500000 0.015601 18.227 0.999873 -73.91 0.999873 -73.91 0.015598 13.980
8.90510000 0.015592 18.250 0.999873 -73.91 0.999873 -73.91 0.015589 13.953
8.90520000 0.015583 18.274 0.999873 -73.91 0.999873 -73.91 0.015580 13.926
8.90530000 0.015575 18.298 0.999874 -73.92 0.999874 -73.92 0.015572 13.899
8.90540000 0.015566 18.322 0.999874 -73.92 0.999874 -73.92 0.015563 13.873
8.90550000 0.015557 18.346 0.999874 -73.92 0.999874 -73.92 0.015554 13.846
8.90560000 0.015548 18.370 0.999874 -73.92 0.999874 -73.92 0.015545 13.818
8.90570000 0.015539 18.395 0.999874 -73.92 0.999874 -73.92 0.015536 13.791
8.90580000 0.015529 18.419 0.999874 -73.92 0.999874 -73.92 0.015526 13.764
8.90590000 0.015520 18.444 0.999874 -73.92 0.999874 -73.92 0.015517 13.736
8.90600000 0.015511 18.469 0.999874 -73.93 0.999874 -73.93 0.015508 13.708
8.90610000 0.015502 18.493 0.999875 -73.93 0.999875 -73.93 0.015499 13.680
8.90620000 0.015493 18.518 0.999875 -73.93 0.999875 -73.93 0.015490 13.652
8.90630000 0.015484 18.544 0.999875 -73.93 0.999875 -73.93 0.015481 13.624
8.90640000 0.015474 18.569 0.999875 -73.93 0.999875 -73.93 0.015471 13.596
8.90650000 0.015465 18.594 0.999875 -73.93 0.999875 -73.93 0.015462 13.568
8.90660000 0.015456 18.620 0.999875 -73.94 0.999875 -73.94 0.015453 13.539
8.90670000 0.015447 18.645 0.999875 -73.94 0.999875 -73.94 0.015443 13.511
8.90680000 0.015437 18.671 0.999876 -73.94 0.999876 -73.94 0.015434 13.482
8.90690000 0.015428 18.697 0.999876 -73.94 0.999876 -73.94 0.015424 13.453
8.90700000 0.015418 18.723 0.999876 -73.94 0.999876 -73.94 0.015415 13.424
8.90710000 0.015409 18.749 0.999876 -73.94 0.999876 -73.94 0.015406 13.395
8.90720000 0.015399 18.776 0.999876 -73.94 0.999876 -73.94 0.015396 13.365
8.90730000 0.015390 18.802 0.999876 -73.95 0.999876 -73.95 0.015386 13.336
8.90740000 0.015380 18.829 0.999876 -73.95 0.999876 -73.95 0.015377 13.306
8.90750000 0.015371 18.856 0.999877 -73.95 0.999877 -73.95 0.015367 13.276
8.90760000 0.015361 18.883 0.999877 -73.95 0.999877 -73.95 0.015358 13.246
8.90770000 0.015351 18.910 0.999877 -73.95 0.999877 -73.95 0.015348 13.216
8.90780000 0.015342 18.937 0.999877 -73.95 0.999877 -73.95 0.015338 13.186
8.90790000 0.015332 18.964 0.999877 -73.96 0.999877 -73.96 0.015328 13.155
8.90800000 0.015322 18.992 0.999877 -73.96 0.999877 -73.96 0.015319 13.125
8.90810000 0.015312 19.019 0.999877 -73.96 0.999877 -73.96 0.015309 13.094
8.90820000 0.015302 19.047 0.999877 -73.96 0.999877 -73.96 0.015299 13.063
8.90830000 0.015292 19.075 0.999878 -73.96 0.999878 -73.96 0.015289 13.032
8.90840000 0.015283 19.103 0.999878 -73.96 0.999878 -73.96 0.015279 13.001
8.90850000 0.015273 19.132 0.999878 -73.96 0.999878 -73.96 0.015269 12.970
8.90860000 0.015263 19.160 0.999878 -73.97 0.999878 -73.97 0.015259 12.938
8.90870000 0.015253 19.189 0.999878 -73.97 0.999878 -73.97 0.015249 12.907
8.90880000 0.015243 19.217 0.999878 -73.97 0.999878 -73.97 0.015239 12.875
8.90890000 0.015232 19.246 0.999878 -73.97 0.999878 -73.97 0.015229 12.843
8.90900000 0.015222 19.275 0.999879 -73.97 0.999879 -73.97 0.015219 12.811
8.90910000 0.015212 19.305 0.999879 -73.97 0.999879 -73.97 0.015209 12.778
8.90920000 0.015202 19.334 0.999879 -73.98 0.999879 -73.98 0.015198 12.746
8.90930000 0.015192 19.363 0.999879 -73.98 0.999879 -73.98 0.015188 12.713
8.90940000 0.015181 19.393 0.999879 -73.98 0.999879 -73.98 0.015178 12.680
8.90950000 0.015171 19.423 0.999879 -73.98 0.999879 -73.98 0.015167 12.647
8.90960000 0.015161 19.453 0.999879 -73.98 0.999879 -73.98 0.015157 12.614
8.90970000 0.015150 19.483 0.999880 -73.98 0.999880 -73.98 0.015147 12.581
8.90980000 0.015140 19.514 0.999880 -73.99 0.999880 -73.99 0.015136 12.547
8.90990000 0.015129 19.544 0.999880 -73.99 0.999880 -73.99 0.015126 12.514
8.91000000 0.015119 19.575 0.999880 -73.99 0.999880 -73.99 0.015115 12.480
8.91010000 0.015108 19.606 0.999880 -73.99 0.999880 -73.99 0.015105 12.446
8.91020000 0.015098 19.637 0.999880 -73.99 0.999880 -73.99 0.015094 12.411
8.91030000 0.015087 19.668 0.999881 -73.99 0.999881 -73.99 0.015083 12.377
8.91040000 0.015077 19.700 0.999881 -74.00 0.999881 -74.00 0.015073 12.342
8.91050000 0.015066 19.731 0.999881 -74.00 0.999881 -74.00 0.015062 12.307
8.91060000 0.015055 19.763 0.999881 -74.00 0.999881 -74.00 0.015051 12.272
8.91070000 0.015044 19.795 0.999881 -74.00 0.999881 -74.00 0.015040 12.237
8.91080000 0.015034 19.827 0.999881 -74.00 0.999881 -74.00 0.015030 12.202
8.91090000 0.015023 19.859 0.999881 -74.00 0.999881 -74.00 0.015019 12.166
8.91100000 0.015012 19.892 0.999882 -74.01 0.999882 -74.01 0.015008 12.131
8.91110000 0.015001 19.925 0.999882 -74.01 0.999882 -74.01 0.014997 12.095
8.91120000 0.014990 19.958 0.999882 -74.01 0.999882 -74.01 0.014986 12.058
8.91130000 0.014979 19.991 0.999882 -74.01 0.999882 -74.01 0.014975 12.022
8.91140000 0.014968 20.024 0.999882 -74.01 0.999882 -74.01 0.014964 11.986
8.91150000 0.014957 20.058 0.999882 -74.01 0.999882 -74.01 0.014953 11.949
8.91160000 0.014946 20.091 0.999882 -74.02 0.999882 -74.02 0.014942 11.912
8.91170000 0.014935 20.125 0.999883 -74.02 0.999883 -74.02 0.014930 11.875
8.91180000 0.014923 20.159 0.999883 -74.02 0.999883 -74.02 0.014919 11.837
8.91190000 0.014912 20.194 0.999883 -74.02 0.999883 -74.02 0.014908 11.800
8.91200000 0.014901 20.228 0.999883 -74.02 0.999883 -74.02 0.014897 11.762
8.91210000 0.014889 20.263 0.999883 -74.02 0.999883 -74.02 0.014885 11.724
8.91220000 0.014878 20.298 0.999883 -74.03 0.999883 -74.03 0.014874 11.686
8.91230000 0.014867 20.333 0.999884 -74.03 0.999884 -74.03 0.014862 11.647
8.91240000 0.014855 20.368 0.999884 -74.03 0.999884 -74.03 0.014851 11.609
8.91250000 0.014844 20.404 0.999884 -74.03 0.999884 -74.03 0.014839 11.570
8.91260000 0.014832 20.439 0.999884 -74.03 0.999884 -74.03 0.014828 11.531
8.91270000 0.014820 20.475 0.999884 -74.03 0.999884 -74.03 0.014816 11.491
8.91280000 0.014809 20.512 0.999884 -74.04 0.999884 -74.04 0.014804 11.452
8.91290000 0.014797 20.548 0.999885 -74.04 0.999885 -74.04 0.014793 11.412
8.91300000 0.014785 20.585 0.999885 -74.04 0.999885 -74.04 0.014781 11.372
8.91310000 0.014774 20.622 0.999885 -74.04 0.999885 -74.04 0.014769 11.332
8.91320000 0.014762 20.659 0.999885 -74.04 0.999885 -74.04 0.014757 11.291
8.91330000 0.014750 20.696 0.999885 -74.04 0.999885 -74.04 0.014746 11.251
8.91340000 0.014738 20.734 0.999885 -74.05 0.999885 -74.05 0.014734 11.210
8.91350000 0.014726 20.771 0.999885 -74.05 0.999885 -74.05 0.014722 11.168
8.91360000 0.014714 20.809 0.999886 -74.05 0.999886 -74.05 0.014710 11.127
8.91370000 0.014702 20.848 0.999886 -74.05 0.999886 -74.05 0.014698 11.085
8.91380000 0.014690 20.886 0.999886 -74.05 0.999886 -74.05 0.014685 11.043
8.91390000 0.014678 20.925 0.999886 -74.05 0.999886 -74.05 0.014673 11.001
8.91400000 0.014666 20.964 0.999886 -74.06 0.999886 -74.06 0.014661 10.959
8.91410000 0.014654 21.003 0.999886 -74.06 0.999886 -74.06 0.014649 10.916
8.91420000 0.014641 21.043 0.999887 -74.06 0.999887 -74.06 0.014637 10.873
8.91430000 0.014629 21.082 0.999887 -74.06 0.999887 -74.06 0.014624 10.830
8.91440000 0.014617 21.122 0.999887 -74.06 0.999887 -74.06 0.014612 10.787
8.91450000 0.014604 21.163 0.999887 -74.07 0.999887 -74.07 0.014599 10.743
8.91460000 0.014592 21.203 0.999887 -74.07 0.999887 -74.07 0.014587 10.699
8.91470000 0.014579 21.244 0.999887 -74.07 0.999887 -74.07 0.014574 10.655
8.91480000 0.014567 21.285 0.999888 -74.07 0.999888 -74.07 0.014562 10.610
8.91490000 0.014554 21.326 0.999888 -74.07 0.999888 -74.07 0.014549 10.565
8.91500000 0.014541 21.368 0.999888 -74.07 0.999888 -74.07 0.014536 10.520
8.91510000 0.014529 21.410 0.999888 -74.08 0.999888 -74.08 0.014524 10.475
8.91520000 0.014516 21.452 0.999888 -74.08 0.999888 -74.08 0.014511 10.429
8.91530000 0.014503 21.494 0.999888 -74.08 0.999888 -74.08 0.014498 10.384
8.91540000 0.014490 21.537 0.999889 -74.08 0.999889 -74.08 0.014485 10.337
8.91550000 0.014477 21.580 0.999889 -74.08 0.999889 -74.08 0.014472 10.291
8.91560000 0.014464 21.623 0.999889 -74.09 0.999889 -74.09 0.014459 10.244
8.91570000 0.014451 21.666 0.999889 -74.09 0.999889 -74.09 0.014446 10.197
8.91580000 0.014438 21.710 0.999889 -74.09 0.999889 -74.09 0.014433 10.150
8.91590000 0.014425 21.754 0.999889 -74.09 0.999889 -74.09 0.014420 10.102
8.91600000 0.014412 21.798 0.999890 -74.09 0.999890 -74.09 0.014407 10.054
8.91610000 0.014399 21.843 0.999890 -74.09 0.999890 -74.09 0.014394 10.006
8.91620000 0.014386 21.888 0.999890 -74.10 0.999890 -74.10 0.014380 9.9573
8.91630000 0.014372 21.933 0.999890 -74.10 0.999890 -74.10 0.014367 9.9085
8.91640000 0.014359 21.979 0.999890 -74.10 0.999890 -74.10 0.014354 9.8593
8.91650000 0.014346 22.025 0.999891 -74.10 0.999891 -74.10 0.014340 9.8098
8.91660000 0.014332 22.071 0.999891 -74.10 0.999891 -74.10 0.014327 9.7600
8.91670000 0.014319 22.117 0.999891 -74.11 0.999891 -74.11 0.014313 9.7098
8.91680000 0.014305 22.164 0.999891 -74.11 0.999891 -74.11 0.014299 9.6594
8.91690000 0.014291 22.211 0.999891 -74.11 0.999891 -74.11 0.014286 9.6086
8.91700000 0.014278 22.259 0.999891 -74.11 0.999891 -74.11 0.014272 9.5575
8.91710000 0.014264 22.307 0.999892 -74.11 0.999892 -74.11 0.014258 9.5060
8.91720000 0.014250 22.355 0.999892 -74.12 0.999892 -74.12 0.014245 9.4542
8.91730000 0.014236 22.403 0.999892 -74.12 0.999892 -74.12 0.014231 9.4021
8.91740000 0.014222 22.452 0.999892 -74.12 0.999892 -74.12 0.014217 9.3496
8.91750000 0.014208 22.501 0.999892 -74.12 0.999892 -74.12 0.014203 9.2968
8.91760000 0.014194 22.550 0.999892 -74.12 0.999892 -74.12 0.014189 9.2436
8.91770000 0.014180 22.600 0.999893 -74.13 0.999893 -74.13 0.014175 9.1901
8.91780000 0.014166 22.650 0.999893 -74.13 0.999893 -74.13 0.014160 9.1362
8.91790000 0.014152 22.701 0.999893 -74.13 0.999893 -74.13 0.014146 9.0819
8.91800000 0.014138 22.752 0.999893 -74.13 0.999893 -74.13 0.014132 9.0273
8.91810000 0.014124 22.803 0.999893 -74.13 0.999893 -74.13 0.014118 8.9723
8.91820000 0.014109 22.854 0.999894 -74.13 0.999894 -74.13 0.014103 8.9169
8.91830000 0.014095 22.906 0.999894 -74.14 0.999894 -74.14 0.014089 8.8612
8.91840000 0.014080 22.959 0.999894 -74.14 0.999894 -74.14 0.014074 8.8051
8.91850000 0.014066 23.011 0.999894 -74.14 0.999894 -74.14 0.014060 8.7486
8.91860000 0.014051 23.064 0.999894 -74.14 0.999894 -74.14 0.014045 8.6917
8.91870000 0.014037 23.118 0.999895 -74.14 0.999895 -74.14 0.014030 8.6344
8.91880000 0.014022 23.172 0.999895 -74.15 0.999895 -74.15 0.014016 8.5767
8.91890000 0.014007 23.226 0.999895 -74.15 0.999895 -74.15 0.014001 8.5186
8.91900000 0.013992 23.281 0.999895 -74.15 0.999895 -74.15 0.013986 8.4601
8.91910000 0.013977 23.336 0.999895 -74.15 0.999895 -74.15 0.013971 8.4012
8.91920000 0.013962 23.391 0.999895 -74.15 0.999895 -74.15 0.013956 8.3419
8.91930000 0.013947 23.447 0.999896 -74.16 0.999896 -74.16 0.013941 8.2822
8.91940000 0.013932 23.503 0.999896 -74.16 0.999896 -74.16 0.013926 8.2220
8.91950000 0.013917 23.560 0.999896 -74.16 0.999896 -74.16 0.013911 8.1615
8.91960000 0.013902 23.617 0.999896 -74.16 0.999896 -74.16 0.013896 8.1005
8.91970000 0.013887 23.674 0.999896 -74.17 0.999896 -74.17 0.013880 8.0390
8.91980000 0.013871 23.732 0.999897 -74.17 0.999897 -74.17 0.013865 7.9771
8.91990000 0.013856 23.790 0.999897 -74.17 0.999897 -74.17 0.013850 7.9148
8.92000000 0.013841 23.849 0.999897 -74.17 0.999897 -74.17 0.013834 7.8520
8.92010000 0.013825 23.909 0.999897 -74.17 0.999897 -74.17 0.013819 7.7888
8.92020000 0.013810 23.968 0.999897 -74.18 0.999897 -74.18 0.013803 7.7251
8.92030000 0.013794 24.028 0.999898 -74.18 0.999898 -74.18 0.013787 7.6610
8.92040000 0.013778 24.089 0.999898 -74.18 0.999898 -74.18 0.013771 7.5964
8.92050000 0.013763 24.150 0.999898 -74.18 0.999898 -74.18 0.013756 7.5313
8.92060000 0.013747 24.211 0.999898 -74.18 0.999898 -74.18 0.013740 7.4657
8.92070000 0.013731 24.273 0.999898 -74.19 0.999898 -74.19 0.013724 7.3996
8.92080000 0.013715 24.336 0.999899 -74.19 0.999899 -74.19 0.013708 7.3331
8.92090000 0.013699 24.399 0.999899 -74.19 0.999899 -74.19 0.013692 7.2660
8.92100000 0.013683 24.462 0.999899 -74.19 0.999899 -74.19 0.013676 7.1985
8.92110000 0.013667 24.526 0.999899 -74.19 0.999899 -74.19 0.013660 7.1304
8.92120000 0.013650 24.591 0.999899 -74.20 0.999899 -74.20 0.013643 7.0619
8.92130000 0.013634 24.656 0.999899 -74.20 0.999899 -74.20 0.013627 6.9928
8.92140000 0.013618 24.721 0.999900 -74.20 0.999900 -74.20 0.013611 6.9232
8.92150000 0.013601 24.787 0.999900 -74.20 0.999900 -74.20 0.013594 6.8531
8.92160000 0.013585 24.854 0.999900 -74.21 0.999900 -74.21 0.013578 6.7824
8.92170000 0.013568 24.921 0.999900 -74.21 0.999900 -74.21 0.013561 6.7112
8.92180000 0.013552 24.988 0.999900 -74.21 0.999900 -74.21 0.013544 6.6395
8.92190000 0.013535 25.056 0.999901 -74.21 0.999901 -74.21 0.013528 6.5672
8.92200000 0.013518 25.125 0.999901 -74.21 0.999901 -74.21 0.013511 6.4943
8.92210000 0.013502 25.194 0.999901 -74.22 0.999901 -74.22 0.013494 6.4209
8.92220000 0.013485 25.264 0.999901 -74.22 0.999901 -74.22 0.013477 6.3469
8.92230000 0.013468 25.334 0.999901 -74.22 0.999901 -74.22 0.013460 6.2723
8.92240000 0.013451 25.405 0.999902 -74.22 0.999902 -74.22 0.013443 6.1971
8.92250000 0.013434 25.476 0.999902 -74.23 0.999902 -74.23 0.013426 6.1214
8.92260000 0.013416 25.548 0.999902 -74.23 0.999902 -74.23 0.013408 6.0450
8.92270000 0.013399 25.621 0.999902 -74.23 0.999902 -74.23 0.013391 5.9680
8.92280000 0.013382 25.694 0.999902 -74.23 0.999902 -74.23 0.013374 5.8905
8.92290000 0.013364 25.768 0.999903 -74.23 0.999903 -74.23 0.013356 5.8123
8.92300000 0.013347 25.843 0.999903 -74.24 0.999903 -74.24 0.013339 5.7335
8.92310000 0.013329 25.918 0.999903 -74.24 0.999903 -74.24 0.013321 5.6540
8.92320000 0.013312 25.993 0.999903 -74.24 0.999903 -74.24 0.013304 5.5739
8.92330000 0.013294 26.070 0.999904 -74.24 0.999904 -74.24 0.013286 5.4932
8.92340000 0.013276 26.147 0.999904 -74.25 0.999904 -74.25 0.013268 5.4117
8.92350000 0.013259 26.224 0.999904 -74.25 0.999904 -74.25 0.013250 5.3297
8.92360000 0.013241 26.303 0.999904 -74.25 0.999904 -74.25 0.013232 5.2469
8.92370000 0.013223 26.381 0.999904 -74.25 0.999904 -74.25 0.013214 5.1635
8.92380000 0.013205 26.461 0.999905 -74.26 0.999905 -74.26 0.013196 5.0794
8.92390000 0.013187 26.541 0.999905 -74.26 0.999905 -74.26 0.013178 4.9946
8.92400000 0.013168 26.622 0.999905 -74.26 0.999905 -74.26 0.013160 4.9091
8.92410000 0.013150 26.704 0.999905 -74.26 0.999905 -74.26 0.013141 4.8228
8.92420000 0.013132 26.787 0.999905 -74.26 0.999905 -74.26 0.013123 4.7359
8.92430000 0.013113 26.870 0.999906 -74.27 0.999906 -74.27 0.013104 4.6482
8.92440000 0.013095 26.953 0.999906 -74.27 0.999906 -74.27 0.013086 4.5597
8.92450000 0.013076 27.038 0.999906 -74.27 0.999906 -74.27 0.013067 4.4706
8.92460000 0.013058 27.123 0.999906 -74.27 0.999906 -74.27 0.013049 4.3806
8.92470000 0.013039 27.209 0.999906 -74.28 0.999906 -74.28 0.013030 4.2899
8.92480000 0.013020 27.296 0.999907 -74.28 0.999907 -74.28 0.013011 4.1984
8.92490000 0.013001 27.384 0.999907 -74.28 0.999907 -74.28 0.012992 4.1061
8.92500000 0.012982 27.472 0.999907 -74.28 0.999907 -74.28 0.012973 4.0130
8.92510000 0.012963 27.561 0.999907 -74.29 0.999907 -74.29 0.012954 3.9192
8.92520000 0.012944 27.651 0.999908 -74.29 0.999908 -74.29 0.012935 3.8244
8.92530000 0.012925 27.742 0.999908 -74.29 0.999908 -74.29 0.012915 3.7289
8.92540000 0.012906 27.834 0.999908 -74.29 0.999908 -74.29 0.012896 3.6325
8.92550000 0.012886 27.926 0.999908 -74.30 0.999908 -74.30 0.012877 3.5353
8.92560000 0.012867 28.020 0.999908 -74.30 0.999908 -74.30 0.012857 3.4372
8.92570000 0.012847 28.114 0.999909 -74.30 0.999909 -74.30 0.012837 3.3383
8.92580000 0.012828 28.209 0.999909 -74.30 0.999909 -74.30 0.012818 3.2384
