! Sonnet Data File
! From: emgraph Version : 16.52
! From Project: Resonator2_cp_varyW
! Data is De-embedded 
! Data File Written: 10/09/2017 13:24:46
!< HDATE 10/09/2017 09:18:07
!< MDATE 10/09/2017 09:18:07
!< PARAMS
!< Length = 400.0
!< Pwid1 = 2000.0
!< Pwid2 = 2000.0
!< Air_gap = 6.0
!< Width = 10.0
!< gap = 16.0
!< END PARAMS
# GHZ S MA R 35.98000
8.90000000 0.018296 17.255 0.999826 -76.44 0.999826 -76.44 0.018292 9.8896
!< P1 F=8.9 Eeff=(5.36982967 -2.3752e-5) Z0=(35.9777542 8.05608e-5) R=0.0 C=0.0 
!< P2 F=8.9 Eeff=(5.36982967 -2.3752e-5) Z0=(35.9777542 8.05608e-5) R=0.0 C=0.0 
8.90010000 0.018282 17.284 0.999826 -76.45 0.999826 -76.45 0.018278 9.8572
8.90020000 0.018268 17.313 0.999827 -76.45 0.999827 -76.45 0.018264 9.8246
8.90030000 0.018254 17.342 0.999827 -76.45 0.999827 -76.45 0.018249 9.7918
8.90040000 0.018239 17.371 0.999827 -76.45 0.999827 -76.45 0.018235 9.7589
8.90050000 0.018225 17.400 0.999827 -76.45 0.999827 -76.45 0.018221 9.7259
8.90060000 0.018210 17.430 0.999828 -76.45 0.999828 -76.45 0.018206 9.6927
8.90070000 0.018196 17.460 0.999828 -76.46 0.999828 -76.46 0.018192 9.6593
8.90080000 0.018182 17.489 0.999828 -76.46 0.999828 -76.46 0.018177 9.6257
8.90090000 0.018167 17.519 0.999828 -76.46 0.999828 -76.46 0.018163 9.5920
8.90100000 0.018152 17.550 0.999829 -76.46 0.999829 -76.46 0.018148 9.5582
8.90110000 0.018138 17.580 0.999829 -76.46 0.999829 -76.46 0.018133 9.5241
8.90120000 0.018123 17.610 0.999829 -76.47 0.999829 -76.47 0.018119 9.4899
8.90130000 0.018108 17.641 0.999829 -76.47 0.999829 -76.47 0.018104 9.4555
8.90140000 0.018094 17.672 0.999830 -76.47 0.999830 -76.47 0.018089 9.4210
8.90150000 0.018079 17.703 0.999830 -76.47 0.999830 -76.47 0.018074 9.3863
8.90160000 0.018064 17.734 0.999830 -76.47 0.999830 -76.47 0.018059 9.3514
8.90170000 0.018049 17.765 0.999830 -76.48 0.999830 -76.48 0.018044 9.3163
8.90180000 0.018034 17.797 0.999831 -76.48 0.999831 -76.48 0.018029 9.2811
8.90190000 0.018019 17.828 0.999831 -76.48 0.999831 -76.48 0.018014 9.2457
8.90200000 0.018004 17.860 0.999831 -76.48 0.999831 -76.48 0.017999 9.2101
8.90210000 0.017989 17.892 0.999831 -76.48 0.999831 -76.48 0.017984 9.1743
8.90220000 0.017974 17.924 0.999832 -76.49 0.999832 -76.49 0.017969 9.1383
8.90230000 0.017959 17.957 0.999832 -76.49 0.999832 -76.49 0.017954 9.1022
8.90240000 0.017943 17.989 0.999832 -76.49 0.999832 -76.49 0.017939 9.0659
8.90250000 0.017928 18.022 0.999832 -76.49 0.999832 -76.49 0.017923 9.0294
8.90260000 0.017913 18.055 0.999833 -76.49 0.999833 -76.49 0.017908 8.9927
8.90270000 0.017897 18.088 0.999833 -76.50 0.999833 -76.50 0.017893 8.9558
8.90280000 0.017882 18.121 0.999833 -76.50 0.999833 -76.50 0.017877 8.9188
8.90290000 0.017866 18.154 0.999834 -76.50 0.999834 -76.50 0.017862 8.8815
8.90300000 0.017851 18.188 0.999834 -76.50 0.999834 -76.50 0.017846 8.8441
8.90310000 0.017835 18.222 0.999834 -76.50 0.999834 -76.50 0.017830 8.8064
8.90320000 0.017820 18.256 0.999834 -76.51 0.999834 -76.51 0.017815 8.7686
8.90330000 0.017804 18.290 0.999835 -76.51 0.999835 -76.51 0.017799 8.7305
8.90340000 0.017788 18.324 0.999835 -76.51 0.999835 -76.51 0.017783 8.6923
8.90350000 0.017773 18.359 0.999835 -76.51 0.999835 -76.51 0.017768 8.6539
8.90360000 0.017757 18.393 0.999835 -76.51 0.999835 -76.51 0.017752 8.6152
8.90370000 0.017741 18.428 0.999836 -76.52 0.999836 -76.52 0.017736 8.5764
8.90380000 0.017725 18.464 0.999836 -76.52 0.999836 -76.52 0.017720 8.5374
8.90390000 0.017709 18.499 0.999836 -76.52 0.999836 -76.52 0.017704 8.4981
8.90400000 0.017693 18.534 0.999836 -76.52 0.999836 -76.52 0.017688 8.4587
8.90410000 0.017677 18.570 0.999837 -76.52 0.999837 -76.52 0.017672 8.4190
8.90420000 0.017661 18.606 0.999837 -76.53 0.999837 -76.53 0.017656 8.3791
8.90430000 0.017645 18.642 0.999837 -76.53 0.999837 -76.53 0.017639 8.3390
8.90440000 0.017628 18.679 0.999838 -76.53 0.999838 -76.53 0.017623 8.2987
8.90450000 0.017612 18.715 0.999838 -76.53 0.999838 -76.53 0.017607 8.2582
8.90460000 0.017596 18.752 0.999838 -76.53 0.999838 -76.53 0.017590 8.2175
8.90470000 0.017579 18.789 0.999838 -76.54 0.999838 -76.54 0.017574 8.1765
8.90480000 0.017563 18.826 0.999839 -76.54 0.999839 -76.54 0.017558 8.1353
8.90490000 0.017546 18.863 0.999839 -76.54 0.999839 -76.54 0.017541 8.0939
8.90500000 0.017530 18.901 0.999839 -76.54 0.999839 -76.54 0.017525 8.0523
8.90510000 0.017513 18.939 0.999839 -76.54 0.999839 -76.54 0.017508 8.0105
8.90520000 0.017497 18.977 0.999840 -76.55 0.999840 -76.55 0.017491 7.9684
8.90530000 0.017480 19.015 0.999840 -76.55 0.999840 -76.55 0.017475 7.9261
8.90540000 0.017463 19.054 0.999840 -76.55 0.999840 -76.55 0.017458 7.8835
8.90550000 0.017446 19.092 0.999841 -76.55 0.999841 -76.55 0.017441 7.8407
8.90560000 0.017430 19.131 0.999841 -76.55 0.999841 -76.55 0.017424 7.7977
8.90570000 0.017413 19.171 0.999841 -76.56 0.999841 -76.56 0.017407 7.7545
8.90580000 0.017396 19.210 0.999841 -76.56 0.999841 -76.56 0.017390 7.7110
8.90590000 0.017379 19.250 0.999842 -76.56 0.999842 -76.56 0.017373 7.6672
8.90600000 0.017362 19.290 0.999842 -76.56 0.999842 -76.56 0.017356 7.6232
8.90610000 0.017344 19.330 0.999842 -76.56 0.999842 -76.56 0.017339 7.5790
8.90620000 0.017327 19.370 0.999843 -76.57 0.999843 -76.57 0.017321 7.5345
8.90630000 0.017310 19.411 0.999843 -76.57 0.999843 -76.57 0.017304 7.4898
8.90640000 0.017293 19.452 0.999843 -76.57 0.999843 -76.57 0.017287 7.4448
8.90650000 0.017275 19.493 0.999843 -76.57 0.999843 -76.57 0.017269 7.3996
8.90660000 0.017258 19.534 0.999844 -76.57 0.999844 -76.57 0.017252 7.3541
8.90670000 0.017240 19.576 0.999844 -76.58 0.999844 -76.58 0.017235 7.3083
8.90680000 0.017223 19.617 0.999844 -76.58 0.999844 -76.58 0.017217 7.2623
8.90690000 0.017205 19.660 0.999844 -76.58 0.999844 -76.58 0.017199 7.2161
8.90700000 0.017188 19.702 0.999845 -76.58 0.999845 -76.58 0.017182 7.1695
8.90710000 0.017170 19.745 0.999845 -76.59 0.999845 -76.59 0.017164 7.1227
8.90720000 0.017152 19.787 0.999845 -76.59 0.999845 -76.59 0.017146 7.0756
8.90730000 0.017134 19.831 0.999846 -76.59 0.999846 -76.59 0.017128 7.0283
8.90740000 0.017116 19.874 0.999846 -76.59 0.999846 -76.59 0.017110 6.9806
8.90750000 0.017099 19.918 0.999846 -76.59 0.999846 -76.59 0.017092 6.9327
8.90760000 0.017081 19.962 0.999847 -76.60 0.999847 -76.60 0.017074 6.8845
8.90770000 0.017062 20.006 0.999847 -76.60 0.999847 -76.60 0.017056 6.8361
8.90780000 0.017044 20.050 0.999847 -76.60 0.999847 -76.60 0.017038 6.7873
8.90790000 0.017026 20.095 0.999847 -76.60 0.999847 -76.60 0.017020 6.7383
8.90800000 0.017008 20.140 0.999848 -76.61 0.999848 -76.61 0.017002 6.6889
8.90810000 0.016990 20.186 0.999848 -76.61 0.999848 -76.61 0.016983 6.6393
8.90820000 0.016971 20.231 0.999848 -76.61 0.999848 -76.61 0.016965 6.5894
8.90830000 0.016953 20.277 0.999849 -76.61 0.999849 -76.61 0.016946 6.5391
8.90840000 0.016934 20.323 0.999849 -76.61 0.999849 -76.61 0.016928 6.4886
8.90850000 0.016916 20.370 0.999849 -76.62 0.999849 -76.62 0.016909 6.4378
8.90860000 0.016897 20.417 0.999849 -76.62 0.999849 -76.62 0.016891 6.3867
8.90870000 0.016879 20.464 0.999850 -76.62 0.999850 -76.62 0.016872 6.3352
8.90880000 0.016860 20.511 0.999850 -76.62 0.999850 -76.62 0.016853 6.2835
8.90890000 0.016841 20.559 0.999850 -76.63 0.999850 -76.63 0.016835 6.2314
8.90900000 0.016822 20.607 0.999851 -76.63 0.999851 -76.63 0.016816 6.1790
8.90910000 0.016803 20.655 0.999851 -76.63 0.999851 -76.63 0.016797 6.1263
8.90920000 0.016784 20.704 0.999851 -76.63 0.999851 -76.63 0.016778 6.0733
8.90930000 0.016765 20.753 0.999852 -76.63 0.999852 -76.63 0.016759 6.0199
8.90940000 0.016746 20.802 0.999852 -76.64 0.999852 -76.64 0.016739 5.9663
8.90950000 0.016727 20.852 0.999852 -76.64 0.999852 -76.64 0.016720 5.9122
8.90960000 0.016708 20.902 0.999852 -76.64 0.999852 -76.64 0.016701 5.8579
8.90970000 0.016689 20.952 0.999853 -76.64 0.999853 -76.64 0.016682 5.8032
8.90980000 0.016669 21.002 0.999853 -76.65 0.999853 -76.65 0.016662 5.7482
8.90990000 0.016650 21.053 0.999853 -76.65 0.999853 -76.65 0.016643 5.6928
8.91000000 0.016630 21.105 0.999854 -76.65 0.999854 -76.65 0.016623 5.6371
8.91010000 0.016611 21.156 0.999854 -76.65 0.999854 -76.65 0.016604 5.5810
8.91020000 0.016591 21.208 0.999854 -76.66 0.999854 -76.66 0.016584 5.5246
8.91030000 0.016571 21.260 0.999855 -76.66 0.999855 -76.66 0.016564 5.4678
8.91040000 0.016552 21.313 0.999855 -76.66 0.999855 -76.66 0.016545 5.4107
8.91050000 0.016532 21.366 0.999855 -76.66 0.999855 -76.66 0.016525 5.3532
8.91060000 0.016512 21.419 0.999855 -76.66 0.999855 -76.66 0.016505 5.2953
8.91070000 0.016492 21.473 0.999856 -76.67 0.999856 -76.67 0.016485 5.2370
8.91080000 0.016472 21.527 0.999856 -76.67 0.999856 -76.67 0.016465 5.1784
8.91090000 0.016452 21.581 0.999856 -76.67 0.999856 -76.67 0.016445 5.1194
8.91100000 0.016432 21.636 0.999857 -76.67 0.999857 -76.67 0.016424 5.0600
8.91110000 0.016412 21.691 0.999857 -76.68 0.999857 -76.68 0.016404 5.0003
8.91120000 0.016391 21.747 0.999857 -76.68 0.999857 -76.68 0.016384 4.9401
8.91130000 0.016371 21.803 0.999858 -76.68 0.999858 -76.68 0.016363 4.8796
8.91140000 0.016350 21.859 0.999858 -76.68 0.999858 -76.68 0.016343 4.8186
8.91150000 0.016330 21.916 0.999858 -76.69 0.999858 -76.69 0.016322 4.7573
8.91160000 0.016309 21.973 0.999859 -76.69 0.999859 -76.69 0.016302 4.6955
8.91170000 0.016289 22.030 0.999859 -76.69 0.999859 -76.69 0.016281 4.6334
8.91180000 0.016268 22.088 0.999859 -76.69 0.999859 -76.69 0.016260 4.5708
8.91190000 0.016247 22.147 0.999859 -76.70 0.999859 -76.70 0.016240 4.5078
8.91200000 0.016226 22.205 0.999860 -76.70 0.999860 -76.70 0.016219 4.4444
8.91210000 0.016206 22.264 0.999860 -76.70 0.999860 -76.70 0.016198 4.3806
8.91220000 0.016185 22.324 0.999860 -76.70 0.999860 -76.70 0.016177 4.3163
8.91230000 0.016164 22.384 0.999861 -76.71 0.999861 -76.71 0.016156 4.2516
8.91240000 0.016142 22.444 0.999861 -76.71 0.999861 -76.71 0.016134 4.1865
8.91250000 0.016121 22.505 0.999861 -76.71 0.999861 -76.71 0.016113 4.1209
8.91260000 0.016100 22.566 0.999862 -76.71 0.999862 -76.71 0.016092 4.0549
8.91270000 0.016079 22.628 0.999862 -76.72 0.999862 -76.72 0.016071 3.9884
8.91280000 0.016057 22.690 0.999862 -76.72 0.999862 -76.72 0.016049 3.9215
8.91290000 0.016036 22.753 0.999863 -76.72 0.999863 -76.72 0.016028 3.8541
8.91300000 0.016014 22.816 0.999863 -76.72 0.999863 -76.72 0.016006 3.7862
8.91310000 0.015993 22.879 0.999863 -76.73 0.999863 -76.73 0.015984 3.7179
8.91320000 0.015971 22.943 0.999864 -76.73 0.999864 -76.73 0.015963 3.6491
8.91330000 0.015949 23.008 0.999864 -76.73 0.999864 -76.73 0.015941 3.5798
8.91340000 0.015927 23.072 0.999864 -76.73 0.999864 -76.73 0.015919 3.5101
8.91350000 0.015905 23.138 0.999865 -76.74 0.999865 -76.74 0.015897 3.4398
8.91360000 0.015883 23.204 0.999865 -76.74 0.999865 -76.74 0.015875 3.3691
8.91370000 0.015861 23.270 0.999865 -76.74 0.999865 -76.74 0.015853 3.2978
8.91380000 0.015839 23.337 0.999866 -76.74 0.999866 -76.74 0.015830 3.2261
8.91390000 0.015817 23.404 0.999866 -76.75 0.999866 -76.75 0.015808 3.1538
8.91400000 0.015795 23.472 0.999866 -76.75 0.999866 -76.75 0.015786 3.0810
8.91410000 0.015772 23.540 0.999867 -76.75 0.999867 -76.75 0.015763 3.0078
8.91420000 0.015750 23.609 0.999867 -76.75 0.999867 -76.75 0.015741 2.9339
8.91430000 0.015727 23.678 0.999867 -76.76 0.999867 -76.76 0.015718 2.8596
8.91440000 0.015705 23.748 0.999868 -76.76 0.999868 -76.76 0.015696 2.7847
8.91450000 0.015682 23.819 0.999868 -76.76 0.999868 -76.76 0.015673 2.7093
8.91460000 0.015659 23.889 0.999868 -76.76 0.999868 -76.76 0.015650 2.6333
8.91470000 0.015636 23.961 0.999869 -76.77 0.999869 -76.77 0.015627 2.5568
8.91480000 0.015614 24.033 0.999869 -76.77 0.999869 -76.77 0.015604 2.4797
8.91490000 0.015591 24.105 0.999869 -76.77 0.999869 -76.77 0.015581 2.4020
8.91500000 0.015568 24.179 0.999869 -76.77 0.999869 -76.77 0.015558 2.3238
8.91510000 0.015544 24.252 0.999870 -76.78 0.999870 -76.78 0.015535 2.2450
8.91520000 0.015521 24.327 0.999870 -76.78 0.999870 -76.78 0.015512 2.1656
8.91530000 0.015498 24.401 0.999870 -76.78 0.999870 -76.78 0.015488 2.0856
8.91540000 0.015475 24.477 0.999871 -76.78 0.999871 -76.78 0.015465 2.0050
8.91550000 0.015451 24.553 0.999871 -76.79 0.999871 -76.79 0.015442 1.9239
8.91560000 0.015428 24.629 0.999871 -76.79 0.999871 -76.79 0.015418 1.8421
8.91570000 0.015404 24.707 0.999872 -76.79 0.999872 -76.79 0.015394 1.7596
8.91580000 0.015380 24.784 0.999872 -76.80 0.999872 -76.80 0.015371 1.6766
8.91590000 0.015357 24.863 0.999872 -76.80 0.999872 -76.80 0.015347 1.5930
8.91600000 0.015333 24.942 0.999873 -76.80 0.999873 -76.80 0.015323 1.5086
8.91610000 0.015309 25.021 0.999873 -76.80 0.999873 -76.80 0.015299 1.4237
8.91620000 0.015285 25.102 0.999873 -76.81 0.999873 -76.81 0.015275 1.3381
8.91630000 0.015261 25.183 0.999874 -76.81 0.999874 -76.81 0.015251 1.2518
8.91640000 0.015237 25.264 0.999874 -76.81 0.999874 -76.81 0.015226 1.1649
8.91650000 0.015212 25.346 0.999875 -76.81 0.999875 -76.81 0.015202 1.0773
8.91660000 0.015188 25.429 0.999875 -76.82 0.999875 -76.82 0.015178 0.9890
8.91670000 0.015164 25.513 0.999875 -76.82 0.999875 -76.82 0.015153 0.9001
8.91680000 0.015139 25.597 0.999876 -76.82 0.999876 -76.82 0.015129 0.8104
8.91690000 0.015115 25.682 0.999876 -76.83 0.999876 -76.83 0.015104 0.7200
8.91700000 0.015090 25.768 0.999876 -76.83 0.999876 -76.83 0.015079 0.6290
8.91710000 0.015065 25.854 0.999877 -76.83 0.999877 -76.83 0.015055 0.5371
8.91720000 0.015040 25.941 0.999877 -76.83 0.999877 -76.83 0.015030 0.4446
8.91730000 0.015016 26.029 0.999877 -76.84 0.999877 -76.84 0.015005 0.3513
8.91740000 0.014991 26.118 0.999878 -76.84 0.999878 -76.84 0.014980 0.2573
8.91750000 0.014966 26.207 0.999878 -76.84 0.999878 -76.84 0.014955 0.1625
8.91760000 0.014940 26.297 0.999878 -76.85 0.999878 -76.85 0.014929 0.0670
8.91770000 0.014915 26.388 0.999879 -76.85 0.999879 -76.85 0.014904 -0.029
8.91780000 0.014890 26.479 0.999879 -76.85 0.999879 -76.85 0.014879 -0.126
8.91790000 0.014864 26.571 0.999879 -76.85 0.999879 -76.85 0.014853 -0.224
8.91800000 0.014839 26.664 0.999880 -76.86 0.999880 -76.86 0.014828 -0.323
8.91810000 0.014814 26.758 0.999880 -76.86 0.999880 -76.86 0.014802 -0.422
8.91820000 0.014788 26.853 0.999880 -76.86 0.999880 -76.86 0.014776 -0.523
8.91830000 0.014762 26.948 0.999881 -76.87 0.999881 -76.87 0.014751 -0.624
8.91840000 0.014736 27.045 0.999881 -76.87 0.999881 -76.87 0.014725 -0.726
8.91850000 0.014711 27.142 0.999881 -76.87 0.999881 -76.87 0.014699 -0.829
8.91860000 0.014685 27.240 0.999882 -76.88 0.999882 -76.88 0.014673 -0.932
8.91870000 0.014659 27.339 0.999882 -76.88 0.999882 -76.88 0.014647 -1.037
8.91880000 0.014632 27.438 0.999882 -76.88 0.999882 -76.88 0.014621 -1.142
8.91890000 0.014606 27.539 0.999883 -76.88 0.999883 -76.88 0.014594 -1.249
8.91900000 0.014580 27.640 0.999883 -76.89 0.999883 -76.89 0.014568 -1.356
8.91910000 0.014554 27.742 0.999883 -76.89 0.999883 -76.89 0.014541 -1.464
8.91920000 0.014527 27.846 0.999884 -76.89 0.999884 -76.89 0.014515 -1.573
8.91930000 0.014501 27.950 0.999884 -76.90 0.999884 -76.90 0.014488 -1.683
8.91940000 0.014474 28.055 0.999884 -76.90 0.999884 -76.90 0.014462 -1.794
8.91950000 0.014447 28.161 0.999885 -76.90 0.999885 -76.90 0.014435 -1.906
8.91960000 0.014421 28.268 0.999885 -76.91 0.999885 -76.91 0.014408 -2.019
8.91970000 0.014394 28.376 0.999885 -76.91 0.999885 -76.91 0.014381 -2.133
8.91980000 0.014367 28.485 0.999886 -76.91 0.999886 -76.91 0.014354 -2.248
8.91990000 0.014340 28.594 0.999886 -76.92 0.999886 -76.92 0.014327 -2.363
8.92000000 0.014313 28.705 0.999887 -76.92 0.999887 -76.92 0.014300 -2.480
8.92010000 0.014285 28.817 0.999887 -76.92 0.999887 -76.92 0.014272 -2.598
8.92020000 0.014258 28.930 0.999887 -76.92 0.999887 -76.92 0.014245 -2.717
8.92030000 0.014231 29.044 0.999888 -76.93 0.999888 -76.93 0.014218 -2.837
8.92040000 0.014203 29.159 0.999888 -76.93 0.999888 -76.93 0.014190 -2.958
8.92050000 0.014176 29.275 0.999888 -76.93 0.999888 -76.93 0.014163 -3.080
8.92060000 0.014148 29.392 0.999889 -76.94 0.999889 -76.94 0.014135 -3.203
8.92070000 0.014121 29.510 0.999889 -76.94 0.999889 -76.94 0.014107 -3.328
8.92080000 0.014093 29.629 0.999889 -76.94 0.999889 -76.94 0.014079 -3.453
8.92090000 0.014065 29.750 0.999890 -76.95 0.999890 -76.95 0.014051 -3.580
8.92100000 0.014037 29.871 0.999890 -76.95 0.999890 -76.95 0.014023 -3.708
8.92110000 0.014009 29.994 0.999890 -76.95 0.999890 -76.95 0.013995 -3.837
8.92120000 0.013981 30.118 0.999891 -76.96 0.999891 -76.96 0.013967 -3.967
8.92130000 0.013953 30.243 0.999891 -76.96 0.999891 -76.96 0.013939 -4.098
8.92140000 0.013925 30.369 0.999891 -76.96 0.999891 -76.96 0.013910 -4.231
8.92150000 0.013896 30.496 0.999892 -76.97 0.999892 -76.97 0.013882 -4.364
8.92160000 0.013868 30.625 0.999892 -76.97 0.999892 -76.97 0.013854 -4.499
8.92170000 0.013840 30.755 0.999892 -76.97 0.999892 -76.97 0.013825 -4.636
8.92180000 0.013811 30.886 0.999893 -76.98 0.999893 -76.98 0.013796 -4.773
8.92190000 0.013783 31.018 0.999893 -76.98 0.999893 -76.98 0.013768 -4.912
8.92200000 0.013754 31.152 0.999893 -76.98 0.999893 -76.98 0.013739 -5.052
8.92210000 0.013725 31.287 0.999894 -76.99 0.999894 -76.99 0.013710 -5.194
8.92220000 0.013696 31.423 0.999894 -76.99 0.999894 -76.99 0.013681 -5.337
8.92230000 0.013667 31.561 0.999895 -76.99 0.999895 -76.99 0.013652 -5.481
8.92240000 0.013638 31.700 0.999895 -77.00 0.999895 -77.00 0.013623 -5.626
8.92250000 0.013609 31.840 0.999895 -77.00 0.999895 -77.00 0.013594 -5.773
8.92260000 0.013580 31.982 0.999896 -77.00 0.999896 -77.00 0.013565 -5.922
8.92270000 0.013551 32.125 0.999896 -77.01 0.999896 -77.01 0.013535 -6.072
8.92280000 0.013522 32.269 0.999896 -77.01 0.999896 -77.01 0.013506 -6.223
8.92290000 0.013492 32.415 0.999897 -77.01 0.999897 -77.01 0.013476 -6.376
8.92300000 0.013463 32.563 0.999897 -77.02 0.999897 -77.02 0.013447 -6.530
8.92310000 0.013433 32.712 0.999897 -77.02 0.999897 -77.02 0.013417 -6.686
8.92320000 0.013404 32.862 0.999898 -77.03 0.999898 -77.03 0.013388 -6.843
8.92330000 0.013374 33.014 0.999898 -77.03 0.999898 -77.03 0.013358 -7.002
8.92340000 0.013345 33.168 0.999898 -77.03 0.999898 -77.03 0.013328 -7.163
8.92350000 0.013315 33.323 0.999899 -77.04 0.999899 -77.04 0.013298 -7.325
8.92360000 0.013285 33.480 0.999899 -77.04 0.999899 -77.04 0.013268 -7.488
8.92370000 0.013255 33.638 0.999899 -77.04 0.999899 -77.04 0.013238 -7.654
8.92380000 0.013225 33.798 0.999900 -77.05 0.999900 -77.05 0.013208 -7.821
8.92390000 0.013195 33.960 0.999900 -77.05 0.999900 -77.05 0.013178 -7.989
8.92400000 0.013165 34.123 0.999900 -77.05 0.999900 -77.05 0.013148 -8.160
8.92410000 0.013135 34.288 0.999901 -77.06 0.999901 -77.06 0.013118 -8.332
8.92420000 0.013105 34.455 0.999901 -77.06 0.999901 -77.06 0.013087 -8.506
8.92430000 0.013075 34.624 0.999901 -77.07 0.999901 -77.07 0.013057 -8.682
8.92440000 0.013045 34.794 0.999902 -77.07 0.999902 -77.07 0.013027 -8.859
8.92450000 0.013014 34.966 0.999902 -77.07 0.999902 -77.07 0.012996 -9.039
8.92460000 0.012984 35.140 0.999902 -77.08 0.999902 -77.08 0.012966 -9.220
8.92470000 0.012953 35.316 0.999903 -77.08 0.999903 -77.08 0.012935 -9.403
8.92480000 0.012923 35.493 0.999903 -77.08 0.999903 -77.08 0.012904 -9.588
8.92490000 0.012892 35.673 0.999903 -77.09 0.999903 -77.09 0.012874 -9.775
8.92500000 0.012862 35.854 0.999904 -77.09 0.999904 -77.09 0.012843 -9.964
8.92510000 0.012831 36.038 0.999904 -77.10 0.999904 -77.10 0.012812 -10.15
8.92520000 0.012801 36.223 0.999904 -77.10 0.999904 -77.10 0.012781 -10.35
8.92530000 0.012770 36.411 0.999905 -77.10 0.999905 -77.10 0.012751 -10.54
8.92540000 0.012739 36.600 0.999905 -77.11 0.999905 -77.11 0.012720 -10.74
8.92550000 0.012708 36.792 0.999905 -77.11 0.999905 -77.11 0.012689 -10.94
8.92560000 0.012678 36.986 0.999906 -77.12 0.999906 -77.12 0.012658 -11.14
8.92570000 0.012647 37.181 0.999906 -77.12 0.999906 -77.12 0.012627 -11.34
8.92580000 0.012616 37.379 0.999906 -77.12 0.999906 -77.12 0.012596 -11.55
