! Sonnet Data File
! From: emgraph Version : 16.52
! From Project: Resonator2_extremeCap2
! Data is De-embedded 
! Data File Written: 10/11/2017 09:28:28
!< HDATE 10/10/2017 20:43:28
!< MDATE 10/10/2017 20:43:28
!< PARAMS
!< Pwid1 = 2000.0
!< Pwid2 = 2000.0
!< Air_gap = 18.0
!< Width = 30.0
!< Gap = 74.0
!< END PARAMS
# GHZ S MA R 43.06000
8.90000000 0.298154 -2.831 0.954511 -89.96 0.954511 -89.96 0.298150 2.9169
!< P1 F=8.9 Eeff=(5.1612639 -2.2548e-5) Z0=(43.0590329 9.5502e-5) R=0.0 C=0.0 
!< P2 F=8.9 Eeff=(5.1612639 -2.2548e-5) Z0=(43.0590329 9.5502e-5) R=0.0 C=0.0 
8.90025000 0.298197 -2.831 0.954497 -89.96 0.954497 -89.96 0.298193 2.9065
8.90050000 0.298240 -2.832 0.954484 -89.97 0.954484 -89.97 0.298235 2.8962
8.90075000 0.298283 -2.832 0.954471 -89.97 0.954471 -89.97 0.298278 2.8858
8.90100000 0.298326 -2.832 0.954457 -89.98 0.954457 -89.98 0.298321 2.8754
8.90125000 0.298369 -2.833 0.954444 -89.98 0.954444 -89.98 0.298365 2.8650
8.90150000 0.298412 -2.833 0.954430 -89.99 0.954430 -89.99 0.298408 2.8546
8.90175000 0.298455 -2.833 0.954417 -89.99 0.954417 -89.99 0.298451 2.8441
8.90200000 0.298499 -2.833 0.954403 -90.00 0.954403 -90.00 0.298494 2.8337
8.90225000 0.298542 -2.834 0.954389 -90.00 0.954389 -90.00 0.298538 2.8232
8.90250000 0.298586 -2.834 0.954376 -90.01 0.954376 -90.01 0.298581 2.8127
8.90275000 0.298629 -2.834 0.954362 -90.02 0.954362 -90.02 0.298625 2.8022
8.90300000 0.298673 -2.834 0.954348 -90.02 0.954348 -90.02 0.298669 2.7916
8.90325000 0.298717 -2.835 0.954335 -90.03 0.954335 -90.03 0.298713 2.7810
8.90350000 0.298761 -2.835 0.954321 -90.03 0.954321 -90.03 0.298756 2.7704
8.90375000 0.298805 -2.835 0.954307 -90.04 0.954307 -90.04 0.298800 2.7598
8.90400000 0.298849 -2.835 0.954293 -90.04 0.954293 -90.04 0.298844 2.7492
8.90425000 0.298893 -2.835 0.954279 -90.05 0.954279 -90.05 0.298889 2.7385
8.90450000 0.298937 -2.836 0.954266 -90.05 0.954266 -90.05 0.298933 2.7278
8.90475000 0.298981 -2.836 0.954252 -90.06 0.954252 -90.06 0.298977 2.7171
8.90500000 0.299026 -2.836 0.954238 -90.06 0.954238 -90.06 0.299022 2.7064
8.90525000 0.299070 -2.836 0.954224 -90.07 0.954224 -90.07 0.299066 2.6957
8.90550000 0.299115 -2.836 0.954210 -90.08 0.954210 -90.08 0.299111 2.6849
8.90575000 0.299160 -2.836 0.954196 -90.08 0.954196 -90.08 0.299155 2.6741
8.90600000 0.299204 -2.836 0.954182 -90.09 0.954182 -90.09 0.299200 2.6633
8.90625000 0.299249 -2.837 0.954168 -90.09 0.954168 -90.09 0.299245 2.6525
8.90650000 0.299294 -2.837 0.954154 -90.10 0.954154 -90.10 0.299290 2.6416
8.90675000 0.299339 -2.837 0.954140 -90.10 0.954140 -90.10 0.299335 2.6308
8.90700000 0.299384 -2.837 0.954125 -90.11 0.954125 -90.11 0.299380 2.6199
8.90725000 0.299430 -2.837 0.954111 -90.11 0.954111 -90.11 0.299425 2.6089
8.90750000 0.299475 -2.837 0.954097 -90.12 0.954097 -90.12 0.299470 2.5980
8.90775000 0.299520 -2.837 0.954083 -90.12 0.954083 -90.12 0.299516 2.5870
8.90800000 0.299566 -2.837 0.954068 -90.13 0.954068 -90.13 0.299561 2.5760
8.90825000 0.299611 -2.837 0.954054 -90.14 0.954054 -90.14 0.299607 2.5650
8.90850000 0.299657 -2.837 0.954040 -90.14 0.954040 -90.14 0.299652 2.5540
8.90875000 0.299703 -2.837 0.954025 -90.15 0.954025 -90.15 0.299698 2.5429
8.90900000 0.299749 -2.837 0.954011 -90.15 0.954011 -90.15 0.299744 2.5319
8.90925000 0.299795 -2.837 0.953996 -90.16 0.953996 -90.16 0.299790 2.5208
8.90950000 0.299841 -2.837 0.953982 -90.16 0.953982 -90.16 0.299836 2.5096
8.90975000 0.299887 -2.838 0.953967 -90.17 0.953967 -90.17 0.299882 2.4985
8.91000000 0.299933 -2.838 0.953953 -90.17 0.953953 -90.17 0.299928 2.4873
8.91025000 0.299979 -2.838 0.953938 -90.18 0.953938 -90.18 0.299975 2.4761
8.91050000 0.300026 -2.838 0.953924 -90.19 0.953924 -90.19 0.300021 2.4649
8.91075000 0.300072 -2.838 0.953909 -90.19 0.953909 -90.19 0.300068 2.4537
8.91100000 0.300119 -2.837 0.953894 -90.20 0.953894 -90.20 0.300114 2.4424
8.91125000 0.300166 -2.837 0.953880 -90.20 0.953880 -90.20 0.300161 2.4311
8.91150000 0.300212 -2.837 0.953865 -90.21 0.953865 -90.21 0.300208 2.4198
8.91175000 0.300259 -2.837 0.953850 -90.21 0.953850 -90.21 0.300255 2.4084
8.91200000 0.300306 -2.837 0.953835 -90.22 0.953835 -90.22 0.300302 2.3971
8.91225000 0.300354 -2.837 0.953821 -90.23 0.953821 -90.23 0.300349 2.3857
8.91250000 0.300401 -2.837 0.953806 -90.23 0.953806 -90.23 0.300396 2.3743
8.91275000 0.300448 -2.837 0.953791 -90.24 0.953791 -90.24 0.300443 2.3628
8.91300000 0.300495 -2.837 0.953776 -90.24 0.953776 -90.24 0.300491 2.3514
8.91325000 0.300543 -2.837 0.953761 -90.25 0.953761 -90.25 0.300538 2.3399
8.91350000 0.300591 -2.837 0.953746 -90.25 0.953746 -90.25 0.300586 2.3284
8.91375000 0.300638 -2.837 0.953731 -90.26 0.953731 -90.26 0.300633 2.3168
8.91400000 0.300686 -2.837 0.953716 -90.27 0.953716 -90.27 0.300681 2.3053
8.91425000 0.300734 -2.836 0.953701 -90.27 0.953701 -90.27 0.300729 2.2937
8.91450000 0.300782 -2.836 0.953685 -90.28 0.953685 -90.28 0.300777 2.2821
8.91475000 0.300830 -2.836 0.953670 -90.28 0.953670 -90.28 0.300825 2.2704
8.91500000 0.300878 -2.836 0.953655 -90.29 0.953655 -90.29 0.300874 2.2588
8.91525000 0.300927 -2.836 0.953640 -90.29 0.953640 -90.29 0.300922 2.2471
8.91550000 0.300975 -2.836 0.953624 -90.30 0.953624 -90.30 0.300970 2.2354
8.91575000 0.301024 -2.835 0.953609 -90.31 0.953609 -90.31 0.301019 2.2236
8.91600000 0.301072 -2.835 0.953594 -90.31 0.953594 -90.31 0.301067 2.2119
8.91625000 0.301121 -2.835 0.953578 -90.32 0.953578 -90.32 0.301116 2.2001
8.91650000 0.301170 -2.835 0.953563 -90.32 0.953563 -90.32 0.301165 2.1883
8.91675000 0.301219 -2.835 0.953547 -90.33 0.953547 -90.33 0.301214 2.1764
8.91700000 0.301268 -2.834 0.953532 -90.33 0.953532 -90.33 0.301263 2.1645
8.91725000 0.301317 -2.834 0.953516 -90.34 0.953516 -90.34 0.301312 2.1526
8.91750000 0.301367 -2.834 0.953501 -90.35 0.953501 -90.35 0.301362 2.1407
8.91775000 0.301416 -2.834 0.953485 -90.35 0.953485 -90.35 0.301411 2.1288
8.91800000 0.301466 -2.833 0.953469 -90.36 0.953469 -90.36 0.301460 2.1168
8.91825000 0.301515 -2.833 0.953454 -90.36 0.953454 -90.36 0.301510 2.1048
8.91850000 0.301565 -2.833 0.953438 -90.37 0.953438 -90.37 0.301560 2.0928
8.91875000 0.301615 -2.833 0.953422 -90.38 0.953422 -90.38 0.301610 2.0807
8.91900000 0.301665 -2.832 0.953406 -90.38 0.953406 -90.38 0.301660 2.0686
8.91925000 0.301715 -2.832 0.953391 -90.39 0.953391 -90.39 0.301710 2.0565
8.91950000 0.301765 -2.832 0.953375 -90.39 0.953375 -90.39 0.301760 2.0444
8.91975000 0.301815 -2.831 0.953359 -90.40 0.953359 -90.40 0.301810 2.0322
8.92000000 0.301866 -2.831 0.953343 -90.40 0.953343 -90.40 0.301861 2.0200
8.92025000 0.301916 -2.831 0.953327 -90.41 0.953327 -90.41 0.301911 2.0078
8.92050000 0.301967 -2.830 0.953311 -90.42 0.953311 -90.42 0.301962 1.9955
8.92075000 0.302018 -2.830 0.953295 -90.42 0.953295 -90.42 0.302012 1.9832
8.92100000 0.302069 -2.829 0.953278 -90.43 0.953278 -90.43 0.302063 1.9709
8.92125000 0.302120 -2.829 0.953262 -90.43 0.953262 -90.43 0.302114 1.9586
8.92150000 0.302171 -2.829 0.953246 -90.44 0.953246 -90.44 0.302165 1.9462
8.92175000 0.302222 -2.828 0.953230 -90.45 0.953230 -90.45 0.302217 1.9338
8.92200000 0.302273 -2.828 0.953214 -90.45 0.953214 -90.45 0.302268 1.9214
8.92225000 0.302325 -2.827 0.953197 -90.46 0.953197 -90.46 0.302319 1.9089
8.92250000 0.302376 -2.827 0.953181 -90.46 0.953181 -90.46 0.302371 1.8965
8.92275000 0.302428 -2.827 0.953164 -90.47 0.953164 -90.47 0.302423 1.8839
8.92300000 0.302480 -2.826 0.953148 -90.48 0.953148 -90.48 0.302475 1.8714
8.92325000 0.302532 -2.826 0.953131 -90.48 0.953131 -90.48 0.302526 1.8588
8.92350000 0.302584 -2.825 0.953115 -90.49 0.953115 -90.49 0.302579 1.8462
8.92375000 0.302636 -2.825 0.953098 -90.50 0.953098 -90.50 0.302631 1.8336
8.92400000 0.302689 -2.824 0.953082 -90.50 0.953082 -90.50 0.302683 1.8209
8.92425000 0.302741 -2.824 0.953065 -90.51 0.953065 -90.51 0.302735 1.8082
8.92450000 0.302794 -2.823 0.953048 -90.51 0.953048 -90.51 0.302788 1.7955
8.92475000 0.302846 -2.823 0.953032 -90.52 0.953032 -90.52 0.302841 1.7828
8.92500000 0.302899 -2.822 0.953015 -90.53 0.953015 -90.53 0.302894 1.7700
8.92525000 0.302952 -2.822 0.952998 -90.53 0.952998 -90.53 0.302946 1.7572
8.92550000 0.303005 -2.821 0.952981 -90.54 0.952981 -90.54 0.303000 1.7443
8.92575000 0.303058 -2.820 0.952964 -90.54 0.952964 -90.54 0.303053 1.7315
8.92600000 0.303112 -2.820 0.952947 -90.55 0.952947 -90.55 0.303106 1.7186
8.92625000 0.303165 -2.819 0.952930 -90.56 0.952930 -90.56 0.303159 1.7056
8.92650000 0.303219 -2.819 0.952913 -90.56 0.952913 -90.56 0.303213 1.6927
8.92675000 0.303273 -2.818 0.952896 -90.57 0.952896 -90.57 0.303267 1.6797
8.92700000 0.303326 -2.817 0.952879 -90.57 0.952879 -90.57 0.303321 1.6666
8.92725000 0.303380 -2.817 0.952862 -90.58 0.952862 -90.58 0.303375 1.6536
8.92750000 0.303435 -2.816 0.952844 -90.59 0.952844 -90.59 0.303429 1.6405
8.92775000 0.303489 -2.816 0.952827 -90.59 0.952827 -90.59 0.303483 1.6274
8.92800000 0.303543 -2.815 0.952810 -90.60 0.952810 -90.60 0.303537 1.6142
8.92825000 0.303598 -2.814 0.952792 -90.61 0.952792 -90.61 0.303592 1.6010
8.92850000 0.303652 -2.813 0.952775 -90.61 0.952775 -90.61 0.303646 1.5878
8.92875000 0.303707 -2.813 0.952757 -90.62 0.952757 -90.62 0.303701 1.5745
8.92900000 0.303762 -2.812 0.952740 -90.62 0.952740 -90.62 0.303756 1.5612
8.92925000 0.303817 -2.811 0.952722 -90.63 0.952722 -90.63 0.303811 1.5479
8.92950000 0.303872 -2.811 0.952705 -90.64 0.952705 -90.64 0.303866 1.5346
8.92975000 0.303928 -2.810 0.952687 -90.64 0.952687 -90.64 0.303922 1.5212
8.93000000 0.303983 -2.809 0.952669 -90.65 0.952669 -90.65 0.303977 1.5078
8.93025000 0.304039 -2.808 0.952652 -90.66 0.952652 -90.66 0.304033 1.4943
8.93050000 0.304095 -2.808 0.952634 -90.66 0.952634 -90.66 0.304089 1.4808
8.93075000 0.304151 -2.807 0.952616 -90.67 0.952616 -90.67 0.304144 1.4673
8.93100000 0.304207 -2.806 0.952598 -90.68 0.952598 -90.68 0.304200 1.4537
8.93125000 0.304263 -2.805 0.952580 -90.68 0.952580 -90.68 0.304257 1.4402
8.93150000 0.304319 -2.804 0.952562 -90.69 0.952562 -90.69 0.304313 1.4265
8.93175000 0.304376 -2.804 0.952544 -90.69 0.952544 -90.69 0.304369 1.4129
8.93200000 0.304432 -2.803 0.952526 -90.70 0.952526 -90.70 0.304426 1.3992
8.93225000 0.304489 -2.802 0.952508 -90.71 0.952508 -90.71 0.304483 1.3854
8.93250000 0.304546 -2.801 0.952489 -90.71 0.952489 -90.71 0.304540 1.3717
8.93275000 0.304603 -2.800 0.952471 -90.72 0.952471 -90.72 0.304597 1.3579
8.93300000 0.304660 -2.799 0.952453 -90.73 0.952453 -90.73 0.304654 1.3441
8.93325000 0.304718 -2.798 0.952434 -90.73 0.952434 -90.73 0.304711 1.3302
8.93350000 0.304775 -2.798 0.952416 -90.74 0.952416 -90.74 0.304769 1.3163
8.93375000 0.304833 -2.797 0.952398 -90.75 0.952398 -90.75 0.304826 1.3023
8.93400000 0.304891 -2.796 0.952379 -90.75 0.952379 -90.75 0.304884 1.2884
8.93425000 0.304949 -2.795 0.952361 -90.76 0.952361 -90.76 0.304942 1.2743
8.93450000 0.305007 -2.794 0.952342 -90.77 0.952342 -90.77 0.305000 1.2603
8.93475000 0.305065 -2.793 0.952323 -90.77 0.952323 -90.77 0.305058 1.2462
8.93500000 0.305123 -2.792 0.952304 -90.78 0.952304 -90.78 0.305117 1.2321
8.93525000 0.305182 -2.791 0.952286 -90.79 0.952286 -90.79 0.305175 1.2179
8.93550000 0.305241 -2.790 0.952267 -90.79 0.952267 -90.79 0.305234 1.2037
8.93575000 0.305300 -2.789 0.952248 -90.80 0.952248 -90.80 0.305293 1.1895
8.93600000 0.305359 -2.788 0.952229 -90.81 0.952229 -90.81 0.305352 1.1752
8.93625000 0.305418 -2.787 0.952210 -90.81 0.952210 -90.81 0.305411 1.1609
8.93650000 0.305477 -2.786 0.952191 -90.82 0.952191 -90.82 0.305470 1.1466
8.93675000 0.305537 -2.785 0.952172 -90.83 0.952172 -90.83 0.305530 1.1322
8.93700000 0.305596 -2.784 0.952153 -90.83 0.952153 -90.83 0.305590 1.1178
8.93725000 0.305656 -2.782 0.952133 -90.84 0.952133 -90.84 0.305649 1.1033
8.93750000 0.305716 -2.781 0.952114 -90.85 0.952114 -90.85 0.305709 1.0888
8.93775000 0.305776 -2.780 0.952095 -90.85 0.952095 -90.85 0.305770 1.0743
8.93800000 0.305837 -2.779 0.952075 -90.86 0.952075 -90.86 0.305830 1.0597
8.93825000 0.305897 -2.778 0.952056 -90.87 0.952056 -90.87 0.305890 1.0451
8.93850000 0.305958 -2.777 0.952036 -90.87 0.952036 -90.87 0.305951 1.0304
8.93875000 0.306019 -2.776 0.952017 -90.88 0.952017 -90.88 0.306012 1.0157
8.93900000 0.306080 -2.774 0.951997 -90.89 0.951997 -90.89 0.306073 1.0010
8.93925000 0.306141 -2.773 0.951978 -90.89 0.951978 -90.89 0.306134 0.9862
8.93950000 0.306202 -2.772 0.951958 -90.90 0.951958 -90.90 0.306195 0.9714
8.93975000 0.306264 -2.771 0.951938 -90.91 0.951938 -90.91 0.306257 0.9565
8.94000000 0.306326 -2.770 0.951918 -90.91 0.951918 -90.91 0.306318 0.9416
8.94025000 0.306387 -2.768 0.951898 -90.92 0.951898 -90.92 0.306380 0.9267
8.94050000 0.306449 -2.767 0.951878 -90.93 0.951878 -90.93 0.306442 0.9117
8.94075000 0.306512 -2.766 0.951858 -90.93 0.951858 -90.93 0.306504 0.8967
8.94100000 0.306574 -2.765 0.951838 -90.94 0.951838 -90.94 0.306567 0.8816
8.94125000 0.306637 -2.763 0.951818 -90.95 0.951818 -90.95 0.306629 0.8665
8.94150000 0.306699 -2.762 0.951798 -90.95 0.951798 -90.95 0.306692 0.8514
8.94175000 0.306762 -2.761 0.951777 -90.96 0.951777 -90.96 0.306755 0.8362
8.94200000 0.306825 -2.759 0.951757 -90.97 0.951757 -90.97 0.306818 0.8210
8.94225000 0.306889 -2.758 0.951737 -90.98 0.951737 -90.98 0.306881 0.8057
8.94250000 0.306952 -2.757 0.951716 -90.98 0.951716 -90.98 0.306945 0.7904
8.94275000 0.307016 -2.755 0.951696 -90.99 0.951696 -90.99 0.307008 0.7750
8.94300000 0.307080 -2.754 0.951675 -91.00 0.951675 -91.00 0.307072 0.7596
8.94325000 0.307144 -2.752 0.951654 -91.00 0.951654 -91.00 0.307136 0.7442
8.94350000 0.307208 -2.751 0.951634 -91.01 0.951634 -91.01 0.307200 0.7287
8.94375000 0.307272 -2.749 0.951613 -91.02 0.951613 -91.02 0.307265 0.7132
8.94400000 0.307337 -2.748 0.951592 -91.02 0.951592 -91.02 0.307329 0.6976
8.94425000 0.307401 -2.747 0.951571 -91.03 0.951571 -91.03 0.307394 0.6820
8.94450000 0.307466 -2.745 0.951550 -91.04 0.951550 -91.04 0.307459 0.6663
8.94475000 0.307531 -2.744 0.951529 -91.05 0.951529 -91.05 0.307524 0.6506
8.94500000 0.307597 -2.742 0.951508 -91.05 0.951508 -91.05 0.307589 0.6349
8.94525000 0.307662 -2.741 0.951487 -91.06 0.951487 -91.06 0.307655 0.6191
8.94550000 0.307728 -2.739 0.951465 -91.07 0.951465 -91.07 0.307720 0.6032
8.94575000 0.307794 -2.737 0.951444 -91.07 0.951444 -91.07 0.307786 0.5873
8.94600000 0.307860 -2.736 0.951423 -91.08 0.951423 -91.08 0.307852 0.5714
8.94625000 0.307926 -2.734 0.951401 -91.09 0.951401 -91.09 0.307919 0.5554
8.94650000 0.307993 -2.733 0.951380 -91.10 0.951380 -91.10 0.307985 0.5394
8.94675000 0.308060 -2.731 0.951358 -91.10 0.951358 -91.10 0.308052 0.5233
8.94700000 0.308126 -2.729 0.951336 -91.11 0.951336 -91.11 0.308119 0.5072
8.94725000 0.308194 -2.728 0.951315 -91.12 0.951315 -91.12 0.308186 0.4910
8.94750000 0.308261 -2.726 0.951293 -91.12 0.951293 -91.12 0.308253 0.4748
8.94775000 0.308328 -2.725 0.951271 -91.13 0.951271 -91.13 0.308320 0.4586
8.94800000 0.308396 -2.723 0.951249 -91.14 0.951249 -91.14 0.308388 0.4422
8.94825000 0.308464 -2.721 0.951227 -91.15 0.951227 -91.15 0.308456 0.4259
8.94850000 0.308532 -2.719 0.951205 -91.15 0.951205 -91.15 0.308524 0.4095
8.94875000 0.308600 -2.718 0.951182 -91.16 0.951182 -91.16 0.308592 0.3930
8.94900000 0.308669 -2.716 0.951160 -91.17 0.951160 -91.17 0.308661 0.3765
8.94925000 0.308738 -2.714 0.951138 -91.18 0.951138 -91.18 0.308730 0.3600
8.94950000 0.308807 -2.712 0.951115 -91.18 0.951115 -91.18 0.308799 0.3434
8.94975000 0.308876 -2.711 0.951093 -91.19 0.951093 -91.19 0.308868 0.3267
8.95000000 0.308945 -2.709 0.951070 -91.20 0.951070 -91.20 0.308937 0.3100
8.95025000 0.309015 -2.707 0.951048 -91.21 0.951048 -91.21 0.309007 0.2933
8.95050000 0.309085 -2.705 0.951025 -91.21 0.951025 -91.21 0.309076 0.2765
8.95075000 0.309155 -2.703 0.951002 -91.22 0.951002 -91.22 0.309146 0.2596
8.95100000 0.309225 -2.701 0.950979 -91.23 0.950979 -91.23 0.309217 0.2427
8.95125000 0.309296 -2.699 0.950956 -91.24 0.950956 -91.24 0.309287 0.2257
8.95150000 0.309366 -2.698 0.950933 -91.24 0.950933 -91.24 0.309358 0.2087
8.95175000 0.309437 -2.696 0.950910 -91.25 0.950910 -91.25 0.309429 0.1917
8.95200000 0.309508 -2.694 0.950887 -91.26 0.950887 -91.26 0.309500 0.1746
8.95225000 0.309580 -2.692 0.950864 -91.27 0.950864 -91.27 0.309571 0.1574
8.95250000 0.309651 -2.690 0.950841 -91.27 0.950841 -91.27 0.309643 0.1402
8.95275000 0.309723 -2.688 0.950817 -91.28 0.950817 -91.28 0.309715 0.1229
8.95300000 0.309795 -2.686 0.950794 -91.29 0.950794 -91.29 0.309787 0.1056
8.95325000 0.309868 -2.684 0.950770 -91.30 0.950770 -91.30 0.309859 0.0882
8.95350000 0.309940 -2.682 0.950746 -91.30 0.950746 -91.30 0.309931 0.0708
8.95375000 0.310013 -2.680 0.950723 -91.31 0.950723 -91.31 0.310004 0.0533
8.95400000 0.310086 -2.678 0.950699 -91.32 0.950699 -91.32 0.310077 0.0358
8.95425000 0.310159 -2.676 0.950675 -91.33 0.950675 -91.33 0.310150 0.0182
8.95450000 0.310233 -2.673 0.950651 -91.34 0.950651 -91.34 0.310224 5.4e-4
8.95475000 0.310306 -2.671 0.950627 -91.34 0.950627 -91.34 0.310297 -0.017
8.95500000 0.310380 -2.669 0.950603 -91.35 0.950603 -91.35 0.310371 -0.035
8.95525000 0.310455 -2.667 0.950578 -91.36 0.950578 -91.36 0.310446 -0.053
8.95550000 0.310529 -2.665 0.950554 -91.37 0.950554 -91.37 0.310520 -0.071
8.95575000 0.310604 -2.663 0.950530 -91.37 0.950530 -91.37 0.310595 -0.089
8.95600000 0.310679 -2.660 0.950505 -91.38 0.950505 -91.38 0.310670 -0.107
8.95625000 0.310754 -2.658 0.950480 -91.39 0.950480 -91.39 0.310745 -0.125
8.95650000 0.310829 -2.656 0.950456 -91.40 0.950456 -91.40 0.310820 -0.143
8.95675000 0.310905 -2.654 0.950431 -91.41 0.950431 -91.41 0.310896 -0.161
8.95700000 0.310981 -2.651 0.950406 -91.41 0.950406 -91.41 0.310972 -0.179
8.95725000 0.311057 -2.649 0.950381 -91.42 0.950381 -91.42 0.311048 -0.197
8.95750000 0.311134 -2.647 0.950356 -91.43 0.950356 -91.43 0.311124 -0.216
8.95775000 0.311210 -2.644 0.950331 -91.44 0.950331 -91.44 0.311201 -0.234
8.95800000 0.311287 -2.642 0.950306 -91.45 0.950306 -91.45 0.311278 -0.252
8.95825000 0.311365 -2.640 0.950280 -91.45 0.950280 -91.45 0.311355 -0.271
8.95850000 0.311442 -2.637 0.950255 -91.46 0.950255 -91.46 0.311433 -0.290
8.95875000 0.311520 -2.635 0.950229 -91.47 0.950229 -91.47 0.311511 -0.308
8.95900000 0.311598 -2.632 0.950204 -91.48 0.950204 -91.48 0.311589 -0.327
8.95925000 0.311676 -2.630 0.950178 -91.49 0.950178 -91.49 0.311667 -0.346
8.95950000 0.311755 -2.628 0.950152 -91.50 0.950152 -91.50 0.311745 -0.364
8.95975000 0.311834 -2.625 0.950126 -91.50 0.950126 -91.50 0.311824 -0.383
8.96000000 0.311913 -2.623 0.950100 -91.51 0.950100 -91.51 0.311903 -0.402
8.96025000 0.311992 -2.620 0.950074 -91.52 0.950074 -91.52 0.311983 -0.421
8.96050000 0.312072 -2.617 0.950048 -91.53 0.950048 -91.53 0.312062 -0.440
8.96075000 0.312152 -2.615 0.950022 -91.54 0.950022 -91.54 0.312142 -0.459
8.96100000 0.312232 -2.612 0.949995 -91.54 0.949995 -91.54 0.312223 -0.479
8.96125000 0.312313 -2.610 0.949969 -91.55 0.949969 -91.55 0.312303 -0.498
8.96150000 0.312394 -2.607 0.949942 -91.56 0.949942 -91.56 0.312384 -0.517
8.96175000 0.312475 -2.604 0.949916 -91.57 0.949916 -91.57 0.312465 -0.537
8.96200000 0.312556 -2.602 0.949889 -91.58 0.949889 -91.58 0.312546 -0.556
8.96225000 0.312638 -2.599 0.949862 -91.59 0.949862 -91.59 0.312628 -0.576
8.96250000 0.312720 -2.596 0.949835 -91.59 0.949835 -91.59 0.312710 -0.595
8.96275000 0.312802 -2.594 0.949808 -91.60 0.949808 -91.60 0.312792 -0.615
8.96300000 0.312885 -2.591 0.949780 -91.61 0.949780 -91.61 0.312875 -0.635
8.96325000 0.312968 -2.588 0.949753 -91.62 0.949753 -91.62 0.312957 -0.654
8.96350000 0.313051 -2.585 0.949726 -91.63 0.949726 -91.63 0.313041 -0.674
8.96375000 0.313134 -2.583 0.949698 -91.64 0.949698 -91.64 0.313124 -0.694
8.96400000 0.313218 -2.580 0.949670 -91.65 0.949670 -91.65 0.313208 -0.714
8.96425000 0.313302 -2.577 0.949643 -91.65 0.949643 -91.65 0.313292 -0.734
8.96450000 0.313387 -2.574 0.949615 -91.66 0.949615 -91.66 0.313376 -0.754
8.96475000 0.313471 -2.571 0.949587 -91.67 0.949587 -91.67 0.313461 -0.774
