! Sonnet Data File
! From: emgraph Version : 16.52
! From Project: Resonator2_cp_varyW
! Data is De-embedded 
! Data File Written: 10/09/2017 07:41:30
!< HDATE 10/08/2017 22:10:33
!< MDATE 10/08/2017 22:10:33
!< PARAMS
!< Length = 400.0
!< Pwid1 = 2000.0
!< Pwid2 = 2000.0
!< Air_gap = 18.0
!< Width = 30.0
!< gap = 26.0
!< END PARAMS
# GHZ S MA R 43.05000
8.90000000 0.016372 16.780 0.999861 -74.40 0.999861 -74.40 0.016370 14.443
!< P1 F=8.9 Eeff=(5.1612639 -2.2548e-5) Z0=(43.0590329 9.5502e-5) R=0.0 C=0.0 
!< P2 F=8.9 Eeff=(5.1612639 -2.2548e-5) Z0=(43.0590329 9.5502e-5) R=0.0 C=0.0 
8.90010000 0.016364 16.800 0.999861 -74.40 0.999861 -74.40 0.016362 14.421
8.90020000 0.016356 16.819 0.999861 -74.40 0.999861 -74.40 0.016354 14.398
8.90030000 0.016348 16.839 0.999861 -74.41 0.999861 -74.41 0.016345 14.376
8.90040000 0.016340 16.858 0.999862 -74.41 0.999862 -74.41 0.016337 14.354
8.90050000 0.016331 16.878 0.999862 -74.41 0.999862 -74.41 0.016329 14.331
8.90060000 0.016323 16.898 0.999862 -74.41 0.999862 -74.41 0.016320 14.309
8.90070000 0.016315 16.917 0.999862 -74.41 0.999862 -74.41 0.016312 14.286
8.90080000 0.016306 16.937 0.999862 -74.41 0.999862 -74.41 0.016304 14.263
8.90090000 0.016298 16.957 0.999862 -74.41 0.999862 -74.41 0.016295 14.240
8.90100000 0.016289 16.978 0.999862 -74.42 0.999862 -74.42 0.016287 14.217
8.90110000 0.016281 16.998 0.999862 -74.42 0.999862 -74.42 0.016278 14.194
8.90120000 0.016273 17.018 0.999863 -74.42 0.999863 -74.42 0.016270 14.171
8.90130000 0.016264 17.039 0.999863 -74.42 0.999863 -74.42 0.016261 14.147
8.90140000 0.016255 17.059 0.999863 -74.42 0.999863 -74.42 0.016253 14.124
8.90150000 0.016247 17.080 0.999863 -74.42 0.999863 -74.42 0.016244 14.101
8.90160000 0.016238 17.101 0.999863 -74.42 0.999863 -74.42 0.016236 14.077
8.90170000 0.016230 17.121 0.999863 -74.43 0.999863 -74.43 0.016227 14.053
8.90180000 0.016221 17.142 0.999863 -74.43 0.999863 -74.43 0.016218 14.029
8.90190000 0.016212 17.163 0.999863 -74.43 0.999863 -74.43 0.016210 14.005
8.90200000 0.016204 17.185 0.999864 -74.43 0.999864 -74.43 0.016201 13.981
8.90210000 0.016195 17.206 0.999864 -74.43 0.999864 -74.43 0.016192 13.957
8.90220000 0.016186 17.227 0.999864 -74.43 0.999864 -74.43 0.016183 13.933
8.90230000 0.016177 17.249 0.999864 -74.44 0.999864 -74.44 0.016175 13.909
8.90240000 0.016169 17.270 0.999864 -74.44 0.999864 -74.44 0.016166 13.884
8.90250000 0.016160 17.292 0.999864 -74.44 0.999864 -74.44 0.016157 13.860
8.90260000 0.016151 17.314 0.999864 -74.44 0.999864 -74.44 0.016148 13.835
8.90270000 0.016142 17.336 0.999865 -74.44 0.999865 -74.44 0.016139 13.810
8.90280000 0.016133 17.358 0.999865 -74.44 0.999865 -74.44 0.016130 13.785
8.90290000 0.016124 17.380 0.999865 -74.44 0.999865 -74.44 0.016121 13.760
8.90300000 0.016115 17.402 0.999865 -74.45 0.999865 -74.45 0.016112 13.735
8.90310000 0.016106 17.424 0.999865 -74.45 0.999865 -74.45 0.016103 13.710
8.90320000 0.016097 17.447 0.999865 -74.45 0.999865 -74.45 0.016094 13.684
8.90330000 0.016088 17.469 0.999865 -74.45 0.999865 -74.45 0.016085 13.659
8.90340000 0.016079 17.492 0.999865 -74.45 0.999865 -74.45 0.016076 13.633
8.90350000 0.016070 17.515 0.999866 -74.45 0.999866 -74.45 0.016067 13.608
8.90360000 0.016061 17.537 0.999866 -74.45 0.999866 -74.45 0.016058 13.582
8.90370000 0.016051 17.560 0.999866 -74.46 0.999866 -74.46 0.016048 13.556
8.90380000 0.016042 17.583 0.999866 -74.46 0.999866 -74.46 0.016039 13.530
8.90390000 0.016033 17.607 0.999866 -74.46 0.999866 -74.46 0.016030 13.504
8.90400000 0.016024 17.630 0.999866 -74.46 0.999866 -74.46 0.016021 13.477
8.90410000 0.016014 17.653 0.999866 -74.46 0.999866 -74.46 0.016011 13.451
8.90420000 0.016005 17.677 0.999867 -74.46 0.999867 -74.46 0.016002 13.424
8.90430000 0.015996 17.701 0.999867 -74.47 0.999867 -74.47 0.015993 13.398
8.90440000 0.015986 17.725 0.999867 -74.47 0.999867 -74.47 0.015983 13.371
8.90450000 0.015977 17.748 0.999867 -74.47 0.999867 -74.47 0.015974 13.344
8.90460000 0.015967 17.773 0.999867 -74.47 0.999867 -74.47 0.015964 13.317
8.90470000 0.015958 17.797 0.999867 -74.47 0.999867 -74.47 0.015955 13.290
8.90480000 0.015948 17.821 0.999867 -74.47 0.999867 -74.47 0.015945 13.262
8.90490000 0.015939 17.845 0.999868 -74.47 0.999868 -74.47 0.015936 13.235
8.90500000 0.015929 17.870 0.999868 -74.48 0.999868 -74.48 0.015926 13.207
8.90510000 0.015919 17.895 0.999868 -74.48 0.999868 -74.48 0.015916 13.180
8.90520000 0.015910 17.920 0.999868 -74.48 0.999868 -74.48 0.015907 13.152
8.90530000 0.015900 17.944 0.999868 -74.48 0.999868 -74.48 0.015897 13.124
8.90540000 0.015890 17.970 0.999868 -74.48 0.999868 -74.48 0.015887 13.096
8.90550000 0.015881 17.995 0.999868 -74.48 0.999868 -74.48 0.015877 13.067
8.90560000 0.015871 18.020 0.999869 -74.49 0.999869 -74.49 0.015868 13.039
8.90570000 0.015861 18.045 0.999869 -74.49 0.999869 -74.49 0.015858 13.011
8.90580000 0.015851 18.071 0.999869 -74.49 0.999869 -74.49 0.015848 12.982
8.90590000 0.015841 18.097 0.999869 -74.49 0.999869 -74.49 0.015838 12.953
8.90600000 0.015831 18.123 0.999869 -74.49 0.999869 -74.49 0.015828 12.924
8.90610000 0.015821 18.149 0.999869 -74.49 0.999869 -74.49 0.015818 12.895
8.90620000 0.015811 18.175 0.999869 -74.49 0.999869 -74.49 0.015808 12.866
8.90630000 0.015801 18.201 0.999870 -74.50 0.999870 -74.50 0.015798 12.837
8.90640000 0.015791 18.228 0.999870 -74.50 0.999870 -74.50 0.015788 12.807
8.90650000 0.015781 18.254 0.999870 -74.50 0.999870 -74.50 0.015778 12.777
8.90660000 0.015771 18.281 0.999870 -74.50 0.999870 -74.50 0.015768 12.748
8.90670000 0.015761 18.308 0.999870 -74.50 0.999870 -74.50 0.015757 12.718
8.90680000 0.015751 18.335 0.999870 -74.50 0.999870 -74.50 0.015747 12.688
8.90690000 0.015740 18.362 0.999870 -74.51 0.999870 -74.51 0.015737 12.657
8.90700000 0.015730 18.389 0.999871 -74.51 0.999871 -74.51 0.015727 12.627
8.90710000 0.015720 18.416 0.999871 -74.51 0.999871 -74.51 0.015716 12.596
8.90720000 0.015709 18.444 0.999871 -74.51 0.999871 -74.51 0.015706 12.566
8.90730000 0.015699 18.472 0.999871 -74.51 0.999871 -74.51 0.015695 12.535
8.90740000 0.015689 18.500 0.999871 -74.51 0.999871 -74.51 0.015685 12.504
8.90750000 0.015678 18.528 0.999871 -74.52 0.999871 -74.52 0.015675 12.473
8.90760000 0.015668 18.556 0.999872 -74.52 0.999872 -74.52 0.015664 12.441
8.90770000 0.015657 18.584 0.999872 -74.52 0.999872 -74.52 0.015654 12.410
8.90780000 0.015647 18.613 0.999872 -74.52 0.999872 -74.52 0.015643 12.378
8.90790000 0.015636 18.641 0.999872 -74.52 0.999872 -74.52 0.015632 12.346
8.90800000 0.015625 18.670 0.999872 -74.52 0.999872 -74.52 0.015622 12.314
8.90810000 0.015615 18.699 0.999872 -74.53 0.999872 -74.53 0.015611 12.282
8.90820000 0.015604 18.728 0.999872 -74.53 0.999872 -74.53 0.015600 12.250
8.90830000 0.015593 18.757 0.999873 -74.53 0.999873 -74.53 0.015589 12.217
8.90840000 0.015582 18.787 0.999873 -74.53 0.999873 -74.53 0.015579 12.185
8.90850000 0.015572 18.816 0.999873 -74.53 0.999873 -74.53 0.015568 12.152
8.90860000 0.015561 18.846 0.999873 -74.53 0.999873 -74.53 0.015557 12.119
8.90870000 0.015550 18.876 0.999873 -74.54 0.999873 -74.54 0.015546 12.086
8.90880000 0.015539 18.906 0.999873 -74.54 0.999873 -74.54 0.015535 12.053
8.90890000 0.015528 18.936 0.999874 -74.54 0.999874 -74.54 0.015524 12.019
8.90900000 0.015517 18.967 0.999874 -74.54 0.999874 -74.54 0.015513 11.985
8.90910000 0.015506 18.998 0.999874 -74.54 0.999874 -74.54 0.015502 11.952
8.90920000 0.015495 19.028 0.999874 -74.54 0.999874 -74.54 0.015491 11.917
8.90930000 0.015483 19.059 0.999874 -74.55 0.999874 -74.55 0.015480 11.883
8.90940000 0.015472 19.090 0.999874 -74.55 0.999874 -74.55 0.015468 11.849
8.90950000 0.015461 19.122 0.999874 -74.55 0.999874 -74.55 0.015457 11.814
8.90960000 0.015450 19.153 0.999875 -74.55 0.999875 -74.55 0.015446 11.780
8.90970000 0.015439 19.185 0.999875 -74.55 0.999875 -74.55 0.015435 11.745
8.90980000 0.015427 19.217 0.999875 -74.55 0.999875 -74.55 0.015423 11.709
8.90990000 0.015416 19.249 0.999875 -74.56 0.999875 -74.56 0.015412 11.674
8.91000000 0.015404 19.281 0.999875 -74.56 0.999875 -74.56 0.015400 11.639
8.91010000 0.015393 19.314 0.999875 -74.56 0.999875 -74.56 0.015389 11.603
8.91020000 0.015381 19.346 0.999876 -74.56 0.999876 -74.56 0.015377 11.567
8.91030000 0.015370 19.379 0.999876 -74.56 0.999876 -74.56 0.015366 11.531
8.91040000 0.015358 19.412 0.999876 -74.56 0.999876 -74.56 0.015354 11.495
8.91050000 0.015347 19.445 0.999876 -74.57 0.999876 -74.57 0.015342 11.458
8.91060000 0.015335 19.478 0.999876 -74.57 0.999876 -74.57 0.015331 11.421
8.91070000 0.015323 19.512 0.999876 -74.57 0.999876 -74.57 0.015319 11.384
8.91080000 0.015311 19.546 0.999877 -74.57 0.999877 -74.57 0.015307 11.347
8.91090000 0.015300 19.580 0.999877 -74.57 0.999877 -74.57 0.015295 11.310
8.91100000 0.015288 19.614 0.999877 -74.57 0.999877 -74.57 0.015283 11.272
8.91110000 0.015276 19.648 0.999877 -74.58 0.999877 -74.58 0.015272 11.235
8.91120000 0.015264 19.683 0.999877 -74.58 0.999877 -74.58 0.015260 11.197
8.91130000 0.015252 19.718 0.999877 -74.58 0.999877 -74.58 0.015248 11.159
8.91140000 0.015240 19.753 0.999878 -74.58 0.999878 -74.58 0.015236 11.120
8.91150000 0.015228 19.788 0.999878 -74.58 0.999878 -74.58 0.015223 11.082
8.91160000 0.015216 19.823 0.999878 -74.58 0.999878 -74.58 0.015211 11.043
8.91170000 0.015204 19.859 0.999878 -74.59 0.999878 -74.59 0.015199 11.004
8.91180000 0.015191 19.895 0.999878 -74.59 0.999878 -74.59 0.015187 10.965
8.91190000 0.015179 19.931 0.999878 -74.59 0.999878 -74.59 0.015175 10.925
8.91200000 0.015167 19.967 0.999879 -74.59 0.999879 -74.59 0.015162 10.885
8.91210000 0.015155 20.004 0.999879 -74.59 0.999879 -74.59 0.015150 10.845
8.91220000 0.015142 20.040 0.999879 -74.59 0.999879 -74.59 0.015138 10.805
8.91230000 0.015130 20.077 0.999879 -74.60 0.999879 -74.60 0.015125 10.765
8.91240000 0.015117 20.114 0.999879 -74.60 0.999879 -74.60 0.015113 10.724
8.91250000 0.015105 20.152 0.999880 -74.60 0.999880 -74.60 0.015100 10.683
8.91260000 0.015092 20.189 0.999880 -74.60 0.999880 -74.60 0.015087 10.642
8.91270000 0.015080 20.227 0.999880 -74.60 0.999880 -74.60 0.015075 10.601
8.91280000 0.015067 20.265 0.999880 -74.61 0.999880 -74.61 0.015062 10.559
8.91290000 0.015054 20.304 0.999880 -74.61 0.999880 -74.61 0.015049 10.517
8.91300000 0.015041 20.342 0.999880 -74.61 0.999880 -74.61 0.015037 10.475
8.91310000 0.015029 20.381 0.999881 -74.61 0.999881 -74.61 0.015024 10.433
8.91320000 0.015016 20.420 0.999881 -74.61 0.999881 -74.61 0.015011 10.390
8.91330000 0.015003 20.460 0.999881 -74.61 0.999881 -74.61 0.014998 10.348
8.91340000 0.014990 20.499 0.999881 -74.62 0.999881 -74.62 0.014985 10.305
8.91350000 0.014977 20.539 0.999881 -74.62 0.999881 -74.62 0.014972 10.261
8.91360000 0.014964 20.579 0.999881 -74.62 0.999881 -74.62 0.014959 10.218
8.91370000 0.014951 20.619 0.999882 -74.62 0.999882 -74.62 0.014946 10.174
8.91380000 0.014938 20.660 0.999882 -74.62 0.999882 -74.62 0.014933 10.130
8.91390000 0.014924 20.701 0.999882 -74.63 0.999882 -74.63 0.014919 10.085
8.91400000 0.014911 20.742 0.999882 -74.63 0.999882 -74.63 0.014906 10.040
8.91410000 0.014898 20.783 0.999882 -74.63 0.999882 -74.63 0.014893 9.9955
8.91420000 0.014884 20.825 0.999883 -74.63 0.999883 -74.63 0.014879 9.9503
8.91430000 0.014871 20.867 0.999883 -74.63 0.999883 -74.63 0.014866 9.9048
8.91440000 0.014858 20.909 0.999883 -74.63 0.999883 -74.63 0.014852 9.8590
8.91450000 0.014844 20.951 0.999883 -74.64 0.999883 -74.64 0.014839 9.8129
8.91460000 0.014830 20.994 0.999883 -74.64 0.999883 -74.64 0.014825 9.7666
8.91470000 0.014817 21.037 0.999883 -74.64 0.999883 -74.64 0.014812 9.7199
8.91480000 0.014803 21.080 0.999884 -74.64 0.999884 -74.64 0.014798 9.6730
8.91490000 0.014789 21.124 0.999884 -74.64 0.999884 -74.64 0.014784 9.6258
8.91500000 0.014776 21.168 0.999884 -74.65 0.999884 -74.65 0.014770 9.5783
8.91510000 0.014762 21.212 0.999884 -74.65 0.999884 -74.65 0.014756 9.5305
8.91520000 0.014748 21.256 0.999884 -74.65 0.999884 -74.65 0.014743 9.4823
8.91530000 0.014734 21.301 0.999885 -74.65 0.999885 -74.65 0.014729 9.4339
8.91540000 0.014720 21.346 0.999885 -74.65 0.999885 -74.65 0.014715 9.3852
8.91550000 0.014706 21.391 0.999885 -74.66 0.999885 -74.66 0.014701 9.3361
8.91560000 0.014692 21.437 0.999885 -74.66 0.999885 -74.66 0.014686 9.2868
8.91570000 0.014678 21.483 0.999885 -74.66 0.999885 -74.66 0.014672 9.2371
8.91580000 0.014664 21.529 0.999885 -74.66 0.999885 -74.66 0.014658 9.1871
8.91590000 0.014649 21.576 0.999886 -74.66 0.999886 -74.66 0.014644 9.1368
8.91600000 0.014635 21.623 0.999886 -74.67 0.999886 -74.67 0.014629 9.0862
8.91610000 0.014621 21.670 0.999886 -74.67 0.999886 -74.67 0.014615 9.0352
8.91620000 0.014606 21.717 0.999886 -74.67 0.999886 -74.67 0.014601 8.9839
8.91630000 0.014592 21.765 0.999886 -74.67 0.999886 -74.67 0.014586 8.9323
8.91640000 0.014577 21.813 0.999887 -74.67 0.999887 -74.67 0.014571 8.8803
8.91650000 0.014563 21.862 0.999887 -74.68 0.999887 -74.68 0.014557 8.8280
8.91660000 0.014548 21.911 0.999887 -74.68 0.999887 -74.68 0.014542 8.7754
8.91670000 0.014533 21.960 0.999887 -74.68 0.999887 -74.68 0.014527 8.7224
8.91680000 0.014518 22.009 0.999887 -74.68 0.999887 -74.68 0.014513 8.6690
8.91690000 0.014504 22.059 0.999888 -74.68 0.999888 -74.68 0.014498 8.6153
8.91700000 0.014489 22.109 0.999888 -74.69 0.999888 -74.69 0.014483 8.5612
8.91710000 0.014474 22.160 0.999888 -74.69 0.999888 -74.69 0.014468 8.5068
8.91720000 0.014459 22.211 0.999888 -74.69 0.999888 -74.69 0.014453 8.4520
8.91730000 0.014444 22.262 0.999888 -74.69 0.999888 -74.69 0.014438 8.3968
8.91740000 0.014429 22.314 0.999889 -74.69 0.999889 -74.69 0.014422 8.3413
8.91750000 0.014413 22.366 0.999889 -74.70 0.999889 -74.70 0.014407 8.2854
8.91760000 0.014398 22.418 0.999889 -74.70 0.999889 -74.70 0.014392 8.2291
8.91770000 0.014383 22.471 0.999889 -74.70 0.999889 -74.70 0.014377 8.1724
8.91780000 0.014368 22.524 0.999889 -74.70 0.999889 -74.70 0.014361 8.1153
8.91790000 0.014352 22.578 0.999890 -74.70 0.999890 -74.70 0.014346 8.0578
8.91800000 0.014337 22.632 0.999890 -74.71 0.999890 -74.71 0.014330 8.0000
8.91810000 0.014321 22.686 0.999890 -74.71 0.999890 -74.71 0.014315 7.9417
8.91820000 0.014305 22.741 0.999890 -74.71 0.999890 -74.71 0.014299 7.8830
8.91830000 0.014290 22.796 0.999890 -74.71 0.999890 -74.71 0.014283 7.8240
8.91840000 0.014274 22.851 0.999891 -74.71 0.999891 -74.71 0.014268 7.7645
8.91850000 0.014258 22.907 0.999891 -74.72 0.999891 -74.72 0.014252 7.7046
8.91860000 0.014242 22.963 0.999891 -74.72 0.999891 -74.72 0.014236 7.6442
8.91870000 0.014226 23.020 0.999891 -74.72 0.999891 -74.72 0.014220 7.5835
8.91880000 0.014210 23.077 0.999891 -74.72 0.999891 -74.72 0.014204 7.5223
8.91890000 0.014194 23.135 0.999892 -74.72 0.999892 -74.72 0.014188 7.4607
8.91900000 0.014178 23.193 0.999892 -74.73 0.999892 -74.73 0.014172 7.3986
8.91910000 0.014162 23.251 0.999892 -74.73 0.999892 -74.73 0.014155 7.3361
8.91920000 0.014146 23.310 0.999892 -74.73 0.999892 -74.73 0.014139 7.2731
8.91930000 0.014130 23.369 0.999892 -74.73 0.999892 -74.73 0.014123 7.2097
8.91940000 0.014113 23.429 0.999893 -74.73 0.999893 -74.73 0.014106 7.1459
8.91950000 0.014097 23.489 0.999893 -74.74 0.999893 -74.74 0.014090 7.0815
8.91960000 0.014080 23.550 0.999893 -74.74 0.999893 -74.74 0.014073 7.0167
8.91970000 0.014064 23.611 0.999893 -74.74 0.999893 -74.74 0.014057 6.9514
8.91980000 0.014047 23.673 0.999893 -74.74 0.999893 -74.74 0.014040 6.8857
8.91990000 0.014030 23.735 0.999894 -74.75 0.999894 -74.75 0.014023 6.8194
8.92000000 0.014014 23.797 0.999894 -74.75 0.999894 -74.75 0.014006 6.7527
8.92010000 0.013997 23.860 0.999894 -74.75 0.999894 -74.75 0.013989 6.6855
8.92020000 0.013980 23.924 0.999894 -74.75 0.999894 -74.75 0.013972 6.6178
8.92030000 0.013963 23.988 0.999895 -74.75 0.999895 -74.75 0.013955 6.5495
8.92040000 0.013946 24.052 0.999895 -74.76 0.999895 -74.76 0.013938 6.4808
8.92050000 0.013929 24.117 0.999895 -74.76 0.999895 -74.76 0.013921 6.4115
8.92060000 0.013911 24.183 0.999895 -74.76 0.999895 -74.76 0.013904 6.3418
8.92070000 0.013894 24.249 0.999895 -74.76 0.999895 -74.76 0.013887 6.2714
8.92080000 0.013877 24.316 0.999896 -74.77 0.999896 -74.77 0.013869 6.2006
8.92090000 0.013859 24.383 0.999896 -74.77 0.999896 -74.77 0.013852 6.1292
8.92100000 0.013842 24.450 0.999896 -74.77 0.999896 -74.77 0.013834 6.0573
8.92110000 0.013824 24.518 0.999896 -74.77 0.999896 -74.77 0.013817 5.9848
8.92120000 0.013807 24.587 0.999896 -74.77 0.999896 -74.77 0.013799 5.9118
8.92130000 0.013789 24.656 0.999897 -74.78 0.999897 -74.78 0.013781 5.8382
8.92140000 0.013771 24.726 0.999897 -74.78 0.999897 -74.78 0.013763 5.7640
8.92150000 0.013753 24.797 0.999897 -74.78 0.999897 -74.78 0.013745 5.6892
8.92160000 0.013736 24.868 0.999897 -74.78 0.999897 -74.78 0.013728 5.6139
8.92170000 0.013718 24.939 0.999898 -74.79 0.999898 -74.79 0.013709 5.5379
8.92180000 0.013700 25.011 0.999898 -74.79 0.999898 -74.79 0.013691 5.4614
8.92190000 0.013681 25.084 0.999898 -74.79 0.999898 -74.79 0.013673 5.3843
8.92200000 0.013663 25.157 0.999898 -74.79 0.999898 -74.79 0.013655 5.3065
8.92210000 0.013645 25.231 0.999898 -74.80 0.999898 -74.80 0.013637 5.2281
8.92220000 0.013627 25.306 0.999899 -74.80 0.999899 -74.80 0.013618 5.1491
8.92230000 0.013608 25.381 0.999899 -74.80 0.999899 -74.80 0.013600 5.0695
8.92240000 0.013590 25.456 0.999899 -74.80 0.999899 -74.80 0.013581 4.9892
8.92250000 0.013571 25.533 0.999899 -74.80 0.999899 -74.80 0.013563 4.9083
8.92260000 0.013552 25.610 0.999900 -74.81 0.999900 -74.81 0.013544 4.8267
8.92270000 0.013534 25.688 0.999900 -74.81 0.999900 -74.81 0.013525 4.7445
8.92280000 0.013515 25.766 0.999900 -74.81 0.999900 -74.81 0.013506 4.6616
8.92290000 0.013496 25.845 0.999900 -74.81 0.999900 -74.81 0.013487 4.5780
8.92300000 0.013477 25.925 0.999900 -74.82 0.999900 -74.82 0.013468 4.4937
8.92310000 0.013458 26.005 0.999901 -74.82 0.999901 -74.82 0.013449 4.4087
8.92320000 0.013439 26.086 0.999901 -74.82 0.999901 -74.82 0.013430 4.3230
8.92330000 0.013420 26.168 0.999901 -74.82 0.999901 -74.82 0.013411 4.2366
8.92340000 0.013400 26.250 0.999901 -74.83 0.999901 -74.83 0.013391 4.1495
8.92350000 0.013381 26.333 0.999902 -74.83 0.999902 -74.83 0.013372 4.0616
8.92360000 0.013362 26.417 0.999902 -74.83 0.999902 -74.83 0.013352 3.9730
8.92370000 0.013342 26.502 0.999902 -74.83 0.999902 -74.83 0.013333 3.8837
8.92380000 0.013323 26.587 0.999902 -74.84 0.999902 -74.84 0.013313 3.7936
8.92390000 0.013303 26.673 0.999902 -74.84 0.999902 -74.84 0.013294 3.7027
8.92400000 0.013283 26.760 0.999903 -74.84 0.999903 -74.84 0.013274 3.6110
8.92410000 0.013263 26.848 0.999903 -74.84 0.999903 -74.84 0.013254 3.5186
8.92420000 0.013244 26.936 0.999903 -74.85 0.999903 -74.85 0.013234 3.4254
8.92430000 0.013224 27.026 0.999903 -74.85 0.999903 -74.85 0.013214 3.3313
8.92440000 0.013203 27.116 0.999904 -74.85 0.999904 -74.85 0.013194 3.2364
8.92450000 0.013183 27.206 0.999904 -74.85 0.999904 -74.85 0.013173 3.1407
8.92460000 0.013163 27.298 0.999904 -74.86 0.999904 -74.86 0.013153 3.0442
8.92470000 0.013143 27.391 0.999904 -74.86 0.999904 -74.86 0.013133 2.9468
8.92480000 0.013122 27.484 0.999905 -74.86 0.999905 -74.86 0.013112 2.8486
8.92490000 0.013102 27.578 0.999905 -74.86 0.999905 -74.86 0.013092 2.7495
8.92500000 0.013081 27.673 0.999905 -74.87 0.999905 -74.87 0.013071 2.6495
8.92510000 0.013061 27.769 0.999905 -74.87 0.999905 -74.87 0.013050 2.5486
8.92520000 0.013040 27.866 0.999905 -74.87 0.999905 -74.87 0.013030 2.4468
8.92530000 0.013019 27.963 0.999906 -74.87 0.999906 -74.87 0.013009 2.3441
8.92540000 0.012998 28.062 0.999906 -74.88 0.999906 -74.88 0.012988 2.2405
8.92550000 0.012977 28.162 0.999906 -74.88 0.999906 -74.88 0.012967 2.1359
8.92560000 0.012956 28.262 0.999906 -74.88 0.999906 -74.88 0.012946 2.0304
8.92570000 0.012935 28.363 0.999907 -74.88 0.999907 -74.88 0.012924 1.9239
8.92580000 0.012914 28.466 0.999907 -74.89 0.999907 -74.89 0.012903 1.8164
