! Sonnet Data File
! From: emgraph Version : 16.52
! From Emgraph Data: Resonator2_cp
! Data File Written: 10/09/2017 14:45:42
!< HDATE 10/09/2017 13:27:58
!< MDATE 10/09/2017 13:27:58
!< PARAMS
!< Length = 400.0
!< Pwid1 = 2000.0
!< Width = 50.0
!< gap = 16.0
!< END PARAMS
# GHZ S MA R 47.40000
8.90000000 0.017777 17.905 0.999837 -73.64 0.999837 -73.64 0.017774 14.846
!< P1 F=8.9 Eeff=(5.03074334 -2.1789e-5) Z0=(47.3979938 1.04427e-4) R=0.0 C=0.0 
!< P2 F=8.9 Eeff=(5.03074334 -2.1789e-5) Z0=(47.3979938 1.04427e-4) R=0.0 C=0.0 
8.90010000 0.017768 17.925 0.999837 -73.64 0.999837 -73.64 0.017765 14.824
8.90020000 0.017759 17.945 0.999837 -73.64 0.999837 -73.64 0.017756 14.801
8.90030000 0.017750 17.965 0.999837 -73.64 0.999837 -73.64 0.017747 14.778
8.90040000 0.017741 17.985 0.999838 -73.64 0.999838 -73.64 0.017739 14.755
8.90050000 0.017733 18.005 0.999838 -73.64 0.999838 -73.64 0.017730 14.732
8.90060000 0.017724 18.025 0.999838 -73.65 0.999838 -73.65 0.017721 14.709
8.90070000 0.017715 18.045 0.999838 -73.65 0.999838 -73.65 0.017712 14.686
8.90080000 0.017706 18.066 0.999838 -73.65 0.999838 -73.65 0.017703 14.662
8.90090000 0.017697 18.086 0.999838 -73.65 0.999838 -73.65 0.017694 14.639
8.90100000 0.017688 18.107 0.999838 -73.65 0.999838 -73.65 0.017685 14.615
8.90110000 0.017678 18.128 0.999839 -73.65 0.999839 -73.65 0.017676 14.592
8.90120000 0.017669 18.148 0.999839 -73.65 0.999839 -73.65 0.017666 14.568
8.90130000 0.017660 18.169 0.999839 -73.66 0.999839 -73.66 0.017657 14.544
8.90140000 0.017651 18.190 0.999839 -73.66 0.999839 -73.66 0.017648 14.520
8.90150000 0.017642 18.211 0.999839 -73.66 0.999839 -73.66 0.017639 14.496
8.90160000 0.017633 18.233 0.999839 -73.66 0.999839 -73.66 0.017630 14.472
8.90170000 0.017623 18.254 0.999840 -73.66 0.999840 -73.66 0.017620 14.448
8.90180000 0.017614 18.275 0.999840 -73.66 0.999840 -73.66 0.017611 14.423
8.90190000 0.017605 18.297 0.999840 -73.67 0.999840 -73.67 0.017602 14.399
8.90200000 0.017596 18.318 0.999840 -73.67 0.999840 -73.67 0.017592 14.374
8.90210000 0.017586 18.340 0.999840 -73.67 0.999840 -73.67 0.017583 14.350
8.90220000 0.017577 18.362 0.999840 -73.67 0.999840 -73.67 0.017574 14.325
8.90230000 0.017567 18.384 0.999841 -73.67 0.999841 -73.67 0.017564 14.300
8.90240000 0.017558 18.406 0.999841 -73.67 0.999841 -73.67 0.017555 14.275
8.90250000 0.017548 18.428 0.999841 -73.67 0.999841 -73.67 0.017545 14.250
8.90260000 0.017539 18.450 0.999841 -73.68 0.999841 -73.68 0.017536 14.225
8.90270000 0.017529 18.472 0.999841 -73.68 0.999841 -73.68 0.017526 14.199
8.90280000 0.017520 18.495 0.999841 -73.68 0.999841 -73.68 0.017517 14.174
8.90290000 0.017510 18.517 0.999841 -73.68 0.999841 -73.68 0.017507 14.148
8.90300000 0.017501 18.540 0.999842 -73.68 0.999842 -73.68 0.017497 14.123
8.90310000 0.017491 18.563 0.999842 -73.68 0.999842 -73.68 0.017488 14.097
8.90320000 0.017481 18.585 0.999842 -73.69 0.999842 -73.69 0.017478 14.071
8.90330000 0.017471 18.608 0.999842 -73.69 0.999842 -73.69 0.017468 14.045
8.90340000 0.017462 18.631 0.999842 -73.69 0.999842 -73.69 0.017458 14.019
8.90350000 0.017452 18.655 0.999842 -73.69 0.999842 -73.69 0.017449 13.993
8.90360000 0.017442 18.678 0.999843 -73.69 0.999843 -73.69 0.017439 13.966
8.90370000 0.017432 18.701 0.999843 -73.69 0.999843 -73.69 0.017429 13.940
8.90380000 0.017422 18.725 0.999843 -73.69 0.999843 -73.69 0.017419 13.913
8.90390000 0.017412 18.748 0.999843 -73.70 0.999843 -73.70 0.017409 13.886
8.90400000 0.017403 18.772 0.999843 -73.70 0.999843 -73.70 0.017399 13.860
8.90410000 0.017393 18.796 0.999843 -73.70 0.999843 -73.70 0.017389 13.833
8.90420000 0.017383 18.820 0.999844 -73.70 0.999844 -73.70 0.017379 13.806
8.90430000 0.017372 18.844 0.999844 -73.70 0.999844 -73.70 0.017369 13.778
8.90440000 0.017362 18.868 0.999844 -73.70 0.999844 -73.70 0.017359 13.751
8.90450000 0.017352 18.893 0.999844 -73.71 0.999844 -73.71 0.017349 13.723
8.90460000 0.017342 18.917 0.999844 -73.71 0.999844 -73.71 0.017339 13.696
8.90470000 0.017332 18.942 0.999844 -73.71 0.999844 -73.71 0.017329 13.668
8.90480000 0.017322 18.967 0.999845 -73.71 0.999845 -73.71 0.017318 13.640
8.90490000 0.017312 18.991 0.999845 -73.71 0.999845 -73.71 0.017308 13.612
8.90500000 0.017301 19.016 0.999845 -73.71 0.999845 -73.71 0.017298 13.584
8.90510000 0.017291 19.042 0.999845 -73.71 0.999845 -73.71 0.017287 13.556
8.90520000 0.017281 19.067 0.999845 -73.72 0.999845 -73.72 0.017277 13.528
8.90530000 0.017270 19.092 0.999845 -73.72 0.999845 -73.72 0.017267 13.499
8.90540000 0.017260 19.118 0.999846 -73.72 0.999846 -73.72 0.017256 13.470
8.90550000 0.017249 19.143 0.999846 -73.72 0.999846 -73.72 0.017246 13.442
8.90560000 0.017239 19.169 0.999846 -73.72 0.999846 -73.72 0.017235 13.413
8.90570000 0.017228 19.195 0.999846 -73.72 0.999846 -73.72 0.017225 13.384
8.90580000 0.017218 19.221 0.999846 -73.73 0.999846 -73.73 0.017214 13.355
8.90590000 0.017207 19.247 0.999846 -73.73 0.999846 -73.73 0.017204 13.325
8.90600000 0.017197 19.273 0.999847 -73.73 0.999847 -73.73 0.017193 13.296
8.90610000 0.017186 19.300 0.999847 -73.73 0.999847 -73.73 0.017182 13.266
8.90620000 0.017175 19.326 0.999847 -73.73 0.999847 -73.73 0.017172 13.236
8.90630000 0.017165 19.353 0.999847 -73.73 0.999847 -73.73 0.017161 13.207
8.90640000 0.017154 19.380 0.999847 -73.74 0.999847 -73.74 0.017150 13.177
8.90650000 0.017143 19.407 0.999848 -73.74 0.999848 -73.74 0.017139 13.146
8.90660000 0.017132 19.434 0.999848 -73.74 0.999848 -73.74 0.017128 13.116
8.90670000 0.017121 19.461 0.999848 -73.74 0.999848 -73.74 0.017118 13.086
8.90680000 0.017110 19.488 0.999848 -73.74 0.999848 -73.74 0.017107 13.055
8.90690000 0.017100 19.516 0.999848 -73.74 0.999848 -73.74 0.017096 13.024
8.90700000 0.017089 19.544 0.999848 -73.75 0.999848 -73.75 0.017085 12.993
8.90710000 0.017078 19.571 0.999849 -73.75 0.999849 -73.75 0.017074 12.962
8.90720000 0.017066 19.599 0.999849 -73.75 0.999849 -73.75 0.017063 12.931
8.90730000 0.017055 19.627 0.999849 -73.75 0.999849 -73.75 0.017052 12.900
8.90740000 0.017044 19.656 0.999849 -73.75 0.999849 -73.75 0.017040 12.868
8.90750000 0.017033 19.684 0.999849 -73.75 0.999849 -73.75 0.017029 12.836
8.90760000 0.017022 19.713 0.999849 -73.76 0.999849 -73.76 0.017018 12.805
8.90770000 0.017011 19.741 0.999850 -73.76 0.999850 -73.76 0.017007 12.773
8.90780000 0.016999 19.770 0.999850 -73.76 0.999850 -73.76 0.016995 12.740
8.90790000 0.016988 19.799 0.999850 -73.76 0.999850 -73.76 0.016984 12.708
8.90800000 0.016977 19.829 0.999850 -73.76 0.999850 -73.76 0.016973 12.676
8.90810000 0.016965 19.858 0.999850 -73.76 0.999850 -73.76 0.016961 12.643
8.90820000 0.016954 19.887 0.999851 -73.77 0.999851 -73.77 0.016950 12.610
8.90830000 0.016942 19.917 0.999851 -73.77 0.999851 -73.77 0.016938 12.577
8.90840000 0.016931 19.947 0.999851 -73.77 0.999851 -73.77 0.016927 12.544
8.90850000 0.016919 19.977 0.999851 -73.77 0.999851 -73.77 0.016915 12.511
8.90860000 0.016908 20.007 0.999851 -73.77 0.999851 -73.77 0.016904 12.477
8.90870000 0.016896 20.037 0.999852 -73.77 0.999852 -73.77 0.016892 12.444
8.90880000 0.016885 20.068 0.999852 -73.78 0.999852 -73.78 0.016880 12.410
8.90890000 0.016873 20.098 0.999852 -73.78 0.999852 -73.78 0.016869 12.376
8.90900000 0.016861 20.129 0.999852 -73.78 0.999852 -73.78 0.016857 12.342
8.90910000 0.016849 20.160 0.999852 -73.78 0.999852 -73.78 0.016845 12.307
8.90920000 0.016838 20.191 0.999852 -73.78 0.999852 -73.78 0.016833 12.273
8.90930000 0.016826 20.223 0.999853 -73.78 0.999853 -73.78 0.016821 12.238
8.90940000 0.016814 20.254 0.999853 -73.79 0.999853 -73.79 0.016809 12.203
8.90950000 0.016802 20.286 0.999853 -73.79 0.999853 -73.79 0.016797 12.168
8.90960000 0.016790 20.318 0.999853 -73.79 0.999853 -73.79 0.016785 12.133
8.90970000 0.016778 20.350 0.999853 -73.79 0.999853 -73.79 0.016773 12.098
8.90980000 0.016766 20.382 0.999854 -73.79 0.999854 -73.79 0.016761 12.062
8.90990000 0.016754 20.414 0.999854 -73.80 0.999854 -73.80 0.016749 12.026
8.91000000 0.016741 20.447 0.999854 -73.80 0.999854 -73.80 0.016737 11.990
8.91010000 0.016729 20.480 0.999854 -73.80 0.999854 -73.80 0.016725 11.954
8.91020000 0.016717 20.512 0.999854 -73.80 0.999854 -73.80 0.016713 11.918
8.91030000 0.016705 20.546 0.999855 -73.80 0.999855 -73.80 0.016700 11.881
8.91040000 0.016692 20.579 0.999855 -73.80 0.999855 -73.80 0.016688 11.844
8.91050000 0.016680 20.612 0.999855 -73.81 0.999855 -73.81 0.016675 11.807
8.91060000 0.016668 20.646 0.999855 -73.81 0.999855 -73.81 0.016663 11.770
8.91070000 0.016655 20.680 0.999855 -73.81 0.999855 -73.81 0.016651 11.733
8.91080000 0.016643 20.714 0.999856 -73.81 0.999856 -73.81 0.016638 11.695
8.91090000 0.016630 20.748 0.999856 -73.81 0.999856 -73.81 0.016625 11.657
8.91100000 0.016618 20.783 0.999856 -73.81 0.999856 -73.81 0.016613 11.619
8.91110000 0.016605 20.817 0.999856 -73.82 0.999856 -73.82 0.016600 11.581
8.91120000 0.016592 20.852 0.999856 -73.82 0.999856 -73.82 0.016587 11.543
8.91130000 0.016579 20.887 0.999856 -73.82 0.999856 -73.82 0.016575 11.504
8.91140000 0.016567 20.923 0.999857 -73.82 0.999857 -73.82 0.016562 11.466
8.91150000 0.016554 20.958 0.999857 -73.82 0.999857 -73.82 0.016549 11.426
8.91160000 0.016541 20.994 0.999857 -73.83 0.999857 -73.83 0.016536 11.387
8.91170000 0.016528 21.030 0.999857 -73.83 0.999857 -73.83 0.016523 11.348
8.91180000 0.016515 21.066 0.999857 -73.83 0.999857 -73.83 0.016510 11.308
8.91190000 0.016502 21.102 0.999858 -73.83 0.999858 -73.83 0.016497 11.268
8.91200000 0.016489 21.139 0.999858 -73.83 0.999858 -73.83 0.016484 11.228
8.91210000 0.016476 21.175 0.999858 -73.83 0.999858 -73.83 0.016471 11.188
8.91220000 0.016463 21.212 0.999858 -73.84 0.999858 -73.84 0.016458 11.147
8.91230000 0.016450 21.250 0.999859 -73.84 0.999859 -73.84 0.016445 11.106
8.91240000 0.016437 21.287 0.999859 -73.84 0.999859 -73.84 0.016431 11.065
8.91250000 0.016423 21.325 0.999859 -73.84 0.999859 -73.84 0.016418 11.024
8.91260000 0.016410 21.363 0.999859 -73.84 0.999859 -73.84 0.016405 10.983
8.91270000 0.016397 21.401 0.999859 -73.85 0.999859 -73.85 0.016391 10.941
8.91280000 0.016383 21.439 0.999860 -73.85 0.999860 -73.85 0.016378 10.899
8.91290000 0.016370 21.478 0.999860 -73.85 0.999860 -73.85 0.016364 10.857
8.91300000 0.016356 21.516 0.999860 -73.85 0.999860 -73.85 0.016351 10.814
8.91310000 0.016343 21.555 0.999860 -73.85 0.999860 -73.85 0.016337 10.772
8.91320000 0.016329 21.595 0.999860 -73.85 0.999860 -73.85 0.016324 10.729
8.91330000 0.016315 21.634 0.999861 -73.86 0.999861 -73.86 0.016310 10.686
8.91340000 0.016302 21.674 0.999861 -73.86 0.999861 -73.86 0.016296 10.642
8.91350000 0.016288 21.714 0.999861 -73.86 0.999861 -73.86 0.016282 10.599
8.91360000 0.016274 21.754 0.999861 -73.86 0.999861 -73.86 0.016269 10.555
8.91370000 0.016260 21.795 0.999861 -73.86 0.999861 -73.86 0.016255 10.510
8.91380000 0.016246 21.835 0.999862 -73.87 0.999862 -73.87 0.016241 10.466
8.91390000 0.016232 21.876 0.999862 -73.87 0.999862 -73.87 0.016227 10.421
8.91400000 0.016218 21.918 0.999862 -73.87 0.999862 -73.87 0.016213 10.376
8.91410000 0.016204 21.959 0.999862 -73.87 0.999862 -73.87 0.016199 10.331
8.91420000 0.016190 22.001 0.999862 -73.87 0.999862 -73.87 0.016184 10.286
8.91430000 0.016176 22.043 0.999863 -73.88 0.999863 -73.88 0.016170 10.240
8.91440000 0.016162 22.085 0.999863 -73.88 0.999863 -73.88 0.016156 10.194
8.91450000 0.016147 22.128 0.999863 -73.88 0.999863 -73.88 0.016142 10.147
8.91460000 0.016133 22.171 0.999863 -73.88 0.999863 -73.88 0.016127 10.101
8.91470000 0.016119 22.214 0.999864 -73.88 0.999864 -73.88 0.016113 10.054
8.91480000 0.016104 22.257 0.999864 -73.89 0.999864 -73.89 0.016098 10.007
8.91490000 0.016090 22.301 0.999864 -73.89 0.999864 -73.89 0.016084 9.9592
8.91500000 0.016075 22.345 0.999864 -73.89 0.999864 -73.89 0.016069 9.9115
8.91510000 0.016061 22.389 0.999864 -73.89 0.999864 -73.89 0.016055 9.8635
8.91520000 0.016046 22.433 0.999865 -73.89 0.999865 -73.89 0.016040 9.8151
8.91530000 0.016031 22.478 0.999865 -73.90 0.999865 -73.90 0.016025 9.7665
8.91540000 0.016016 22.523 0.999865 -73.90 0.999865 -73.90 0.016011 9.7176
8.91550000 0.016002 22.569 0.999865 -73.90 0.999865 -73.90 0.015996 9.6684
8.91560000 0.015987 22.614 0.999865 -73.90 0.999865 -73.90 0.015981 9.6188
8.91570000 0.015972 22.660 0.999866 -73.90 0.999866 -73.90 0.015966 9.5690
8.91580000 0.015957 22.706 0.999866 -73.91 0.999866 -73.91 0.015951 9.5188
8.91590000 0.015942 22.753 0.999866 -73.91 0.999866 -73.91 0.015936 9.4684
8.91600000 0.015927 22.800 0.999866 -73.91 0.999866 -73.91 0.015921 9.4176
8.91610000 0.015912 22.847 0.999867 -73.91 0.999867 -73.91 0.015905 9.3665
8.91620000 0.015896 22.894 0.999867 -73.91 0.999867 -73.91 0.015890 9.3151
8.91630000 0.015881 22.942 0.999867 -73.92 0.999867 -73.92 0.015875 9.2633
8.91640000 0.015866 22.990 0.999867 -73.92 0.999867 -73.92 0.015860 9.2112
8.91650000 0.015850 23.039 0.999868 -73.92 0.999868 -73.92 0.015844 9.1588
8.91660000 0.015835 23.088 0.999868 -73.92 0.999868 -73.92 0.015829 9.1061
8.91670000 0.015819 23.137 0.999868 -73.92 0.999868 -73.92 0.015813 9.0530
8.91680000 0.015804 23.186 0.999868 -73.93 0.999868 -73.93 0.015798 8.9996
8.91690000 0.015788 23.236 0.999868 -73.93 0.999868 -73.93 0.015782 8.9458
8.91700000 0.015773 23.286 0.999869 -73.93 0.999869 -73.93 0.015766 8.8917
8.91710000 0.015757 23.336 0.999869 -73.93 0.999869 -73.93 0.015750 8.8373
8.91720000 0.015741 23.387 0.999869 -73.93 0.999869 -73.93 0.015735 8.7825
8.91730000 0.015725 23.438 0.999869 -73.94 0.999869 -73.94 0.015719 8.7273
8.91740000 0.015709 23.490 0.999870 -73.94 0.999870 -73.94 0.015703 8.6718
8.91750000 0.015693 23.542 0.999870 -73.94 0.999870 -73.94 0.015687 8.6159
8.91760000 0.015677 23.594 0.999870 -73.94 0.999870 -73.94 0.015671 8.5596
8.91770000 0.015661 23.646 0.999870 -73.94 0.999870 -73.94 0.015655 8.5030
8.91780000 0.015645 23.699 0.999870 -73.95 0.999870 -73.95 0.015638 8.4460
8.91790000 0.015629 23.753 0.999871 -73.95 0.999871 -73.95 0.015622 8.3886
8.91800000 0.015613 23.806 0.999871 -73.95 0.999871 -73.95 0.015606 8.3308
8.91810000 0.015596 23.860 0.999871 -73.95 0.999871 -73.95 0.015590 8.2726
8.91820000 0.015580 23.915 0.999871 -73.96 0.999871 -73.96 0.015573 8.2141
8.91830000 0.015564 23.969 0.999872 -73.96 0.999872 -73.96 0.015557 8.1551
8.91840000 0.015547 24.025 0.999872 -73.96 0.999872 -73.96 0.015540 8.0958
8.91850000 0.015530 24.080 0.999872 -73.96 0.999872 -73.96 0.015523 8.0361
8.91860000 0.015514 24.136 0.999872 -73.96 0.999872 -73.96 0.015507 7.9759
8.91870000 0.015497 24.193 0.999873 -73.97 0.999873 -73.97 0.015490 7.9153
8.91880000 0.015480 24.249 0.999873 -73.97 0.999873 -73.97 0.015473 7.8544
8.91890000 0.015463 24.306 0.999873 -73.97 0.999873 -73.97 0.015456 7.7930
8.91900000 0.015447 24.364 0.999873 -73.97 0.999873 -73.97 0.015439 7.7312
8.91910000 0.015430 24.422 0.999874 -73.97 0.999874 -73.97 0.015422 7.6689
8.91920000 0.015413 24.480 0.999874 -73.98 0.999874 -73.98 0.015405 7.6062
8.91930000 0.015395 24.539 0.999874 -73.98 0.999874 -73.98 0.015388 7.5431
8.91940000 0.015378 24.599 0.999874 -73.98 0.999874 -73.98 0.015371 7.4796
8.91950000 0.015361 24.658 0.999875 -73.98 0.999875 -73.98 0.015354 7.4156
8.91960000 0.015344 24.718 0.999875 -73.99 0.999875 -73.99 0.015336 7.3511
8.91970000 0.015326 24.779 0.999875 -73.99 0.999875 -73.99 0.015319 7.2862
8.91980000 0.015309 24.840 0.999875 -73.99 0.999875 -73.99 0.015301 7.2209
8.91990000 0.015291 24.901 0.999875 -73.99 0.999875 -73.99 0.015284 7.1551
8.92000000 0.015274 24.963 0.999876 -73.99 0.999876 -73.99 0.015266 7.0888
8.92010000 0.015256 25.026 0.999876 -74.00 0.999876 -74.00 0.015249 7.0220
8.92020000 0.015239 25.089 0.999876 -74.00 0.999876 -74.00 0.015231 6.9548
8.92030000 0.015221 25.152 0.999876 -74.00 0.999876 -74.00 0.015213 6.8870
8.92040000 0.015203 25.216 0.999877 -74.00 0.999877 -74.00 0.015195 6.8188
8.92050000 0.015185 25.280 0.999877 -74.01 0.999877 -74.01 0.015177 6.7501
8.92060000 0.015167 25.345 0.999877 -74.01 0.999877 -74.01 0.015159 6.6809
8.92070000 0.015149 25.410 0.999877 -74.01 0.999877 -74.01 0.015141 6.6112
8.92080000 0.015131 25.476 0.999878 -74.01 0.999878 -74.01 0.015123 6.5410
8.92090000 0.015113 25.542 0.999878 -74.02 0.999878 -74.02 0.015105 6.4702
8.92100000 0.015095 25.609 0.999878 -74.02 0.999878 -74.02 0.015086 6.3990
8.92110000 0.015076 25.676 0.999878 -74.02 0.999878 -74.02 0.015068 6.3272
8.92120000 0.015058 25.744 0.999879 -74.02 0.999879 -74.02 0.015050 6.2549
8.92130000 0.015039 25.812 0.999879 -74.02 0.999879 -74.02 0.015031 6.1820
8.92140000 0.015021 25.881 0.999879 -74.03 0.999879 -74.03 0.015012 6.1086
8.92150000 0.015002 25.951 0.999879 -74.03 0.999879 -74.03 0.014994 6.0347
8.92160000 0.014984 26.020 0.999880 -74.03 0.999880 -74.03 0.014975 5.9602
8.92170000 0.014965 26.091 0.999880 -74.03 0.999880 -74.03 0.014956 5.8851
8.92180000 0.014946 26.162 0.999880 -74.04 0.999880 -74.04 0.014937 5.8094
8.92190000 0.014927 26.234 0.999880 -74.04 0.999880 -74.04 0.014918 5.7332
8.92200000 0.014908 26.306 0.999881 -74.04 0.999881 -74.04 0.014899 5.6564
8.92210000 0.014889 26.378 0.999881 -74.04 0.999881 -74.04 0.014880 5.5791
8.92220000 0.014870 26.452 0.999881 -74.05 0.999881 -74.05 0.014861 5.5011
8.92230000 0.014851 26.526 0.999881 -74.05 0.999881 -74.05 0.014842 5.4225
8.92240000 0.014831 26.600 0.999882 -74.05 0.999882 -74.05 0.014822 5.3433
8.92250000 0.014812 26.675 0.999882 -74.05 0.999882 -74.05 0.014803 5.2635
8.92260000 0.014793 26.751 0.999882 -74.06 0.999882 -74.06 0.014784 5.1831
8.92270000 0.014773 26.827 0.999883 -74.06 0.999883 -74.06 0.014764 5.1021
8.92280000 0.014754 26.904 0.999883 -74.06 0.999883 -74.06 0.014744 5.0204
8.92290000 0.014734 26.982 0.999883 -74.06 0.999883 -74.06 0.014725 4.9381
8.92300000 0.014714 27.060 0.999883 -74.07 0.999883 -74.07 0.014705 4.8551
8.92310000 0.014695 27.139 0.999884 -74.07 0.999884 -74.07 0.014685 4.7715
8.92320000 0.014675 27.218 0.999884 -74.07 0.999884 -74.07 0.014665 4.6872
8.92330000 0.014655 27.298 0.999884 -74.07 0.999884 -74.07 0.014645 4.6022
8.92340000 0.014635 27.379 0.999884 -74.08 0.999884 -74.08 0.014625 4.5165
8.92350000 0.014615 27.460 0.999885 -74.08 0.999885 -74.08 0.014605 4.4302
8.92360000 0.014594 27.543 0.999885 -74.08 0.999885 -74.08 0.014585 4.3432
8.92370000 0.014574 27.625 0.999885 -74.08 0.999885 -74.08 0.014564 4.2554
8.92380000 0.014554 27.709 0.999885 -74.09 0.999885 -74.09 0.014544 4.1670
8.92390000 0.014533 27.793 0.999886 -74.09 0.999886 -74.09 0.014524 4.0778
8.92400000 0.014513 27.878 0.999886 -74.09 0.999886 -74.09 0.014503 3.9879
8.92410000 0.014492 27.964 0.999886 -74.09 0.999886 -74.09 0.014482 3.8972
8.92420000 0.014472 28.050 0.999886 -74.10 0.999886 -74.10 0.014462 3.8058
8.92430000 0.014451 28.137 0.999887 -74.10 0.999887 -74.10 0.014441 3.7137
8.92440000 0.014430 28.225 0.999887 -74.10 0.999887 -74.10 0.014420 3.6207
8.92450000 0.014409 28.314 0.999887 -74.10 0.999887 -74.10 0.014399 3.5270
8.92460000 0.014388 28.403 0.999888 -74.11 0.999888 -74.11 0.014378 3.4326
8.92470000 0.014367 28.493 0.999888 -74.11 0.999888 -74.11 0.014357 3.3373
8.92480000 0.014346 28.584 0.999888 -74.11 0.999888 -74.11 0.014336 3.2412
8.92490000 0.014325 28.676 0.999888 -74.11 0.999888 -74.11 0.014314 3.1443
8.92500000 0.014304 28.769 0.999889 -74.12 0.999889 -74.12 0.014293 3.0466
8.92510000 0.014282 28.862 0.999889 -74.12 0.999889 -74.12 0.014272 2.9481
8.92520000 0.014261 28.956 0.999889 -74.12 0.999889 -74.12 0.014250 2.8487
8.92530000 0.014240 29.051 0.999889 -74.13 0.999889 -74.13 0.014229 2.7484
8.92540000 0.014218 29.147 0.999890 -74.13 0.999890 -74.13 0.014207 2.6473
8.92550000 0.014196 29.244 0.999890 -74.13 0.999890 -74.13 0.014185 2.5453
8.92560000 0.014174 29.342 0.999890 -74.13 0.999890 -74.13 0.014163 2.4424
8.92570000 0.014153 29.440 0.999890 -74.14 0.999890 -74.14 0.014141 2.3387
8.92580000 0.014131 29.539 0.999891 -74.14 0.999891 -74.14 0.014119 2.2340
8.92590000 0.014109 29.640 0.999891 -74.14 0.999891 -74.14 0.014097 2.1284
