! Sonnet Data File
! From: emgraph Version : 16.52
! From Project: Resonator2_cp
! Data is De-embedded 
! Data File Written: 10/07/2017 20:46:09
!< HDATE 10/07/2017 17:10:37
!< MDATE 10/07/2017 17:10:37
!< PARAMS
!< gap = 26.0
!< Length = 400.0
!< Pwid1 = 2000.0
!< Pwid2 = 2000.0
!< Air_gap = 30.0
!< Width = 50.0
!< END PARAMS
# GHZ S MA R 47.50000
8.80000000 0.019904 3.1318 0.999799 -72.37 0.999799 -72.37 0.019906 32.129
!< P1 F=8.8 Eeff=(5.02890353 -2.1766e-5) Z0=(47.410578 1.04358e-4) R=0.0 C=0.0 
!< P2 F=8.8 Eeff=(5.02890353 -2.1766e-5) Z0=(47.410578 1.04358e-4) R=0.0 C=0.0 
8.80020000 0.019908 3.1198 0.999799 -72.38 0.999799 -72.38 0.019910 32.137
8.80040000 0.019913 3.1078 0.999798 -72.38 0.999798 -72.38 0.019914 32.146
8.80060000 0.019917 3.0957 0.999798 -72.38 0.999798 -72.38 0.019919 32.154
8.80080000 0.019922 3.0836 0.999798 -72.38 0.999798 -72.38 0.019923 32.162
8.80100000 0.019926 3.0715 0.999798 -72.38 0.999798 -72.38 0.019928 32.170
8.80120000 0.019931 3.0594 0.999798 -72.39 0.999798 -72.39 0.019932 32.178
8.80140000 0.019935 3.0472 0.999798 -72.39 0.999798 -72.39 0.019937 32.186
8.80160000 0.019940 3.0349 0.999798 -72.39 0.999798 -72.39 0.019941 32.194
8.80180000 0.019944 3.0227 0.999798 -72.39 0.999798 -72.39 0.019946 32.203
8.80200000 0.019949 3.0104 0.999798 -72.39 0.999798 -72.39 0.019951 32.211
8.80220000 0.019953 2.9980 0.999798 -72.40 0.999798 -72.40 0.019955 32.219
8.80240000 0.019958 2.9857 0.999797 -72.40 0.999797 -72.40 0.019960 32.228
8.80260000 0.019963 2.9733 0.999797 -72.40 0.999797 -72.40 0.019964 32.236
8.80280000 0.019967 2.9608 0.999797 -72.40 0.999797 -72.40 0.019969 32.244
8.80300000 0.019972 2.9483 0.999797 -72.40 0.999797 -72.40 0.019974 32.253
8.80320000 0.019977 2.9358 0.999797 -72.41 0.999797 -72.41 0.019978 32.261
8.80340000 0.019981 2.9233 0.999797 -72.41 0.999797 -72.41 0.019983 32.270
8.80360000 0.019986 2.9107 0.999797 -72.41 0.999797 -72.41 0.019988 32.278
8.80380000 0.019991 2.8981 0.999797 -72.41 0.999797 -72.41 0.019993 32.287
8.80400000 0.019996 2.8854 0.999797 -72.41 0.999797 -72.41 0.019997 32.296
8.80420000 0.020000 2.8727 0.999797 -72.42 0.999797 -72.42 0.020002 32.304
8.80440000 0.020005 2.8600 0.999797 -72.42 0.999797 -72.42 0.020007 32.313
8.80460000 0.020010 2.8472 0.999796 -72.42 0.999796 -72.42 0.020012 32.322
8.80480000 0.020015 2.8344 0.999796 -72.42 0.999796 -72.42 0.020017 32.330
8.80500000 0.020020 2.8215 0.999796 -72.42 0.999796 -72.42 0.020021 32.339
8.80520000 0.020025 2.8086 0.999796 -72.43 0.999796 -72.43 0.020026 32.348
8.80540000 0.020029 2.7957 0.999796 -72.43 0.999796 -72.43 0.020031 32.357
8.80560000 0.020034 2.7828 0.999796 -72.43 0.999796 -72.43 0.020036 32.366
8.80580000 0.020039 2.7697 0.999796 -72.43 0.999796 -72.43 0.020041 32.375
8.80600000 0.020044 2.7567 0.999796 -72.43 0.999796 -72.43 0.020046 32.384
8.80620000 0.020049 2.7436 0.999796 -72.44 0.999796 -72.44 0.020051 32.393
8.80640000 0.020054 2.7305 0.999795 -72.44 0.999795 -72.44 0.020056 32.402
8.80660000 0.020059 2.7173 0.999795 -72.44 0.999795 -72.44 0.020061 32.411
8.80680000 0.020064 2.7041 0.999795 -72.44 0.999795 -72.44 0.020066 32.420
8.80700000 0.020069 2.6909 0.999795 -72.44 0.999795 -72.44 0.020071 32.429
8.80720000 0.020074 2.6776 0.999795 -72.45 0.999795 -72.45 0.020076 32.438
8.80740000 0.020080 2.6643 0.999795 -72.45 0.999795 -72.45 0.020081 32.448
8.80760000 0.020085 2.6509 0.999795 -72.45 0.999795 -72.45 0.020087 32.457
8.80780000 0.020090 2.6375 0.999795 -72.45 0.999795 -72.45 0.020092 32.466
8.80800000 0.020095 2.6241 0.999795 -72.45 0.999795 -72.45 0.020097 32.476
8.80820000 0.020100 2.6106 0.999795 -72.46 0.999795 -72.46 0.020102 32.485
8.80840000 0.020105 2.5970 0.999794 -72.46 0.999794 -72.46 0.020107 32.494
8.80860000 0.020111 2.5835 0.999794 -72.46 0.999794 -72.46 0.020113 32.504
8.80880000 0.020116 2.5699 0.999794 -72.46 0.999794 -72.46 0.020118 32.513
8.80900000 0.020121 2.5562 0.999794 -72.46 0.999794 -72.46 0.020123 32.523
8.80920000 0.020127 2.5425 0.999794 -72.47 0.999794 -72.47 0.020128 32.533
8.80940000 0.020132 2.5288 0.999794 -72.47 0.999794 -72.47 0.020134 32.542
8.80960000 0.020137 2.5150 0.999794 -72.47 0.999794 -72.47 0.020139 32.552
8.80980000 0.020143 2.5011 0.999794 -72.47 0.999794 -72.47 0.020144 32.562
8.81000000 0.020148 2.4873 0.999794 -72.47 0.999794 -72.47 0.020150 32.571
8.81020000 0.020153 2.4733 0.999793 -72.48 0.999793 -72.48 0.020155 32.581
8.81040000 0.020159 2.4594 0.999793 -72.48 0.999793 -72.48 0.020161 32.591
8.81060000 0.020164 2.4454 0.999793 -72.48 0.999793 -72.48 0.020166 32.601
8.81080000 0.020170 2.4313 0.999793 -72.48 0.999793 -72.48 0.020172 32.611
8.81100000 0.020175 2.4172 0.999793 -72.49 0.999793 -72.49 0.020177 32.621
8.81120000 0.020181 2.4031 0.999793 -72.49 0.999793 -72.49 0.020183 32.631
8.81140000 0.020186 2.3889 0.999793 -72.49 0.999793 -72.49 0.020188 32.641
8.81160000 0.020192 2.3747 0.999793 -72.49 0.999793 -72.49 0.020194 32.651
8.81180000 0.020198 2.3604 0.999792 -72.49 0.999792 -72.49 0.020200 32.661
8.81200000 0.020203 2.3461 0.999792 -72.50 0.999792 -72.50 0.020205 32.671
8.81220000 0.020209 2.3317 0.999792 -72.50 0.999792 -72.50 0.020211 32.681
8.81240000 0.020215 2.3173 0.999792 -72.50 0.999792 -72.50 0.020217 32.691
8.81260000 0.020220 2.3028 0.999792 -72.50 0.999792 -72.50 0.020222 32.702
8.81280000 0.020226 2.2883 0.999792 -72.50 0.999792 -72.50 0.020228 32.712
8.81300000 0.020232 2.2737 0.999792 -72.51 0.999792 -72.51 0.020234 32.722
8.81320000 0.020238 2.2591 0.999792 -72.51 0.999792 -72.51 0.020240 32.733
8.81340000 0.020243 2.2445 0.999792 -72.51 0.999792 -72.51 0.020245 32.743
8.81360000 0.020249 2.2298 0.999791 -72.51 0.999791 -72.51 0.020251 32.754
8.81380000 0.020255 2.2150 0.999791 -72.51 0.999791 -72.51 0.020257 32.764
8.81400000 0.020261 2.2002 0.999791 -72.52 0.999791 -72.52 0.020263 32.775
8.81420000 0.020267 2.1854 0.999791 -72.52 0.999791 -72.52 0.020269 32.786
8.81440000 0.020273 2.1705 0.999791 -72.52 0.999791 -72.52 0.020275 32.796
8.81460000 0.020279 2.1555 0.999791 -72.52 0.999791 -72.52 0.020281 32.807
8.81480000 0.020285 2.1405 0.999791 -72.52 0.999791 -72.52 0.020287 32.818
8.81500000 0.020291 2.1255 0.999791 -72.53 0.999791 -72.53 0.020293 32.829
8.81520000 0.020297 2.1104 0.999790 -72.53 0.999790 -72.53 0.020299 32.840
8.81540000 0.020303 2.0952 0.999790 -72.53 0.999790 -72.53 0.020305 32.851
8.81560000 0.020309 2.0800 0.999790 -72.53 0.999790 -72.53 0.020311 32.862
8.81580000 0.020315 2.0647 0.999790 -72.54 0.999790 -72.54 0.020317 32.873
8.81600000 0.020322 2.0494 0.999790 -72.54 0.999790 -72.54 0.020324 32.884
8.81620000 0.020328 2.0341 0.999790 -72.54 0.999790 -72.54 0.020330 32.895
8.81640000 0.020334 2.0187 0.999790 -72.54 0.999790 -72.54 0.020336 32.906
8.81660000 0.020340 2.0032 0.999790 -72.54 0.999790 -72.54 0.020342 32.917
8.81680000 0.020347 1.9877 0.999789 -72.55 0.999789 -72.55 0.020349 32.928
8.81700000 0.020353 1.9721 0.999789 -72.55 0.999789 -72.55 0.020355 32.940
8.81720000 0.020359 1.9565 0.999789 -72.55 0.999789 -72.55 0.020361 32.951
8.81740000 0.020366 1.9408 0.999789 -72.55 0.999789 -72.55 0.020368 32.962
8.81760000 0.020372 1.9251 0.999789 -72.55 0.999789 -72.55 0.020374 32.974
8.81780000 0.020378 1.9093 0.999789 -72.56 0.999789 -72.56 0.020381 32.985
8.81800000 0.020385 1.8934 0.999789 -72.56 0.999789 -72.56 0.020387 32.997
8.81820000 0.020391 1.8775 0.999788 -72.56 0.999788 -72.56 0.020394 33.009
8.81840000 0.020398 1.8616 0.999788 -72.56 0.999788 -72.56 0.020400 33.020
8.81860000 0.020405 1.8456 0.999788 -72.56 0.999788 -72.56 0.020407 33.032
8.81880000 0.020411 1.8295 0.999788 -72.57 0.999788 -72.57 0.020413 33.044
8.81900000 0.020418 1.8134 0.999788 -72.57 0.999788 -72.57 0.020420 33.056
8.81920000 0.020424 1.7972 0.999788 -72.57 0.999788 -72.57 0.020427 33.067
8.81940000 0.020431 1.7810 0.999788 -72.57 0.999788 -72.57 0.020433 33.079
8.81960000 0.020438 1.7647 0.999787 -72.58 0.999787 -72.58 0.020440 33.091
8.81980000 0.020445 1.7483 0.999787 -72.58 0.999787 -72.58 0.020447 33.103
8.82000000 0.020451 1.7319 0.999787 -72.58 0.999787 -72.58 0.020454 33.115
8.82020000 0.020458 1.7154 0.999787 -72.58 0.999787 -72.58 0.020460 33.128
8.82040000 0.020465 1.6989 0.999787 -72.58 0.999787 -72.58 0.020467 33.140
8.82060000 0.020472 1.6823 0.999787 -72.59 0.999787 -72.59 0.020474 33.152
8.82080000 0.020479 1.6657 0.999787 -72.59 0.999787 -72.59 0.020481 33.164
8.82100000 0.020486 1.6490 0.999786 -72.59 0.999786 -72.59 0.020488 33.177
8.82120000 0.020493 1.6322 0.999786 -72.59 0.999786 -72.59 0.020495 33.189
8.82140000 0.020500 1.6154 0.999786 -72.60 0.999786 -72.60 0.020502 33.202
8.82160000 0.020507 1.5985 0.999786 -72.60 0.999786 -72.60 0.020509 33.214
8.82180000 0.020514 1.5815 0.999786 -72.60 0.999786 -72.60 0.020516 33.227
8.82200000 0.020521 1.5645 0.999786 -72.60 0.999786 -72.60 0.020523 33.239
8.82220000 0.020528 1.5474 0.999786 -72.60 0.999786 -72.60 0.020531 33.252
8.82240000 0.020536 1.5303 0.999785 -72.61 0.999785 -72.61 0.020538 33.265
8.82260000 0.020543 1.5131 0.999785 -72.61 0.999785 -72.61 0.020545 33.278
8.82280000 0.020550 1.4958 0.999785 -72.61 0.999785 -72.61 0.020552 33.290
8.82300000 0.020557 1.4785 0.999785 -72.61 0.999785 -72.61 0.020560 33.303
8.82320000 0.020565 1.4611 0.999785 -72.61 0.999785 -72.61 0.020567 33.316
8.82340000 0.020572 1.4436 0.999785 -72.62 0.999785 -72.62 0.020574 33.329
8.82360000 0.020580 1.4261 0.999784 -72.62 0.999784 -72.62 0.020582 33.343
8.82380000 0.020587 1.4085 0.999784 -72.62 0.999784 -72.62 0.020589 33.356
8.82400000 0.020595 1.3908 0.999784 -72.62 0.999784 -72.62 0.020597 33.369
8.82420000 0.020602 1.3731 0.999784 -72.63 0.999784 -72.63 0.020604 33.382
8.82440000 0.020610 1.3553 0.999784 -72.63 0.999784 -72.63 0.020612 33.396
8.82460000 0.020617 1.3374 0.999784 -72.63 0.999784 -72.63 0.020620 33.409
8.82480000 0.020625 1.3195 0.999783 -72.63 0.999783 -72.63 0.020627 33.423
8.82500000 0.020633 1.3015 0.999783 -72.63 0.999783 -72.63 0.020635 33.436
8.82520000 0.020640 1.2834 0.999783 -72.64 0.999783 -72.64 0.020643 33.450
8.82540000 0.020648 1.2653 0.999783 -72.64 0.999783 -72.64 0.020650 33.463
8.82560000 0.020656 1.2471 0.999783 -72.64 0.999783 -72.64 0.020658 33.477
8.82580000 0.020664 1.2288 0.999783 -72.64 0.999783 -72.64 0.020666 33.491
8.82600000 0.020672 1.2104 0.999782 -72.65 0.999782 -72.65 0.020674 33.505
8.82620000 0.020680 1.1920 0.999782 -72.65 0.999782 -72.65 0.020682 33.519
8.82640000 0.020688 1.1735 0.999782 -72.65 0.999782 -72.65 0.020690 33.533
8.82660000 0.020696 1.1550 0.999782 -72.65 0.999782 -72.65 0.020698 33.547
8.82680000 0.020704 1.1363 0.999782 -72.65 0.999782 -72.65 0.020706 33.561
8.82700000 0.020712 1.1176 0.999782 -72.66 0.999782 -72.66 0.020714 33.575
8.82720000 0.020720 1.0988 0.999781 -72.66 0.999781 -72.66 0.020722 33.589
8.82740000 0.020728 1.0800 0.999781 -72.66 0.999781 -72.66 0.020731 33.604
8.82760000 0.020736 1.0610 0.999781 -72.66 0.999781 -72.66 0.020739 33.618
8.82780000 0.020745 1.0420 0.999781 -72.67 0.999781 -72.67 0.020747 33.632
8.82800000 0.020753 1.0230 0.999781 -72.67 0.999781 -72.67 0.020756 33.647
8.82820000 0.020762 1.0038 0.999781 -72.67 0.999781 -72.67 0.020764 33.662
8.82840000 0.020770 0.9846 0.999780 -72.67 0.999780 -72.67 0.020772 33.676
8.82860000 0.020778 0.9653 0.999780 -72.67 0.999780 -72.67 0.020781 33.691
8.82880000 0.020787 0.9459 0.999780 -72.68 0.999780 -72.68 0.020789 33.706
8.82900000 0.020795 0.9264 0.999780 -72.68 0.999780 -72.68 0.020798 33.721
8.82920000 0.020804 0.9068 0.999780 -72.68 0.999780 -72.68 0.020807 33.736
8.82940000 0.020813 0.8872 0.999779 -72.68 0.999779 -72.68 0.020815 33.751
8.82960000 0.020821 0.8675 0.999779 -72.69 0.999779 -72.69 0.020824 33.766
8.82980000 0.020830 0.8477 0.999779 -72.69 0.999779 -72.69 0.020833 33.781
8.83000000 0.020839 0.8279 0.999779 -72.69 0.999779 -72.69 0.020841 33.796
8.83020000 0.020848 0.8079 0.999779 -72.69 0.999779 -72.69 0.020850 33.812
8.83040000 0.020857 0.7879 0.999778 -72.70 0.999778 -72.70 0.020859 33.827
8.83060000 0.020866 0.7678 0.999778 -72.70 0.999778 -72.70 0.020868 33.843
8.83080000 0.020875 0.7476 0.999778 -72.70 0.999778 -72.70 0.020877 33.858
8.83100000 0.020884 0.7273 0.999778 -72.70 0.999778 -72.70 0.020886 33.874
8.83120000 0.020893 0.7069 0.999778 -72.70 0.999778 -72.70 0.020895 33.889
8.83140000 0.020902 0.6865 0.999778 -72.71 0.999778 -72.71 0.020905 33.905
8.83160000 0.020911 0.6660 0.999777 -72.71 0.999777 -72.71 0.020914 33.921
8.83180000 0.020920 0.6453 0.999777 -72.71 0.999777 -72.71 0.020923 33.937
8.83200000 0.020930 0.6246 0.999777 -72.71 0.999777 -72.71 0.020932 33.953
8.83220000 0.020939 0.6039 0.999777 -72.72 0.999777 -72.72 0.020942 33.969
8.83240000 0.020949 0.5830 0.999777 -72.72 0.999777 -72.72 0.020951 33.985
8.83260000 0.020958 0.5620 0.999776 -72.72 0.999776 -72.72 0.020961 34.002
8.83280000 0.020968 0.5409 0.999776 -72.72 0.999776 -72.72 0.020970 34.018
8.83300000 0.020977 0.5198 0.999776 -72.73 0.999776 -72.73 0.020980 34.034
8.83320000 0.020987 0.4986 0.999776 -72.73 0.999776 -72.73 0.020989 34.051
8.83340000 0.020996 0.4772 0.999775 -72.73 0.999775 -72.73 0.020999 34.067
8.83360000 0.021006 0.4558 0.999775 -72.73 0.999775 -72.73 0.021009 34.084
8.83380000 0.021016 0.4343 0.999775 -72.74 0.999775 -72.74 0.021019 34.101
8.83400000 0.021026 0.4127 0.999775 -72.74 0.999775 -72.74 0.021029 34.118
8.83420000 0.021036 0.3910 0.999775 -72.74 0.999775 -72.74 0.021038 34.135
8.83440000 0.021046 0.3692 0.999774 -72.74 0.999774 -72.74 0.021048 34.152
8.83460000 0.021056 0.3473 0.999774 -72.74 0.999774 -72.74 0.021059 34.169
8.83480000 0.021066 0.3253 0.999774 -72.75 0.999774 -72.75 0.021069 34.186
8.83500000 0.021076 0.3033 0.999774 -72.75 0.999774 -72.75 0.021079 34.203
8.83520000 0.021086 0.2811 0.999774 -72.75 0.999774 -72.75 0.021089 34.221
8.83540000 0.021097 0.2588 0.999773 -72.75 0.999773 -72.75 0.021099 34.238
8.83560000 0.021107 0.2364 0.999773 -72.76 0.999773 -72.76 0.021110 34.256
8.83580000 0.021117 0.2140 0.999773 -72.76 0.999773 -72.76 0.021120 34.273
8.83600000 0.021128 0.1914 0.999773 -72.76 0.999773 -72.76 0.021131 34.291
8.83620000 0.021138 0.1687 0.999772 -72.76 0.999772 -72.76 0.021141 34.309
8.83640000 0.021149 0.1460 0.999772 -72.77 0.999772 -72.77 0.021152 34.327
8.83660000 0.021160 0.1231 0.999772 -72.77 0.999772 -72.77 0.021162 34.345
8.83680000 0.021170 0.1001 0.999772 -72.77 0.999772 -72.77 0.021173 34.363
8.83700000 0.021181 0.0770 0.999771 -72.77 0.999771 -72.77 0.021184 34.381
8.83720000 0.021192 0.0538 0.999771 -72.78 0.999771 -72.78 0.021195 34.399
8.83740000 0.021203 0.0306 0.999771 -72.78 0.999771 -72.78 0.021206 34.418
8.83760000 0.021214 0.0072 0.999771 -72.78 0.999771 -72.78 0.021217 34.436
8.83780000 0.021225 -0.016 0.999770 -72.78 0.999770 -72.78 0.021228 34.455
8.83800000 0.021236 -0.040 0.999770 -72.79 0.999770 -72.79 0.021239 34.473
8.83820000 0.021247 -0.064 0.999770 -72.79 0.999770 -72.79 0.021250 34.492
8.83840000 0.021259 -0.088 0.999770 -72.79 0.999770 -72.79 0.021261 34.511
8.83860000 0.021270 -0.111 0.999769 -72.79 0.999769 -72.79 0.021273 34.530
8.83880000 0.021281 -0.135 0.999769 -72.80 0.999769 -72.80 0.021284 34.549
8.83900000 0.021293 -0.160 0.999769 -72.80 0.999769 -72.80 0.021296 34.568
8.83920000 0.021304 -0.184 0.999769 -72.80 0.999769 -72.80 0.021307 34.587
8.83940000 0.021316 -0.208 0.999768 -72.80 0.999768 -72.80 0.021319 34.607
8.83960000 0.021328 -0.233 0.999768 -72.81 0.999768 -72.81 0.021331 34.626
8.83980000 0.021340 -0.257 0.999768 -72.81 0.999768 -72.81 0.021343 34.646
8.84000000 0.021351 -0.282 0.999768 -72.81 0.999768 -72.81 0.021354 34.666
8.84020000 0.021363 -0.307 0.999767 -72.81 0.999767 -72.81 0.021366 34.685
8.84040000 0.021375 -0.332 0.999767 -72.82 0.999767 -72.82 0.021378 34.705
8.84060000 0.021388 -0.357 0.999767 -72.82 0.999767 -72.82 0.021390 34.725
8.84080000 0.021400 -0.382 0.999767 -72.82 0.999767 -72.82 0.021403 34.745
8.84100000 0.021412 -0.408 0.999766 -72.82 0.999766 -72.82 0.021415 34.766
8.84120000 0.021424 -0.433 0.999766 -72.83 0.999766 -72.83 0.021427 34.786
8.84140000 0.021437 -0.459 0.999766 -72.83 0.999766 -72.83 0.021440 34.806
8.84160000 0.021449 -0.484 0.999766 -72.83 0.999766 -72.83 0.021452 34.827
8.84180000 0.021462 -0.510 0.999765 -72.83 0.999765 -72.83 0.021465 34.848
8.84200000 0.021474 -0.536 0.999765 -72.84 0.999765 -72.84 0.021477 34.869
8.84220000 0.021487 -0.562 0.999765 -72.84 0.999765 -72.84 0.021490 34.889
8.84240000 0.021500 -0.588 0.999764 -72.84 0.999764 -72.84 0.021503 34.910
8.84260000 0.021513 -0.615 0.999764 -72.84 0.999764 -72.84 0.021516 34.932
8.84280000 0.021526 -0.641 0.999764 -72.85 0.999764 -72.85 0.021529 34.953
8.84300000 0.021539 -0.668 0.999763 -72.85 0.999763 -72.85 0.021542 34.974
8.84320000 0.021552 -0.694 0.999763 -72.85 0.999763 -72.85 0.021555 34.996
8.84340000 0.021565 -0.721 0.999763 -72.85 0.999763 -72.85 0.021569 35.017
8.84360000 0.021579 -0.748 0.999763 -72.86 0.999763 -72.86 0.021582 35.039
8.84380000 0.021592 -0.775 0.999762 -72.86 0.999762 -72.86 0.021595 35.061
8.84400000 0.021606 -0.803 0.999762 -72.86 0.999762 -72.86 0.021609 35.083
8.84420000 0.021619 -0.830 0.999762 -72.86 0.999762 -72.86 0.021623 35.105
8.84440000 0.021633 -0.857 0.999761 -72.87 0.999761 -72.87 0.021636 35.127
8.84460000 0.021647 -0.885 0.999761 -72.87 0.999761 -72.87 0.021650 35.150
8.84480000 0.021661 -0.913 0.999761 -72.87 0.999761 -72.87 0.021664 35.172
8.84500000 0.021675 -0.941 0.999760 -72.87 0.999760 -72.87 0.021678 35.195
8.84520000 0.021689 -0.969 0.999760 -72.88 0.999760 -72.88 0.021692 35.217
8.84540000 0.021703 -0.997 0.999760 -72.88 0.999760 -72.88 0.021707 35.240
8.84560000 0.021718 -1.026 0.999759 -72.88 0.999759 -72.88 0.021721 35.263
8.84580000 0.021732 -1.054 0.999759 -72.89 0.999759 -72.89 0.021735 35.286
8.84600000 0.021747 -1.083 0.999759 -72.89 0.999759 -72.89 0.021750 35.310
8.84620000 0.021761 -1.112 0.999758 -72.89 0.999758 -72.89 0.021765 35.333
8.84640000 0.021776 -1.141 0.999758 -72.89 0.999758 -72.89 0.021779 35.357
8.84660000 0.021791 -1.170 0.999758 -72.90 0.999758 -72.90 0.021794 35.380
8.84680000 0.021806 -1.199 0.999757 -72.90 0.999757 -72.90 0.021809 35.404
8.84700000 0.021821 -1.228 0.999757 -72.90 0.999757 -72.90 0.021824 35.428
8.84720000 0.021836 -1.258 0.999757 -72.90 0.999757 -72.90 0.021839 35.452
8.84740000 0.021851 -1.288 0.999756 -72.91 0.999756 -72.91 0.021855 35.476
8.84760000 0.021867 -1.318 0.999756 -72.91 0.999756 -72.91 0.021870 35.501
8.84780000 0.021882 -1.348 0.999756 -72.91 0.999756 -72.91 0.021886 35.525
8.84800000 0.021898 -1.378 0.999755 -72.91 0.999755 -72.91 0.021901 35.550
8.84820000 0.021914 -1.408 0.999755 -72.92 0.999755 -72.92 0.021917 35.575
8.84840000 0.021929 -1.439 0.999755 -72.92 0.999755 -72.92 0.021933 35.600
8.84860000 0.021945 -1.469 0.999754 -72.92 0.999754 -72.92 0.021949 35.625
8.84880000 0.021961 -1.500 0.999754 -72.93 0.999754 -72.93 0.021965 35.650
8.84900000 0.021978 -1.531 0.999754 -72.93 0.999754 -72.93 0.021981 35.675
8.84920000 0.021994 -1.562 0.999753 -72.93 0.999753 -72.93 0.021997 35.701
8.84940000 0.022010 -1.594 0.999753 -72.93 0.999753 -72.93 0.022014 35.727
8.84960000 0.022027 -1.625 0.999752 -72.94 0.999752 -72.94 0.022031 35.752
8.84980000 0.022044 -1.657 0.999752 -72.94 0.999752 -72.94 0.022047 35.778
8.85000000 0.022061 -1.689 0.999752 -72.94 0.999752 -72.94 0.022064 35.805
8.85020000 0.022077 -1.721 0.999751 -72.95 0.999751 -72.95 0.022081 35.831
8.85040000 0.022095 -1.753 0.999751 -72.95 0.999751 -72.95 0.022098 35.857
8.85060000 0.022112 -1.786 0.999750 -72.95 0.999750 -72.95 0.022115 35.884
8.85080000 0.022129 -1.818 0.999750 -72.95 0.999750 -72.95 0.022133 35.911
8.85100000 0.022147 -1.851 0.999750 -72.96 0.999750 -72.96 0.022150 35.938
8.85120000 0.022164 -1.884 0.999749 -72.96 0.999749 -72.96 0.022168 35.965
8.85140000 0.022182 -1.917 0.999749 -72.96 0.999749 -72.96 0.022186 35.992
8.85160000 0.022200 -1.951 0.999748 -72.97 0.999748 -72.97 0.022204 36.020
