! Sonnet Data File
! From: emgraph Version : 16.52
! From Project: Resonator2_cp
! Data is De-embedded 
! Data File Written: 10/07/2017 00:08:07
!< HDATE 10/06/2017 20:18:08
!< MDATE 10/06/2017 20:18:08
!< PARAMS
!< gap = 16.0
!< Length = 400.0
!< Pwid1 = 2000.0
!< Pwid2 = 2000.0
!< Air_gap = 12.0
!< Width = 20.0
!< END PARAMS
# GHZ S MA R 40.13000
8.80000000 0.031665 1.4344 0.999494 -74.45 0.999494 -74.45 0.031667 29.674
!< P1 F=8.8 Eeff=(5.24625567 -2.3027e-5) Z0=(40.1432274 8.93341e-5) R=0.0 C=0.0 
!< P2 F=8.8 Eeff=(5.24625567 -2.3027e-5) Z0=(40.1432274 8.93341e-5) R=0.0 C=0.0 
8.80020000 0.031677 1.4222 0.999494 -74.45 0.999494 -74.45 0.031679 29.681
8.80040000 0.031688 1.4100 0.999494 -74.45 0.999494 -74.45 0.031690 29.689
8.80060000 0.031700 1.3977 0.999493 -74.45 0.999493 -74.45 0.031702 29.696
8.80080000 0.031712 1.3854 0.999493 -74.46 0.999493 -74.46 0.031714 29.703
8.80100000 0.031723 1.3731 0.999493 -74.46 0.999493 -74.46 0.031725 29.711
8.80120000 0.031735 1.3607 0.999492 -74.46 0.999492 -74.46 0.031737 29.718
8.80140000 0.031747 1.3483 0.999492 -74.46 0.999492 -74.46 0.031749 29.726
8.80160000 0.031759 1.3359 0.999491 -74.47 0.999491 -74.47 0.031761 29.733
8.80180000 0.031771 1.3234 0.999491 -74.47 0.999491 -74.47 0.031773 29.741
8.80200000 0.031783 1.3109 0.999491 -74.47 0.999491 -74.47 0.031785 29.748
8.80220000 0.031795 1.2984 0.999490 -74.47 0.999490 -74.47 0.031797 29.756
8.80240000 0.031807 1.2858 0.999490 -74.48 0.999490 -74.48 0.031809 29.764
8.80260000 0.031819 1.2732 0.999489 -74.48 0.999489 -74.48 0.031821 29.771
8.80280000 0.031831 1.2605 0.999489 -74.48 0.999489 -74.48 0.031833 29.779
8.80300000 0.031843 1.2478 0.999489 -74.48 0.999489 -74.48 0.031845 29.787
8.80320000 0.031855 1.2351 0.999488 -74.49 0.999488 -74.49 0.031858 29.795
8.80340000 0.031868 1.2223 0.999488 -74.49 0.999488 -74.49 0.031870 29.802
8.80360000 0.031880 1.2095 0.999487 -74.49 0.999487 -74.49 0.031882 29.810
8.80380000 0.031892 1.1967 0.999487 -74.49 0.999487 -74.49 0.031895 29.818
8.80400000 0.031905 1.1838 0.999487 -74.50 0.999487 -74.50 0.031907 29.826
8.80420000 0.031917 1.1709 0.999486 -74.50 0.999486 -74.50 0.031920 29.834
8.80440000 0.031930 1.1580 0.999486 -74.50 0.999486 -74.50 0.031932 29.842
8.80460000 0.031943 1.1450 0.999485 -74.50 0.999485 -74.50 0.031945 29.850
8.80480000 0.031955 1.1320 0.999485 -74.51 0.999485 -74.51 0.031957 29.858
8.80500000 0.031968 1.1189 0.999485 -74.51 0.999485 -74.51 0.031970 29.866
8.80520000 0.031981 1.1058 0.999484 -74.51 0.999484 -74.51 0.031983 29.874
8.80540000 0.031994 1.0926 0.999484 -74.51 0.999484 -74.51 0.031996 29.882
8.80560000 0.032006 1.0795 0.999483 -74.52 0.999483 -74.52 0.032009 29.890
8.80580000 0.032019 1.0662 0.999483 -74.52 0.999483 -74.52 0.032022 29.898
8.80600000 0.032032 1.0530 0.999483 -74.52 0.999483 -74.52 0.032035 29.906
8.80620000 0.032045 1.0397 0.999482 -74.52 0.999482 -74.52 0.032048 29.915
8.80640000 0.032058 1.0263 0.999482 -74.53 0.999482 -74.53 0.032061 29.923
8.80660000 0.032072 1.0130 0.999481 -74.53 0.999481 -74.53 0.032074 29.931
8.80680000 0.032085 0.9996 0.999481 -74.53 0.999481 -74.53 0.032087 29.940
8.80700000 0.032098 0.9861 0.999480 -74.53 0.999480 -74.53 0.032100 29.948
8.80720000 0.032111 0.9726 0.999480 -74.54 0.999480 -74.54 0.032114 29.956
8.80740000 0.032125 0.9591 0.999479 -74.54 0.999479 -74.54 0.032127 29.965
8.80760000 0.032138 0.9455 0.999479 -74.54 0.999479 -74.54 0.032141 29.973
8.80780000 0.032152 0.9318 0.999479 -74.54 0.999479 -74.54 0.032154 29.982
8.80800000 0.032165 0.9182 0.999478 -74.55 0.999478 -74.55 0.032168 29.990
8.80820000 0.032179 0.9045 0.999478 -74.55 0.999478 -74.55 0.032181 29.999
8.80840000 0.032193 0.8907 0.999477 -74.55 0.999477 -74.55 0.032195 30.007
8.80860000 0.032206 0.8769 0.999477 -74.55 0.999477 -74.55 0.032209 30.016
8.80880000 0.032220 0.8631 0.999476 -74.56 0.999476 -74.56 0.032222 30.025
8.80900000 0.032234 0.8492 0.999476 -74.56 0.999476 -74.56 0.032236 30.034
8.80920000 0.032248 0.8353 0.999475 -74.56 0.999475 -74.56 0.032250 30.042
8.80940000 0.032262 0.8213 0.999475 -74.56 0.999475 -74.56 0.032264 30.051
8.80960000 0.032276 0.8073 0.999475 -74.57 0.999475 -74.57 0.032278 30.060
8.80980000 0.032290 0.7933 0.999474 -74.57 0.999474 -74.57 0.032292 30.069
8.81000000 0.032304 0.7792 0.999474 -74.57 0.999474 -74.57 0.032307 30.078
8.81020000 0.032318 0.7651 0.999473 -74.58 0.999473 -74.58 0.032321 30.087
8.81040000 0.032333 0.7509 0.999473 -74.58 0.999473 -74.58 0.032335 30.095
8.81060000 0.032347 0.7366 0.999472 -74.58 0.999472 -74.58 0.032349 30.104
8.81080000 0.032362 0.7224 0.999472 -74.58 0.999472 -74.58 0.032364 30.114
8.81100000 0.032376 0.7081 0.999471 -74.59 0.999471 -74.59 0.032378 30.123
8.81120000 0.032391 0.6937 0.999471 -74.59 0.999471 -74.59 0.032393 30.132
8.81140000 0.032405 0.6793 0.999470 -74.59 0.999470 -74.59 0.032408 30.141
8.81160000 0.032420 0.6648 0.999470 -74.59 0.999470 -74.59 0.032422 30.150
8.81180000 0.032435 0.6503 0.999469 -74.60 0.999469 -74.60 0.032437 30.159
8.81200000 0.032449 0.6358 0.999469 -74.60 0.999469 -74.60 0.032452 30.169
8.81220000 0.032464 0.6212 0.999468 -74.60 0.999468 -74.60 0.032467 30.178
8.81240000 0.032479 0.6065 0.999468 -74.60 0.999468 -74.60 0.032482 30.187
8.81260000 0.032494 0.5919 0.999467 -74.61 0.999467 -74.61 0.032497 30.197
8.81280000 0.032509 0.5771 0.999467 -74.61 0.999467 -74.61 0.032512 30.206
8.81300000 0.032524 0.5623 0.999466 -74.61 0.999466 -74.61 0.032527 30.215
8.81320000 0.032540 0.5475 0.999466 -74.61 0.999466 -74.61 0.032542 30.225
8.81340000 0.032555 0.5326 0.999465 -74.62 0.999465 -74.62 0.032557 30.234
8.81360000 0.032570 0.5177 0.999465 -74.62 0.999465 -74.62 0.032573 30.244
8.81380000 0.032586 0.5027 0.999464 -74.62 0.999464 -74.62 0.032588 30.254
8.81400000 0.032601 0.4877 0.999464 -74.63 0.999464 -74.63 0.032604 30.263
8.81420000 0.032617 0.4726 0.999463 -74.63 0.999463 -74.63 0.032619 30.273
8.81440000 0.032633 0.4575 0.999463 -74.63 0.999463 -74.63 0.032635 30.283
8.81460000 0.032648 0.4423 0.999462 -74.63 0.999462 -74.63 0.032651 30.292
8.81480000 0.032664 0.4271 0.999462 -74.64 0.999462 -74.64 0.032667 30.302
8.81500000 0.032680 0.4118 0.999461 -74.64 0.999461 -74.64 0.032683 30.312
8.81520000 0.032696 0.3965 0.999461 -74.64 0.999461 -74.64 0.032698 30.322
8.81540000 0.032712 0.3811 0.999460 -74.64 0.999460 -74.64 0.032715 30.332
8.81560000 0.032728 0.3657 0.999460 -74.65 0.999460 -74.65 0.032731 30.342
8.81580000 0.032744 0.3502 0.999459 -74.65 0.999459 -74.65 0.032747 30.352
8.81600000 0.032761 0.3347 0.999458 -74.65 0.999458 -74.65 0.032763 30.362
8.81620000 0.032777 0.3191 0.999458 -74.66 0.999458 -74.66 0.032779 30.372
8.81640000 0.032793 0.3035 0.999457 -74.66 0.999457 -74.66 0.032796 30.382
8.81660000 0.032810 0.2878 0.999457 -74.66 0.999457 -74.66 0.032812 30.392
8.81680000 0.032826 0.2720 0.999456 -74.66 0.999456 -74.66 0.032829 30.403
8.81700000 0.032843 0.2562 0.999456 -74.67 0.999456 -74.67 0.032846 30.413
8.81720000 0.032860 0.2404 0.999455 -74.67 0.999455 -74.67 0.032862 30.423
8.81740000 0.032877 0.2245 0.999455 -74.67 0.999455 -74.67 0.032879 30.434
8.81760000 0.032893 0.2085 0.999454 -74.67 0.999454 -74.67 0.032896 30.444
8.81780000 0.032910 0.1925 0.999453 -74.68 0.999453 -74.68 0.032913 30.455
8.81800000 0.032927 0.1764 0.999453 -74.68 0.999453 -74.68 0.032930 30.465
8.81820000 0.032945 0.1603 0.999452 -74.68 0.999452 -74.68 0.032947 30.476
8.81840000 0.032962 0.1441 0.999452 -74.69 0.999452 -74.69 0.032965 30.486
8.81860000 0.032979 0.1279 0.999451 -74.69 0.999451 -74.69 0.032982 30.497
8.81880000 0.032997 0.1116 0.999451 -74.69 0.999451 -74.69 0.032999 30.508
8.81900000 0.033014 0.0952 0.999450 -74.69 0.999450 -74.69 0.033017 30.518
8.81920000 0.033032 0.0788 0.999449 -74.70 0.999449 -74.70 0.033034 30.529
8.81940000 0.033049 0.0624 0.999449 -74.70 0.999449 -74.70 0.033052 30.540
8.81960000 0.033067 0.0458 0.999448 -74.70 0.999448 -74.70 0.033070 30.551
8.81980000 0.033085 0.0293 0.999448 -74.70 0.999448 -74.70 0.033088 30.562
8.82000000 0.033103 0.0126 0.999447 -74.71 0.999447 -74.71 0.033106 30.573
8.82020000 0.033121 0.0000 0.999446 -74.71 0.999446 -74.71 0.033124 30.584
8.82040000 0.033139 -0.021 0.999446 -74.71 0.999446 -74.71 0.033142 30.595
8.82060000 0.033157 -0.038 0.999445 -74.72 0.999445 -74.72 0.033160 30.606
8.82080000 0.033175 -0.055 0.999445 -74.72 0.999445 -74.72 0.033178 30.617
8.82100000 0.033194 -0.071 0.999444 -74.72 0.999444 -74.72 0.033197 30.628
8.82120000 0.033212 -0.088 0.999443 -74.72 0.999443 -74.72 0.033215 30.639
8.82140000 0.033231 -0.106 0.999443 -74.73 0.999443 -74.73 0.033234 30.651
8.82160000 0.033250 -0.123 0.999442 -74.73 0.999442 -74.73 0.033252 30.662
8.82180000 0.033268 -0.140 0.999441 -74.73 0.999441 -74.73 0.033271 30.673
8.82200000 0.033287 -0.157 0.999441 -74.74 0.999441 -74.74 0.033290 30.685
8.82220000 0.033306 -0.174 0.999440 -74.74 0.999440 -74.74 0.033309 30.696
8.82240000 0.033325 -0.192 0.999439 -74.74 0.999439 -74.74 0.033328 30.708
8.82260000 0.033344 -0.209 0.999439 -74.74 0.999439 -74.74 0.033347 30.720
8.82280000 0.033364 -0.227 0.999438 -74.75 0.999438 -74.75 0.033366 30.731
8.82300000 0.033383 -0.244 0.999438 -74.75 0.999438 -74.75 0.033386 30.743
8.82320000 0.033402 -0.262 0.999437 -74.75 0.999437 -74.75 0.033405 30.755
8.82340000 0.033422 -0.280 0.999436 -74.76 0.999436 -74.76 0.033425 30.766
8.82360000 0.033442 -0.297 0.999436 -74.76 0.999436 -74.76 0.033445 30.778
8.82380000 0.033461 -0.315 0.999435 -74.76 0.999435 -74.76 0.033464 30.790
8.82400000 0.033481 -0.333 0.999434 -74.77 0.999434 -74.77 0.033484 30.802
8.82420000 0.033501 -0.351 0.999434 -74.77 0.999434 -74.77 0.033504 30.814
8.82440000 0.033521 -0.369 0.999433 -74.77 0.999433 -74.77 0.033524 30.826
8.82460000 0.033542 -0.387 0.999432 -74.77 0.999432 -74.77 0.033544 30.838
8.82480000 0.033562 -0.405 0.999431 -74.78 0.999431 -74.78 0.033565 30.851
8.82500000 0.033582 -0.424 0.999431 -74.78 0.999431 -74.78 0.033585 30.863
8.82520000 0.033603 -0.442 0.999430 -74.78 0.999430 -74.78 0.033606 30.875
8.82540000 0.033623 -0.460 0.999429 -74.79 0.999429 -74.79 0.033626 30.888
8.82560000 0.033644 -0.479 0.999429 -74.79 0.999429 -74.79 0.033647 30.900
8.82580000 0.033665 -0.497 0.999428 -74.79 0.999428 -74.79 0.033668 30.912
8.82600000 0.033686 -0.516 0.999427 -74.80 0.999427 -74.80 0.033689 30.925
8.82620000 0.033707 -0.534 0.999426 -74.80 0.999426 -74.80 0.033710 30.937
8.82640000 0.033728 -0.553 0.999426 -74.80 0.999426 -74.80 0.033731 30.950
8.82660000 0.033750 -0.572 0.999425 -74.80 0.999425 -74.80 0.033753 30.963
8.82680000 0.033771 -0.591 0.999424 -74.81 0.999424 -74.81 0.033774 30.976
8.82700000 0.033793 -0.610 0.999424 -74.81 0.999424 -74.81 0.033796 30.988
8.82720000 0.033814 -0.629 0.999423 -74.81 0.999423 -74.81 0.033817 31.001
8.82740000 0.033836 -0.648 0.999422 -74.82 0.999422 -74.82 0.033839 31.014
8.82760000 0.033858 -0.667 0.999421 -74.82 0.999421 -74.82 0.033861 31.027
8.82780000 0.033880 -0.686 0.999421 -74.82 0.999421 -74.82 0.033883 31.040
8.82800000 0.033902 -0.705 0.999420 -74.83 0.999420 -74.83 0.033905 31.053
8.82820000 0.033924 -0.725 0.999419 -74.83 0.999419 -74.83 0.033927 31.066
8.82840000 0.033947 -0.744 0.999418 -74.83 0.999418 -74.83 0.033950 31.080
8.82860000 0.033969 -0.764 0.999417 -74.83 0.999417 -74.83 0.033972 31.093
8.82880000 0.033992 -0.783 0.999417 -74.84 0.999417 -74.84 0.033995 31.106
8.82900000 0.034015 -0.803 0.999416 -74.84 0.999416 -74.84 0.034018 31.120
8.82920000 0.034038 -0.823 0.999415 -74.84 0.999415 -74.84 0.034041 31.133
8.82940000 0.034061 -0.843 0.999414 -74.85 0.999414 -74.85 0.034064 31.147
8.82960000 0.034084 -0.863 0.999413 -74.85 0.999413 -74.85 0.034087 31.160
8.82980000 0.034107 -0.883 0.999413 -74.85 0.999413 -74.85 0.034110 31.174
8.83000000 0.034131 -0.903 0.999412 -74.86 0.999412 -74.86 0.034134 31.188
8.83020000 0.034154 -0.923 0.999411 -74.86 0.999411 -74.86 0.034157 31.201
8.83040000 0.034178 -0.943 0.999410 -74.86 0.999410 -74.86 0.034181 31.215
8.83060000 0.034202 -0.964 0.999409 -74.87 0.999409 -74.87 0.034205 31.229
8.83080000 0.034226 -0.984 0.999408 -74.87 0.999408 -74.87 0.034229 31.243
8.83100000 0.034250 -1.004 0.999408 -74.87 0.999408 -74.87 0.034253 31.257
8.83120000 0.034274 -1.025 0.999407 -74.88 0.999407 -74.88 0.034278 31.271
8.83140000 0.034299 -1.046 0.999406 -74.88 0.999406 -74.88 0.034302 31.286
8.83160000 0.034323 -1.067 0.999405 -74.88 0.999405 -74.88 0.034327 31.300
8.83180000 0.034348 -1.087 0.999404 -74.89 0.999404 -74.89 0.034351 31.314
8.83200000 0.034373 -1.108 0.999403 -74.89 0.999403 -74.89 0.034376 31.329
8.83220000 0.034398 -1.129 0.999402 -74.89 0.999402 -74.89 0.034401 31.343
8.83240000 0.034423 -1.150 0.999402 -74.90 0.999402 -74.90 0.034426 31.358
8.83260000 0.034448 -1.172 0.999401 -74.90 0.999401 -74.90 0.034452 31.372
8.83280000 0.034474 -1.193 0.999400 -74.90 0.999400 -74.90 0.034477 31.387
8.83300000 0.034499 -1.214 0.999399 -74.91 0.999399 -74.91 0.034503 31.401
8.83320000 0.034525 -1.236 0.999398 -74.91 0.999398 -74.91 0.034529 31.416
8.83340000 0.034551 -1.257 0.999397 -74.91 0.999397 -74.91 0.034555 31.431
8.83360000 0.034577 -1.279 0.999396 -74.92 0.999396 -74.92 0.034581 31.446
8.83380000 0.034603 -1.301 0.999395 -74.92 0.999395 -74.92 0.034607 31.461
8.83400000 0.034630 -1.322 0.999394 -74.92 0.999394 -74.92 0.034633 31.476
8.83420000 0.034656 -1.344 0.999393 -74.93 0.999393 -74.93 0.034660 31.491
8.83440000 0.034683 -1.366 0.999392 -74.93 0.999392 -74.93 0.034687 31.507
8.83460000 0.034710 -1.388 0.999391 -74.93 0.999391 -74.93 0.034714 31.522
8.83480000 0.034737 -1.411 0.999391 -74.94 0.999391 -74.94 0.034741 31.537
8.83500000 0.034764 -1.433 0.999390 -74.94 0.999390 -74.94 0.034768 31.553
8.83520000 0.034792 -1.455 0.999389 -74.94 0.999389 -74.94 0.034795 31.568
8.83540000 0.034819 -1.478 0.999388 -74.95 0.999388 -74.95 0.034823 31.584
8.83560000 0.034847 -1.500 0.999387 -74.95 0.999387 -74.95 0.034851 31.600
8.83580000 0.034875 -1.523 0.999386 -74.95 0.999386 -74.95 0.034879 31.615
8.83600000 0.034903 -1.546 0.999385 -74.96 0.999385 -74.96 0.034907 31.631
8.83620000 0.034931 -1.569 0.999384 -74.96 0.999384 -74.96 0.034935 31.647
8.83640000 0.034960 -1.592 0.999383 -74.96 0.999383 -74.96 0.034964 31.663
8.83660000 0.034989 -1.615 0.999382 -74.97 0.999382 -74.97 0.034992 31.679
8.83680000 0.035017 -1.638 0.999381 -74.97 0.999381 -74.97 0.035021 31.695
8.83700000 0.035046 -1.661 0.999379 -74.97 0.999379 -74.97 0.035050 31.712
8.83720000 0.035076 -1.685 0.999378 -74.98 0.999378 -74.98 0.035079 31.728
8.83740000 0.035105 -1.708 0.999377 -74.98 0.999377 -74.98 0.035109 31.744
8.83760000 0.035135 -1.732 0.999376 -74.98 0.999376 -74.98 0.035138 31.761
8.83780000 0.035164 -1.756 0.999375 -74.99 0.999375 -74.99 0.035168 31.777
8.83800000 0.035194 -1.779 0.999374 -74.99 0.999374 -74.99 0.035198 31.794
8.83820000 0.035224 -1.803 0.999373 -74.99 0.999373 -74.99 0.035228 31.811
8.83840000 0.035255 -1.827 0.999372 -75.00 0.999372 -75.00 0.035259 31.827
8.83860000 0.035285 -1.851 0.999371 -75.00 0.999371 -75.00 0.035289 31.844
8.83880000 0.035316 -1.876 0.999370 -75.01 0.999370 -75.01 0.035320 31.861
8.83900000 0.035347 -1.900 0.999369 -75.01 0.999369 -75.01 0.035351 31.878
8.83920000 0.035378 -1.925 0.999368 -75.01 0.999368 -75.01 0.035382 31.896
8.83940000 0.035410 -1.949 0.999366 -75.02 0.999366 -75.02 0.035414 31.913
8.83960000 0.035441 -1.974 0.999365 -75.02 0.999365 -75.02 0.035445 31.930
8.83980000 0.035473 -1.999 0.999364 -75.02 0.999364 -75.02 0.035477 31.947
8.84000000 0.035505 -2.024 0.999363 -75.03 0.999363 -75.03 0.035509 31.965
8.84020000 0.035537 -2.049 0.999362 -75.03 0.999362 -75.03 0.035541 31.983
8.84040000 0.035570 -2.074 0.999361 -75.03 0.999361 -75.03 0.035574 32.000
8.84060000 0.035603 -2.099 0.999359 -75.04 0.999359 -75.04 0.035606 32.018
8.84080000 0.035635 -2.124 0.999358 -75.04 0.999358 -75.04 0.035639 32.036
8.84100000 0.035669 -2.150 0.999357 -75.05 0.999357 -75.05 0.035673 32.054
8.84120000 0.035702 -2.176 0.999356 -75.05 0.999356 -75.05 0.035706 32.072
8.84140000 0.035736 -2.201 0.999355 -75.05 0.999355 -75.05 0.035740 32.090
8.84160000 0.035769 -2.227 0.999353 -75.06 0.999353 -75.06 0.035773 32.108
8.84180000 0.035803 -2.253 0.999352 -75.06 0.999352 -75.06 0.035807 32.127
8.84200000 0.035838 -2.279 0.999351 -75.06 0.999351 -75.06 0.035842 32.145
8.84220000 0.035872 -2.306 0.999350 -75.07 0.999350 -75.07 0.035876 32.163
8.84240000 0.035907 -2.332 0.999348 -75.07 0.999348 -75.07 0.035911 32.182
8.84260000 0.035942 -2.359 0.999347 -75.08 0.999347 -75.08 0.035946 32.201
8.84280000 0.035977 -2.385 0.999346 -75.08 0.999346 -75.08 0.035982 32.220
8.84300000 0.036013 -2.412 0.999344 -75.08 0.999344 -75.08 0.036017 32.238
8.84320000 0.036049 -2.439 0.999343 -75.09 0.999343 -75.09 0.036053 32.257
8.84340000 0.036085 -2.466 0.999342 -75.09 0.999342 -75.09 0.036089 32.277
8.84360000 0.036121 -2.493 0.999340 -75.10 0.999340 -75.10 0.036125 32.296
8.84380000 0.036158 -2.520 0.999339 -75.10 0.999339 -75.10 0.036162 32.315
8.84400000 0.036194 -2.548 0.999338 -75.10 0.999338 -75.10 0.036199 32.334
8.84420000 0.036232 -2.575 0.999336 -75.11 0.999336 -75.11 0.036236 32.354
8.84440000 0.036269 -2.603 0.999335 -75.11 0.999335 -75.11 0.036273 32.374
8.84460000 0.036307 -2.631 0.999334 -75.12 0.999334 -75.12 0.036311 32.393
8.84480000 0.036344 -2.659 0.999332 -75.12 0.999332 -75.12 0.036349 32.413
8.84500000 0.036383 -2.687 0.999331 -75.12 0.999331 -75.12 0.036387 32.433
8.84520000 0.036421 -2.715 0.999329 -75.13 0.999329 -75.13 0.036426 32.453
8.84540000 0.036460 -2.744 0.999328 -75.13 0.999328 -75.13 0.036464 32.473
8.84560000 0.036499 -2.772 0.999326 -75.14 0.999326 -75.14 0.036503 32.493
8.84580000 0.036538 -2.801 0.999325 -75.14 0.999325 -75.14 0.036543 32.514
8.84600000 0.036578 -2.830 0.999323 -75.14 0.999323 -75.14 0.036583 32.534
8.84620000 0.036618 -2.859 0.999322 -75.15 0.999322 -75.15 0.036622 32.555
8.84640000 0.036658 -2.888 0.999320 -75.15 0.999320 -75.15 0.036663 32.575
8.84660000 0.036699 -2.917 0.999319 -75.16 0.999319 -75.16 0.036703 32.596
8.84680000 0.036740 -2.947 0.999317 -75.16 0.999317 -75.16 0.036744 32.617
8.84700000 0.036781 -2.976 0.999316 -75.17 0.999316 -75.17 0.036785 32.638
8.84720000 0.036822 -3.006 0.999314 -75.17 0.999314 -75.17 0.036827 32.659
8.84740000 0.036864 -3.036 0.999313 -75.17 0.999313 -75.17 0.036869 32.681
8.84760000 0.036906 -3.066 0.999311 -75.18 0.999311 -75.18 0.036911 32.702
8.84780000 0.036949 -3.096 0.999309 -75.18 0.999309 -75.18 0.036954 32.723
8.84800000 0.036992 -3.126 0.999308 -75.19 0.999308 -75.19 0.036996 32.745
8.84820000 0.037035 -3.157 0.999306 -75.19 0.999306 -75.19 0.037040 32.767
8.84840000 0.037078 -3.188 0.999305 -75.20 0.999305 -75.20 0.037083 32.789
8.84860000 0.037122 -3.218 0.999303 -75.20 0.999303 -75.20 0.037127 32.811
8.84880000 0.037166 -3.250 0.999301 -75.20 0.999301 -75.20 0.037171 32.833
8.84900000 0.037211 -3.281 0.999300 -75.21 0.999300 -75.21 0.037216 32.855
8.84920000 0.037256 -3.312 0.999298 -75.21 0.999298 -75.21 0.037261 32.877
8.84940000 0.037301 -3.344 0.999296 -75.22 0.999296 -75.22 0.037306 32.900
8.84960000 0.037347 -3.375 0.999294 -75.22 0.999294 -75.22 0.037352 32.922
8.84980000 0.037393 -3.407 0.999293 -75.23 0.999293 -75.23 0.037398 32.945
8.85000000 0.037439 -3.439 0.999291 -75.23 0.999291 -75.23 0.037444 32.968
8.85020000 0.037486 -3.471 0.999289 -75.24 0.999289 -75.24 0.037491 32.991
8.85040000 0.037533 -3.504 0.999287 -75.24 0.999287 -75.24 0.037538 33.014
8.85060000 0.037580 -3.536 0.999285 -75.25 0.999285 -75.25 0.037585 33.037
8.85080000 0.037628 -3.569 0.999284 -75.25 0.999284 -75.25 0.037633 33.060
8.85100000 0.037677 -3.602 0.999282 -75.25 0.999282 -75.25 0.037682 33.084
8.85120000 0.037725 -3.635 0.999280 -75.26 0.999280 -75.26 0.037730 33.107
8.85140000 0.037774 -3.668 0.999278 -75.26 0.999278 -75.26 0.037780 33.131
8.85160000 0.037824 -3.702 0.999276 -75.27 0.999276 -75.27 0.037829 33.155
