! Sonnet Data File
! From: emgraph Version : 16.52
! From Project: Resonator2
! Data is De-embedded 
! Data File Written: 10/05/2017 10:46:04
!< HDATE 10/04/2017 20:26:48
!< MDATE 10/05/2017 00:36:07
!< PARAMS
!< gap = 6.0
!< Length = 400.0
!< Pwid1 = 1500.0
!< Pwid2 = 1500.0
!< END PARAMS
# GHZ S MA R 50.00000
8.80000000 0.207008 -164.4 0.978332 -78.78 0.978332 -78.78 0.207003 -173.2
!< P1 F=8.8 Eeff=(5.57630778 -2.4821e-5) Z0=(37.9068886 8.51285e-5) R=0.0 C=0.0 
!< P2 F=8.8 Eeff=(5.57630778 -2.4821e-5) Z0=(37.9068886 8.51285e-5) R=0.0 C=0.0 
8.80020000 0.206972 -164.4 0.978340 -78.78 0.978340 -78.78 0.206967 -173.2
8.80040000 0.206936 -164.4 0.978347 -78.79 0.978347 -78.79 0.206931 -173.2
8.80060000 0.206900 -164.4 0.978355 -78.79 0.978355 -78.79 0.206895 -173.2
8.80080000 0.206864 -164.4 0.978363 -78.79 0.978363 -78.79 0.206859 -173.2
8.80100000 0.206827 -164.4 0.978370 -78.80 0.978370 -78.80 0.206822 -173.2
8.80120000 0.206790 -164.4 0.978378 -78.80 0.978378 -78.80 0.206786 -173.2
8.80140000 0.206754 -164.4 0.978386 -78.81 0.978386 -78.81 0.206749 -173.3
8.80160000 0.206717 -164.4 0.978393 -78.81 0.978393 -78.81 0.206712 -173.3
8.80180000 0.206680 -164.4 0.978401 -78.82 0.978401 -78.82 0.206675 -173.3
8.80200000 0.206642 -164.4 0.978409 -78.82 0.978409 -78.82 0.206638 -173.3
8.80220000 0.206605 -164.4 0.978417 -78.83 0.978417 -78.83 0.206600 -173.3
8.80240000 0.206567 -164.3 0.978425 -78.83 0.978425 -78.83 0.206563 -173.3
8.80260000 0.206530 -164.3 0.978433 -78.83 0.978433 -78.83 0.206525 -173.3
8.80280000 0.206492 -164.3 0.978441 -78.84 0.978441 -78.84 0.206487 -173.3
8.80300000 0.206454 -164.3 0.978449 -78.84 0.978449 -78.84 0.206449 -173.3
8.80320000 0.206415 -164.3 0.978457 -78.85 0.978457 -78.85 0.206410 -173.4
8.80340000 0.206377 -164.3 0.978465 -78.85 0.978465 -78.85 0.206372 -173.4
8.80360000 0.206338 -164.3 0.978473 -78.86 0.978473 -78.86 0.206333 -173.4
8.80380000 0.206299 -164.3 0.978481 -78.86 0.978481 -78.86 0.206294 -173.4
8.80400000 0.206260 -164.3 0.978490 -78.87 0.978490 -78.87 0.206256 -173.4
8.80420000 0.206221 -164.3 0.978498 -78.87 0.978498 -78.87 0.206216 -173.4
8.80440000 0.206182 -164.3 0.978506 -78.87 0.978506 -78.87 0.206177 -173.4
8.80460000 0.206143 -164.3 0.978514 -78.88 0.978514 -78.88 0.206138 -173.4
8.80480000 0.206103 -164.3 0.978523 -78.88 0.978523 -78.88 0.206098 -173.4
8.80500000 0.206063 -164.3 0.978531 -78.89 0.978531 -78.89 0.206058 -173.5
8.80520000 0.206023 -164.3 0.978539 -78.89 0.978539 -78.89 0.206018 -173.5
8.80540000 0.205983 -164.3 0.978548 -78.90 0.978548 -78.90 0.205978 -173.5
8.80560000 0.205943 -164.3 0.978556 -78.90 0.978556 -78.90 0.205937 -173.5
8.80580000 0.205902 -164.3 0.978565 -78.91 0.978565 -78.91 0.205897 -173.5
8.80600000 0.205861 -164.3 0.978573 -78.91 0.978573 -78.91 0.205856 -173.5
8.80620000 0.205820 -164.3 0.978582 -78.92 0.978582 -78.92 0.205815 -173.5
8.80640000 0.205779 -164.3 0.978591 -78.92 0.978591 -78.92 0.205774 -173.5
8.80660000 0.205738 -164.3 0.978599 -78.93 0.978599 -78.93 0.205733 -173.6
8.80680000 0.205697 -164.3 0.978608 -78.93 0.978608 -78.93 0.205691 -173.6
8.80700000 0.205655 -164.3 0.978617 -78.93 0.978617 -78.93 0.205649 -173.6
8.80720000 0.205613 -164.3 0.978625 -78.94 0.978625 -78.94 0.205608 -173.6
8.80740000 0.205571 -164.3 0.978634 -78.94 0.978634 -78.94 0.205566 -173.6
8.80760000 0.205529 -164.3 0.978643 -78.95 0.978643 -78.95 0.205523 -173.6
8.80780000 0.205486 -164.3 0.978652 -78.95 0.978652 -78.95 0.205481 -173.6
8.80800000 0.205444 -164.3 0.978661 -78.96 0.978661 -78.96 0.205438 -173.6
8.80820000 0.205401 -164.3 0.978670 -78.96 0.978670 -78.96 0.205395 -173.7
8.80840000 0.205358 -164.3 0.978679 -78.97 0.978679 -78.97 0.205352 -173.7
8.80860000 0.205314 -164.3 0.978688 -78.97 0.978688 -78.97 0.205309 -173.7
8.80880000 0.205271 -164.3 0.978697 -78.98 0.978697 -78.98 0.205265 -173.7
8.80900000 0.205227 -164.3 0.978706 -78.98 0.978706 -78.98 0.205222 -173.7
8.80920000 0.205184 -164.2 0.978715 -78.99 0.978715 -78.99 0.205178 -173.7
8.80940000 0.205139 -164.2 0.978725 -78.99 0.978725 -78.99 0.205134 -173.7
8.80960000 0.205095 -164.2 0.978734 -79.00 0.978734 -79.00 0.205090 -173.8
8.80980000 0.205051 -164.2 0.978743 -79.00 0.978743 -79.00 0.205045 -173.8
8.81000000 0.205006 -164.2 0.978752 -79.01 0.978752 -79.01 0.205000 -173.8
8.81020000 0.204961 -164.2 0.978762 -79.01 0.978762 -79.01 0.204955 -173.8
8.81040000 0.204916 -164.2 0.978771 -79.02 0.978771 -79.02 0.204910 -173.8
8.81060000 0.204871 -164.2 0.978781 -79.02 0.978781 -79.02 0.204865 -173.8
8.81080000 0.204825 -164.2 0.978790 -79.03 0.978790 -79.03 0.204819 -173.8
8.81100000 0.204779 -164.2 0.978800 -79.03 0.978800 -79.03 0.204774 -173.8
8.81120000 0.204733 -164.2 0.978809 -79.04 0.978809 -79.04 0.204728 -173.9
8.81140000 0.204687 -164.2 0.978819 -79.04 0.978819 -79.04 0.204681 -173.9
8.81160000 0.204641 -164.2 0.978829 -79.05 0.978829 -79.05 0.204635 -173.9
8.81180000 0.204594 -164.2 0.978838 -79.05 0.978838 -79.05 0.204588 -173.9
8.81200000 0.204547 -164.2 0.978848 -79.06 0.978848 -79.06 0.204541 -173.9
8.81220000 0.204500 -164.2 0.978858 -79.06 0.978858 -79.06 0.204494 -173.9
8.81240000 0.204453 -164.2 0.978868 -79.07 0.978868 -79.07 0.204447 -173.9
8.81260000 0.204405 -164.2 0.978878 -79.07 0.978878 -79.07 0.204399 -174.0
8.81280000 0.204358 -164.2 0.978888 -79.08 0.978888 -79.08 0.204351 -174.0
8.81300000 0.204310 -164.2 0.978898 -79.08 0.978898 -79.08 0.204303 -174.0
8.81320000 0.204261 -164.2 0.978908 -79.09 0.978908 -79.09 0.204255 -174.0
8.81340000 0.204213 -164.2 0.978918 -79.09 0.978918 -79.09 0.204206 -174.0
8.81360000 0.204164 -164.2 0.978928 -79.10 0.978928 -79.10 0.204158 -174.0
8.81380000 0.204115 -164.2 0.978938 -79.10 0.978938 -79.10 0.204109 -174.0
8.81400000 0.204066 -164.2 0.978948 -79.11 0.978948 -79.11 0.204059 -174.1
8.81420000 0.204016 -164.2 0.978959 -79.11 0.978959 -79.11 0.204010 -174.1
8.81440000 0.203967 -164.2 0.978969 -79.12 0.978969 -79.12 0.203960 -174.1
8.81460000 0.203917 -164.1 0.978979 -79.12 0.978979 -79.12 0.203910 -174.1
8.81480000 0.203867 -164.1 0.978990 -79.13 0.978990 -79.13 0.203860 -174.1
8.81500000 0.203816 -164.1 0.979000 -79.14 0.979000 -79.14 0.203809 -174.1
8.81520000 0.203765 -164.1 0.979011 -79.14 0.979011 -79.14 0.203759 -174.1
8.81540000 0.203714 -164.1 0.979021 -79.15 0.979021 -79.15 0.203708 -174.2
8.81560000 0.203663 -164.1 0.979032 -79.15 0.979032 -79.15 0.203656 -174.2
8.81580000 0.203612 -164.1 0.979043 -79.16 0.979043 -79.16 0.203605 -174.2
8.81600000 0.203560 -164.1 0.979053 -79.16 0.979053 -79.16 0.203553 -174.2
8.81620000 0.203508 -164.1 0.979064 -79.17 0.979064 -79.17 0.203501 -174.2
8.81640000 0.203456 -164.1 0.979075 -79.17 0.979075 -79.17 0.203449 -174.2
8.81660000 0.203403 -164.1 0.979086 -79.18 0.979086 -79.18 0.203396 -174.3
8.81680000 0.203350 -164.1 0.979097 -79.18 0.979097 -79.18 0.203343 -174.3
8.81700000 0.203297 -164.1 0.979108 -79.19 0.979108 -79.19 0.203290 -174.3
8.81720000 0.203244 -164.1 0.979119 -79.19 0.979119 -79.19 0.203237 -174.3
8.81740000 0.203190 -164.1 0.979130 -79.20 0.979130 -79.20 0.203183 -174.3
8.81760000 0.203136 -164.1 0.979141 -79.21 0.979141 -79.21 0.203129 -174.3
8.81780000 0.203082 -164.1 0.979152 -79.21 0.979152 -79.21 0.203075 -174.3
8.81800000 0.203028 -164.1 0.979164 -79.22 0.979164 -79.22 0.203021 -174.4
8.81820000 0.202973 -164.1 0.979175 -79.22 0.979175 -79.22 0.202966 -174.4
8.81840000 0.202918 -164.1 0.979186 -79.23 0.979186 -79.23 0.202911 -174.4
8.81860000 0.202863 -164.1 0.979198 -79.23 0.979198 -79.23 0.202855 -174.4
8.81880000 0.202807 -164.0 0.979209 -79.24 0.979209 -79.24 0.202800 -174.4
8.81900000 0.202751 -164.0 0.979221 -79.25 0.979221 -79.25 0.202744 -174.4
8.81920000 0.202695 -164.0 0.979232 -79.25 0.979232 -79.25 0.202687 -174.5
8.81940000 0.202638 -164.0 0.979244 -79.26 0.979244 -79.26 0.202631 -174.5
8.81960000 0.202582 -164.0 0.979256 -79.26 0.979256 -79.26 0.202574 -174.5
8.81980000 0.202524 -164.0 0.979268 -79.27 0.979268 -79.27 0.202517 -174.5
8.82000000 0.202467 -164.0 0.979279 -79.27 0.979279 -79.27 0.202459 -174.5
8.82020000 0.202409 -164.0 0.979291 -79.28 0.979291 -79.28 0.202402 -174.5
8.82040000 0.202351 -164.0 0.979303 -79.29 0.979303 -79.29 0.202344 -174.6
8.82060000 0.202293 -164.0 0.979315 -79.29 0.979315 -79.29 0.202285 -174.6
8.82080000 0.202234 -164.0 0.979327 -79.30 0.979327 -79.30 0.202227 -174.6
8.82100000 0.202175 -164.0 0.979339 -79.30 0.979339 -79.30 0.202168 -174.6
8.82120000 0.202116 -164.0 0.979352 -79.31 0.979352 -79.31 0.202108 -174.6
8.82140000 0.202057 -164.0 0.979364 -79.32 0.979364 -79.32 0.202049 -174.6
8.82160000 0.201997 -164.0 0.979376 -79.32 0.979376 -79.32 0.201989 -174.7
8.82180000 0.201936 -164.0 0.979389 -79.33 0.979389 -79.33 0.201928 -174.7
8.82200000 0.201876 -164.0 0.979401 -79.33 0.979401 -79.33 0.201868 -174.7
8.82220000 0.201815 -164.0 0.979414 -79.34 0.979414 -79.34 0.201807 -174.7
8.82240000 0.201754 -164.0 0.979426 -79.35 0.979426 -79.35 0.201746 -174.7
8.82260000 0.201692 -163.9 0.979439 -79.35 0.979439 -79.35 0.201684 -174.8
8.82280000 0.201630 -163.9 0.979451 -79.36 0.979451 -79.36 0.201622 -174.8
8.82300000 0.201568 -163.9 0.979464 -79.36 0.979464 -79.36 0.201560 -174.8
8.82320000 0.201505 -163.9 0.979477 -79.37 0.979477 -79.37 0.201497 -174.8
8.82340000 0.201442 -163.9 0.979490 -79.38 0.979490 -79.38 0.201434 -174.8
8.82360000 0.201379 -163.9 0.979503 -79.38 0.979503 -79.38 0.201371 -174.8
8.82380000 0.201315 -163.9 0.979516 -79.39 0.979516 -79.39 0.201307 -174.9
8.82400000 0.201251 -163.9 0.979529 -79.40 0.979529 -79.40 0.201243 -174.9
8.82420000 0.201187 -163.9 0.979542 -79.40 0.979542 -79.40 0.201178 -174.9
8.82440000 0.201122 -163.9 0.979556 -79.41 0.979556 -79.41 0.201114 -174.9
8.82460000 0.201057 -163.9 0.979569 -79.41 0.979569 -79.41 0.201048 -174.9
8.82480000 0.200992 -163.9 0.979582 -79.42 0.979582 -79.42 0.200983 -175.0
8.82500000 0.200926 -163.9 0.979596 -79.43 0.979596 -79.43 0.200917 -175.0
8.82520000 0.200860 -163.9 0.979609 -79.43 0.979609 -79.43 0.200851 -175.0
8.82540000 0.200793 -163.9 0.979623 -79.44 0.979623 -79.44 0.200784 -175.0
8.82560000 0.200726 -163.9 0.979637 -79.45 0.979637 -79.45 0.200717 -175.0
8.82580000 0.200659 -163.8 0.979650 -79.45 0.979650 -79.45 0.200650 -175.1
8.82600000 0.200591 -163.8 0.979664 -79.46 0.979664 -79.46 0.200582 -175.1
8.82620000 0.200523 -163.8 0.979678 -79.47 0.979678 -79.47 0.200514 -175.1
8.82640000 0.200454 -163.8 0.979692 -79.47 0.979692 -79.47 0.200445 -175.1
8.82660000 0.200385 -163.8 0.979706 -79.48 0.979706 -79.48 0.200376 -175.1
8.82680000 0.200316 -163.8 0.979720 -79.49 0.979720 -79.49 0.200307 -175.2
8.82700000 0.200246 -163.8 0.979734 -79.49 0.979734 -79.49 0.200237 -175.2
8.82720000 0.200176 -163.8 0.979749 -79.50 0.979749 -79.50 0.200167 -175.2
8.82740000 0.200106 -163.8 0.979763 -79.51 0.979763 -79.51 0.200096 -175.2
8.82760000 0.200035 -163.8 0.979778 -79.51 0.979778 -79.51 0.200025 -175.2
8.82780000 0.199963 -163.8 0.979792 -79.52 0.979792 -79.52 0.199954 -175.3
8.82800000 0.199891 -163.8 0.979807 -79.53 0.979807 -79.53 0.199882 -175.3
8.82820000 0.199819 -163.8 0.979821 -79.53 0.979821 -79.53 0.199809 -175.3
8.82840000 0.199747 -163.8 0.979836 -79.54 0.979836 -79.54 0.199737 -175.3
8.82860000 0.199673 -163.7 0.979851 -79.55 0.979851 -79.55 0.199664 -175.3
8.82880000 0.199600 -163.7 0.979866 -79.55 0.979866 -79.55 0.199590 -175.4
8.82900000 0.199526 -163.7 0.979881 -79.56 0.979881 -79.56 0.199516 -175.4
8.82920000 0.199451 -163.7 0.979896 -79.57 0.979896 -79.57 0.199441 -175.4
8.82940000 0.199377 -163.7 0.979911 -79.58 0.979911 -79.58 0.199366 -175.4
8.82960000 0.199301 -163.7 0.979926 -79.58 0.979926 -79.58 0.199291 -175.5
8.82980000 0.199226 -163.7 0.979942 -79.59 0.979942 -79.59 0.199215 -175.5
8.83000000 0.199149 -163.7 0.979957 -79.60 0.979957 -79.60 0.199139 -175.5
8.83020000 0.199073 -163.7 0.979973 -79.60 0.979973 -79.60 0.199062 -175.5
8.83040000 0.198995 -163.7 0.979988 -79.61 0.979988 -79.61 0.198985 -175.5
8.83060000 0.198918 -163.7 0.980004 -79.62 0.980004 -79.62 0.198907 -175.6
8.83080000 0.198840 -163.7 0.980020 -79.63 0.980020 -79.63 0.198829 -175.6
8.83100000 0.198761 -163.7 0.980036 -79.63 0.980036 -79.63 0.198750 -175.6
8.83120000 0.198682 -163.6 0.980052 -79.64 0.980052 -79.64 0.198671 -175.6
8.83140000 0.198602 -163.6 0.980068 -79.65 0.980068 -79.65 0.198591 -175.7
8.83160000 0.198522 -163.6 0.980084 -79.66 0.980084 -79.66 0.198511 -175.7
8.83180000 0.198442 -163.6 0.980100 -79.66 0.980100 -79.66 0.198431 -175.7
8.83200000 0.198361 -163.6 0.980117 -79.67 0.980117 -79.67 0.198349 -175.7
8.83220000 0.198279 -163.6 0.980133 -79.68 0.980133 -79.68 0.198268 -175.8
8.83240000 0.198197 -163.6 0.980150 -79.69 0.980150 -79.69 0.198186 -175.8
8.83260000 0.198114 -163.6 0.980166 -79.69 0.980166 -79.69 0.198103 -175.8
8.83280000 0.198031 -163.6 0.980183 -79.70 0.980183 -79.70 0.198020 -175.8
8.83300000 0.197947 -163.6 0.980200 -79.71 0.980200 -79.71 0.197936 -175.9
8.83320000 0.197863 -163.6 0.980217 -79.72 0.980217 -79.72 0.197852 -175.9
8.83340000 0.197778 -163.5 0.980234 -79.72 0.980234 -79.72 0.197767 -175.9
8.83360000 0.197693 -163.5 0.980251 -79.73 0.980251 -79.73 0.197681 -175.9
8.83380000 0.197607 -163.5 0.980268 -79.74 0.980268 -79.74 0.197595 -176.0
8.83400000 0.197521 -163.5 0.980286 -79.75 0.980286 -79.75 0.197509 -176.0
8.83420000 0.197434 -163.5 0.980303 -79.76 0.980303 -79.76 0.197422 -176.0
8.83440000 0.197346 -163.5 0.980321 -79.76 0.980321 -79.76 0.197334 -176.0
8.83460000 0.197258 -163.5 0.980338 -79.77 0.980338 -79.77 0.197246 -176.1
8.83480000 0.197169 -163.5 0.980356 -79.78 0.980356 -79.78 0.197157 -176.1
8.83500000 0.197080 -163.5 0.980374 -79.79 0.980374 -79.79 0.197068 -176.1
8.83520000 0.196990 -163.5 0.980392 -79.80 0.980392 -79.80 0.196978 -176.1
8.83540000 0.196900 -163.4 0.980410 -79.80 0.980410 -79.80 0.196887 -176.2
8.83560000 0.196809 -163.4 0.980428 -79.81 0.980428 -79.81 0.196796 -176.2
8.83580000 0.196717 -163.4 0.980447 -79.82 0.980447 -79.82 0.196705 -176.2
8.83600000 0.196625 -163.4 0.980465 -79.83 0.980465 -79.83 0.196612 -176.2
8.83620000 0.196532 -163.4 0.980484 -79.84 0.980484 -79.84 0.196519 -176.3
8.83640000 0.196439 -163.4 0.980502 -79.85 0.980502 -79.85 0.196426 -176.3
8.83660000 0.196344 -163.4 0.980521 -79.85 0.980521 -79.85 0.196331 -176.3
8.83680000 0.196250 -163.4 0.980540 -79.86 0.980540 -79.86 0.196237 -176.4
8.83700000 0.196154 -163.4 0.980559 -79.87 0.980559 -79.87 0.196141 -176.4
8.83720000 0.196058 -163.3 0.980578 -79.88 0.980578 -79.88 0.196045 -176.4
8.83740000 0.195962 -163.3 0.980597 -79.89 0.980597 -79.89 0.195948 -176.4
8.83760000 0.195864 -163.3 0.980617 -79.90 0.980617 -79.90 0.195851 -176.5
8.83780000 0.195766 -163.3 0.980636 -79.91 0.980636 -79.91 0.195752 -176.5
8.83800000 0.195667 -163.3 0.980656 -79.92 0.980656 -79.92 0.195654 -176.5
8.83820000 0.195568 -163.3 0.980675 -79.92 0.980675 -79.92 0.195554 -176.6
8.83840000 0.195468 -163.3 0.980695 -79.93 0.980695 -79.93 0.195454 -176.6
8.83860000 0.195367 -163.3 0.980715 -79.94 0.980715 -79.94 0.195353 -176.6
8.83880000 0.195266 -163.3 0.980735 -79.95 0.980735 -79.95 0.195251 -176.6
8.83900000 0.195163 -163.2 0.980756 -79.96 0.980756 -79.96 0.195149 -176.7
8.83920000 0.195061 -163.2 0.980776 -79.97 0.980776 -79.97 0.195046 -176.7
8.83940000 0.194957 -163.2 0.980797 -79.98 0.980797 -79.98 0.194942 -176.7
8.83960000 0.194853 -163.2 0.980817 -79.99 0.980817 -79.99 0.194838 -176.8
8.83980000 0.194747 -163.2 0.980838 -80.00 0.980838 -80.00 0.194733 -176.8
8.84000000 0.194642 -163.2 0.980859 -80.01 0.980859 -80.01 0.194627 -176.8
8.84020000 0.194535 -163.2 0.980880 -80.02 0.980880 -80.02 0.194520 -176.9
8.84040000 0.194428 -163.2 0.980901 -80.03 0.980901 -80.03 0.194413 -176.9
8.84060000 0.194320 -163.1 0.980923 -80.03 0.980923 -80.03 0.194304 -176.9
8.84080000 0.194211 -163.1 0.980944 -80.04 0.980944 -80.04 0.194195 -177.0
8.84100000 0.194101 -163.1 0.980966 -80.05 0.980966 -80.05 0.194085 -177.0
8.84120000 0.193990 -163.1 0.980987 -80.06 0.980987 -80.06 0.193975 -177.0
8.84140000 0.193879 -163.1 0.981009 -80.07 0.981009 -80.07 0.193863 -177.1
8.84160000 0.193767 -163.1 0.981031 -80.08 0.981031 -80.08 0.193751 -177.1
8.84180000 0.193654 -163.1 0.981054 -80.09 0.981054 -80.09 0.193638 -177.1
8.84200000 0.193540 -163.0 0.981076 -80.10 0.981076 -80.10 0.193524 -177.2
8.84220000 0.193426 -163.0 0.981098 -80.11 0.981098 -80.11 0.193409 -177.2
8.84240000 0.193310 -163.0 0.981121 -80.12 0.981121 -80.12 0.193294 -177.2
8.84260000 0.193194 -163.0 0.981144 -80.13 0.981144 -80.13 0.193177 -177.3
8.84280000 0.193077 -163.0 0.981167 -80.14 0.981167 -80.14 0.193060 -177.3
8.84300000 0.192959 -163.0 0.981190 -80.15 0.981190 -80.15 0.192942 -177.3
8.84320000 0.192840 -163.0 0.981213 -80.16 0.981213 -80.16 0.192823 -177.4
8.84340000 0.192720 -162.9 0.981237 -80.17 0.981237 -80.17 0.192703 -177.4
8.84360000 0.192599 -162.9 0.981260 -80.18 0.981260 -80.18 0.192582 -177.4
8.84380000 0.192477 -162.9 0.981284 -80.19 0.981284 -80.19 0.192460 -177.5
8.84400000 0.192355 -162.9 0.981308 -80.21 0.981308 -80.21 0.192337 -177.5
8.84420000 0.192231 -162.9 0.981332 -80.22 0.981332 -80.22 0.192213 -177.6
8.84440000 0.192107 -162.9 0.981356 -80.23 0.981356 -80.23 0.192089 -177.6
8.84460000 0.191981 -162.8 0.981381 -80.24 0.981381 -80.24 0.191963 -177.6
8.84480000 0.191855 -162.8 0.981405 -80.25 0.981405 -80.25 0.191837 -177.7
8.84500000 0.191727 -162.8 0.981430 -80.26 0.981430 -80.26 0.191709 -177.7
8.84520000 0.191599 -162.8 0.981455 -80.27 0.981455 -80.27 0.191580 -177.7
8.84540000 0.191469 -162.8 0.981480 -80.28 0.981480 -80.28 0.191451 -177.8
8.84560000 0.191339 -162.8 0.981506 -80.29 0.981506 -80.29 0.191320 -177.8
8.84580000 0.191208 -162.7 0.981531 -80.30 0.981531 -80.30 0.191189 -177.9
8.84600000 0.191075 -162.7 0.981557 -80.31 0.981557 -80.31 0.191056 -177.9
8.84620000 0.190942 -162.7 0.981583 -80.33 0.981583 -80.33 0.190922 -177.9
8.84640000 0.190807 -162.7 0.981609 -80.34 0.981609 -80.34 0.190787 -178.0
8.84660000 0.190671 -162.7 0.981635 -80.35 0.981635 -80.35 0.190651 -178.0
8.84680000 0.190534 -162.6 0.981661 -80.36 0.981661 -80.36 0.190515 -178.1
8.84700000 0.190397 -162.6 0.981688 -80.37 0.981688 -80.37 0.190376 -178.1
8.84720000 0.190258 -162.6 0.981715 -80.38 0.981715 -80.38 0.190237 -178.1
8.84740000 0.190117 -162.6 0.981742 -80.40 0.981742 -80.40 0.190097 -178.2
8.84760000 0.189976 -162.6 0.981769 -80.41 0.981769 -80.41 0.189955 -178.2
8.84780000 0.189834 -162.6 0.981796 -80.42 0.981796 -80.42 0.189813 -178.3
8.84800000 0.189690 -162.5 0.981824 -80.43 0.981824 -80.43 0.189669 -178.3
8.84820000 0.189545 -162.5 0.981852 -80.44 0.981852 -80.44 0.189524 -178.4
8.84840000 0.189399 -162.5 0.981880 -80.46 0.981880 -80.46 0.189378 -178.4
8.84860000 0.189252 -162.5 0.981908 -80.47 0.981908 -80.47 0.189230 -178.5
8.84880000 0.189104 -162.5 0.981937 -80.48 0.981937 -80.48 0.189082 -178.5
8.84900000 0.188954 -162.4 0.981965 -80.49 0.981965 -80.49 0.188932 -178.5
8.84920000 0.188803 -162.4 0.981994 -80.51 0.981994 -80.51 0.188781 -178.6
8.84940000 0.188651 -162.4 0.982023 -80.52 0.982023 -80.52 0.188628 -178.6
8.84960000 0.188497 -162.4 0.982053 -80.53 0.982053 -80.53 0.188475 -178.7
8.84980000 0.188343 -162.3 0.982082 -80.55 0.982082 -80.55 0.188320 -178.7
8.85000000 0.188186 -162.3 0.982112 -80.56 0.982112 -80.56 0.188163 -178.8
8.85020000 0.188029 -162.3 0.982142 -80.57 0.982142 -80.57 0.188005 -178.8
8.85040000 0.187870 -162.3 0.982172 -80.59 0.982172 -80.59 0.187846 -178.9
8.85060000 0.187710 -162.3 0.982203 -80.60 0.982203 -80.60 0.187686 -178.9
8.85080000 0.187548 -162.2 0.982233 -80.61 0.982233 -80.61 0.187524 -179.0
8.85100000 0.187385 -162.2 0.982264 -80.63 0.982264 -80.63 0.187361 -179.0
8.85120000 0.187221 -162.2 0.982295 -80.64 0.982295 -80.64 0.187196 -179.1
8.85140000 0.187055 -162.2 0.982327 -80.65 0.982327 -80.65 0.187030 -179.1
8.85160000 0.186888 -162.1 0.982358 -80.67 0.982358 -80.67 0.186862 -179.2
8.85180000 0.186719 -162.1 0.982390 -80.68 0.982390 -80.68 0.186693 -179.2
