! Sonnet Data File
! From: emgraph Version : 16.52
! From Project: Resonator2
! Data is De-embedded 
! Data File Written: 10/05/2017 10:46:05
!< HDATE 10/04/2017 20:26:48
!< MDATE 10/05/2017 00:36:07
!< PARAMS
!< gap = 46.0
!< Length = 400.0
!< Pwid1 = 2000.0
!< Pwid2 = 2000.0
!< END PARAMS
# GHZ S MA R 50.00000
8.80000000 0.291268 -164.4 0.956638 -75.20 0.956638 -75.20 0.291268 -166.0
!< P1 F=8.8 Eeff=(5.36817953 -2.3731e-5) Z0=(35.9853883 8.0522e-5) R=0.0 C=0.0 
!< P2 F=8.8 Eeff=(5.36817953 -2.3731e-5) Z0=(35.9853883 8.0522e-5) R=0.0 C=0.0 
8.80020000 0.291269 -164.4 0.956638 -75.20 0.956638 -75.20 0.291268 -166.0
8.80040000 0.291270 -164.4 0.956638 -75.20 0.956638 -75.20 0.291269 -166.0
8.80060000 0.291270 -164.4 0.956637 -75.20 0.956637 -75.20 0.291270 -166.0
8.80080000 0.291271 -164.4 0.956637 -75.20 0.956637 -75.20 0.291271 -166.0
8.80100000 0.291272 -164.4 0.956637 -75.20 0.956637 -75.20 0.291271 -166.0
8.80120000 0.291272 -164.4 0.956637 -75.21 0.956637 -75.21 0.291272 -166.0
8.80140000 0.291273 -164.4 0.956637 -75.21 0.956637 -75.21 0.291273 -166.0
8.80160000 0.291274 -164.5 0.956636 -75.21 0.956636 -75.21 0.291273 -166.0
8.80180000 0.291274 -164.5 0.956636 -75.21 0.956636 -75.21 0.291274 -166.0
8.80200000 0.291275 -164.5 0.956636 -75.21 0.956636 -75.21 0.291274 -166.0
8.80220000 0.291276 -164.5 0.956636 -75.22 0.956636 -75.22 0.291275 -166.0
8.80240000 0.291276 -164.5 0.956636 -75.22 0.956636 -75.22 0.291276 -166.0
8.80260000 0.291277 -164.5 0.956635 -75.22 0.956635 -75.22 0.291276 -166.0
8.80280000 0.291278 -164.5 0.956635 -75.22 0.956635 -75.22 0.291277 -166.0
8.80300000 0.291278 -164.5 0.956635 -75.22 0.956635 -75.22 0.291278 -166.0
8.80320000 0.291279 -164.5 0.956635 -75.23 0.956635 -75.23 0.291278 -166.0
8.80340000 0.291279 -164.5 0.956635 -75.23 0.956635 -75.23 0.291279 -166.0
8.80360000 0.291280 -164.5 0.956634 -75.23 0.956634 -75.23 0.291279 -166.0
8.80380000 0.291281 -164.5 0.956634 -75.23 0.956634 -75.23 0.291280 -166.0
8.80400000 0.291281 -164.5 0.956634 -75.23 0.956634 -75.23 0.291281 -166.0
8.80420000 0.291282 -164.5 0.956634 -75.23 0.956634 -75.23 0.291281 -166.0
8.80440000 0.291282 -164.5 0.956634 -75.24 0.956634 -75.24 0.291282 -166.0
8.80460000 0.291283 -164.5 0.956634 -75.24 0.956634 -75.24 0.291282 -166.0
8.80480000 0.291283 -164.5 0.956633 -75.24 0.956633 -75.24 0.291283 -166.0
8.80500000 0.291284 -164.5 0.956633 -75.24 0.956633 -75.24 0.291283 -166.0
8.80520000 0.291284 -164.5 0.956633 -75.24 0.956633 -75.24 0.291284 -166.0
8.80540000 0.291285 -164.5 0.956633 -75.25 0.956633 -75.25 0.291284 -166.0
8.80560000 0.291285 -164.5 0.956633 -75.25 0.956633 -75.25 0.291285 -166.0
8.80580000 0.291286 -164.5 0.956633 -75.25 0.956633 -75.25 0.291285 -166.0
8.80600000 0.291287 -164.5 0.956632 -75.25 0.956632 -75.25 0.291286 -166.0
8.80620000 0.291287 -164.5 0.956632 -75.25 0.956632 -75.25 0.291286 -166.0
8.80640000 0.291287 -164.5 0.956632 -75.26 0.956632 -75.26 0.291287 -166.0
8.80660000 0.291288 -164.5 0.956632 -75.26 0.956632 -75.26 0.291287 -166.0
8.80680000 0.291288 -164.5 0.956632 -75.26 0.956632 -75.26 0.291288 -166.0
8.80700000 0.291289 -164.5 0.956632 -75.26 0.956632 -75.26 0.291288 -166.0
8.80720000 0.291289 -164.5 0.956632 -75.26 0.956632 -75.26 0.291289 -166.0
8.80740000 0.291290 -164.5 0.956631 -75.26 0.956631 -75.26 0.291289 -166.0
8.80760000 0.291290 -164.5 0.956631 -75.27 0.956631 -75.27 0.291290 -166.0
8.80780000 0.291291 -164.5 0.956631 -75.27 0.956631 -75.27 0.291290 -166.0
8.80800000 0.291291 -164.5 0.956631 -75.27 0.956631 -75.27 0.291290 -166.1
8.80820000 0.291292 -164.5 0.956631 -75.27 0.956631 -75.27 0.291291 -166.1
8.80840000 0.291292 -164.5 0.956631 -75.27 0.956631 -75.27 0.291291 -166.1
8.80860000 0.291292 -164.5 0.956631 -75.28 0.956631 -75.28 0.291292 -166.1
8.80880000 0.291293 -164.5 0.956630 -75.28 0.956630 -75.28 0.291292 -166.1
8.80900000 0.291293 -164.5 0.956630 -75.28 0.956630 -75.28 0.291293 -166.1
8.80920000 0.291294 -164.5 0.956630 -75.28 0.956630 -75.28 0.291293 -166.1
8.80940000 0.291294 -164.5 0.956630 -75.28 0.956630 -75.28 0.291293 -166.1
8.80960000 0.291294 -164.5 0.956630 -75.29 0.956630 -75.29 0.291294 -166.1
8.80980000 0.291295 -164.5 0.956630 -75.29 0.956630 -75.29 0.291294 -166.1
8.81000000 0.291295 -164.5 0.956630 -75.29 0.956630 -75.29 0.291294 -166.1
8.81020000 0.291295 -164.5 0.956630 -75.29 0.956630 -75.29 0.291295 -166.1
8.81040000 0.291296 -164.5 0.956630 -75.29 0.956630 -75.29 0.291295 -166.1
8.81060000 0.291296 -164.5 0.956629 -75.29 0.956629 -75.29 0.291295 -166.1
8.81080000 0.291296 -164.5 0.956629 -75.30 0.956629 -75.30 0.291296 -166.1
8.81100000 0.291297 -164.5 0.956629 -75.30 0.956629 -75.30 0.291296 -166.1
8.81120000 0.291297 -164.5 0.956629 -75.30 0.956629 -75.30 0.291296 -166.1
8.81140000 0.291297 -164.5 0.956629 -75.30 0.956629 -75.30 0.291297 -166.1
8.81160000 0.291298 -164.5 0.956629 -75.30 0.956629 -75.30 0.291297 -166.1
8.81180000 0.291298 -164.5 0.956629 -75.31 0.956629 -75.31 0.291297 -166.1
8.81200000 0.291298 -164.5 0.956629 -75.31 0.956629 -75.31 0.291297 -166.1
8.81220000 0.291298 -164.5 0.956629 -75.31 0.956629 -75.31 0.291298 -166.1
8.81240000 0.291299 -164.5 0.956629 -75.31 0.956629 -75.31 0.291298 -166.1
8.81260000 0.291299 -164.5 0.956629 -75.31 0.956629 -75.31 0.291298 -166.1
8.81280000 0.291299 -164.5 0.956629 -75.32 0.956629 -75.32 0.291298 -166.1
8.81300000 0.291299 -164.5 0.956628 -75.32 0.956628 -75.32 0.291299 -166.1
8.81320000 0.291299 -164.5 0.956628 -75.32 0.956628 -75.32 0.291299 -166.1
8.81340000 0.291300 -164.5 0.956628 -75.32 0.956628 -75.32 0.291299 -166.1
8.81360000 0.291300 -164.5 0.956628 -75.32 0.956628 -75.32 0.291299 -166.1
8.81380000 0.291300 -164.5 0.956628 -75.32 0.956628 -75.32 0.291299 -166.1
8.81400000 0.291300 -164.5 0.956628 -75.33 0.956628 -75.33 0.291299 -166.1
8.81420000 0.291300 -164.5 0.956628 -75.33 0.956628 -75.33 0.291300 -166.1
8.81440000 0.291301 -164.5 0.956628 -75.33 0.956628 -75.33 0.291300 -166.1
8.81460000 0.291301 -164.5 0.956628 -75.33 0.956628 -75.33 0.291300 -166.1
8.81480000 0.291301 -164.5 0.956628 -75.33 0.956628 -75.33 0.291300 -166.1
8.81500000 0.291301 -164.5 0.956628 -75.34 0.956628 -75.34 0.291300 -166.1
8.81520000 0.291301 -164.5 0.956628 -75.34 0.956628 -75.34 0.291300 -166.1
8.81540000 0.291301 -164.5 0.956628 -75.34 0.956628 -75.34 0.291300 -166.2
8.81560000 0.291301 -164.5 0.956628 -75.34 0.956628 -75.34 0.291301 -166.2
8.81580000 0.291301 -164.5 0.956628 -75.34 0.956628 -75.34 0.291301 -166.2
8.81600000 0.291301 -164.5 0.956628 -75.35 0.956628 -75.35 0.291301 -166.2
8.81620000 0.291302 -164.5 0.956628 -75.35 0.956628 -75.35 0.291301 -166.2
8.81640000 0.291302 -164.5 0.956628 -75.35 0.956628 -75.35 0.291301 -166.2
8.81660000 0.291302 -164.5 0.956628 -75.35 0.956628 -75.35 0.291301 -166.2
8.81680000 0.291302 -164.5 0.956628 -75.35 0.956628 -75.35 0.291301 -166.2
8.81700000 0.291302 -164.5 0.956628 -75.36 0.956628 -75.36 0.291301 -166.2
8.81720000 0.291302 -164.5 0.956628 -75.36 0.956628 -75.36 0.291301 -166.2
8.81740000 0.291302 -164.5 0.956628 -75.36 0.956628 -75.36 0.291301 -166.2
8.81760000 0.291302 -164.5 0.956628 -75.36 0.956628 -75.36 0.291301 -166.2
8.81780000 0.291302 -164.5 0.956628 -75.36 0.956628 -75.36 0.291301 -166.2
8.81800000 0.291302 -164.5 0.956628 -75.37 0.956628 -75.37 0.291301 -166.2
8.81820000 0.291302 -164.5 0.956628 -75.37 0.956628 -75.37 0.291301 -166.2
8.81840000 0.291302 -164.5 0.956628 -75.37 0.956628 -75.37 0.291301 -166.2
8.81860000 0.291302 -164.5 0.956628 -75.37 0.956628 -75.37 0.291301 -166.2
8.81880000 0.291302 -164.5 0.956628 -75.37 0.956628 -75.37 0.291301 -166.2
8.81900000 0.291301 -164.6 0.956628 -75.37 0.956628 -75.37 0.291301 -166.2
8.81920000 0.291301 -164.6 0.956628 -75.38 0.956628 -75.38 0.291301 -166.2
8.81940000 0.291301 -164.6 0.956628 -75.38 0.956628 -75.38 0.291300 -166.2
8.81960000 0.291301 -164.6 0.956628 -75.38 0.956628 -75.38 0.291300 -166.2
8.81980000 0.291301 -164.6 0.956628 -75.38 0.956628 -75.38 0.291300 -166.2
8.82000000 0.291301 -164.6 0.956628 -75.38 0.956628 -75.38 0.291300 -166.2
8.82020000 0.291301 -164.6 0.956628 -75.39 0.956628 -75.39 0.291300 -166.2
8.82040000 0.291301 -164.6 0.956628 -75.39 0.956628 -75.39 0.291300 -166.2
8.82060000 0.291300 -164.6 0.956628 -75.39 0.956628 -75.39 0.291300 -166.2
8.82080000 0.291300 -164.6 0.956628 -75.39 0.956628 -75.39 0.291299 -166.2
8.82100000 0.291300 -164.6 0.956628 -75.39 0.956628 -75.39 0.291299 -166.2
8.82120000 0.291300 -164.6 0.956628 -75.40 0.956628 -75.40 0.291299 -166.2
8.82140000 0.291300 -164.6 0.956628 -75.40 0.956628 -75.40 0.291299 -166.2
8.82160000 0.291299 -164.6 0.956628 -75.40 0.956628 -75.40 0.291299 -166.2
8.82180000 0.291299 -164.6 0.956628 -75.40 0.956628 -75.40 0.291298 -166.2
8.82200000 0.291299 -164.6 0.956628 -75.40 0.956628 -75.40 0.291298 -166.2
8.82220000 0.291299 -164.6 0.956628 -75.41 0.956628 -75.41 0.291298 -166.2
8.82240000 0.291298 -164.6 0.956629 -75.41 0.956629 -75.41 0.291298 -166.2
8.82260000 0.291298 -164.6 0.956629 -75.41 0.956629 -75.41 0.291297 -166.3
8.82280000 0.291298 -164.6 0.956629 -75.41 0.956629 -75.41 0.291297 -166.3
8.82300000 0.291298 -164.6 0.956629 -75.41 0.956629 -75.41 0.291297 -166.3
8.82320000 0.291297 -164.6 0.956629 -75.42 0.956629 -75.42 0.291296 -166.3
8.82340000 0.291297 -164.6 0.956629 -75.42 0.956629 -75.42 0.291296 -166.3
8.82360000 0.291297 -164.6 0.956629 -75.42 0.956629 -75.42 0.291296 -166.3
8.82380000 0.291296 -164.6 0.956629 -75.42 0.956629 -75.42 0.291295 -166.3
8.82400000 0.291296 -164.6 0.956629 -75.42 0.956629 -75.42 0.291295 -166.3
8.82420000 0.291295 -164.6 0.956629 -75.43 0.956629 -75.43 0.291295 -166.3
8.82440000 0.291295 -164.6 0.956630 -75.43 0.956630 -75.43 0.291294 -166.3
8.82460000 0.291295 -164.6 0.956630 -75.43 0.956630 -75.43 0.291294 -166.3
8.82480000 0.291294 -164.6 0.956630 -75.43 0.956630 -75.43 0.291293 -166.3
8.82500000 0.291294 -164.6 0.956630 -75.43 0.956630 -75.43 0.291293 -166.3
8.82520000 0.291293 -164.6 0.956630 -75.44 0.956630 -75.44 0.291292 -166.3
8.82540000 0.291293 -164.6 0.956630 -75.44 0.956630 -75.44 0.291292 -166.3
8.82560000 0.291292 -164.6 0.956630 -75.44 0.956630 -75.44 0.291291 -166.3
8.82580000 0.291292 -164.6 0.956630 -75.44 0.956630 -75.44 0.291291 -166.3
8.82600000 0.291291 -164.6 0.956631 -75.44 0.956631 -75.44 0.291290 -166.3
8.82620000 0.291291 -164.6 0.956631 -75.45 0.956631 -75.45 0.291290 -166.3
8.82640000 0.291290 -164.6 0.956631 -75.45 0.956631 -75.45 0.291289 -166.3
8.82660000 0.291290 -164.6 0.956631 -75.45 0.956631 -75.45 0.291289 -166.3
8.82680000 0.291289 -164.6 0.956631 -75.45 0.956631 -75.45 0.291288 -166.3
8.82700000 0.291289 -164.6 0.956631 -75.45 0.956631 -75.45 0.291288 -166.3
8.82720000 0.291288 -164.6 0.956632 -75.46 0.956632 -75.46 0.291287 -166.3
8.82740000 0.291287 -164.6 0.956632 -75.46 0.956632 -75.46 0.291286 -166.3
8.82760000 0.291287 -164.6 0.956632 -75.46 0.956632 -75.46 0.291286 -166.3
8.82780000 0.291286 -164.6 0.956632 -75.46 0.956632 -75.46 0.291285 -166.3
8.82800000 0.291286 -164.6 0.956632 -75.46 0.956632 -75.46 0.291285 -166.3
8.82820000 0.291285 -164.6 0.956633 -75.47 0.956633 -75.47 0.291284 -166.3
8.82840000 0.291284 -164.6 0.956633 -75.47 0.956633 -75.47 0.291283 -166.3
8.82860000 0.291284 -164.6 0.956633 -75.47 0.956633 -75.47 0.291283 -166.3
8.82880000 0.291283 -164.6 0.956633 -75.47 0.956633 -75.47 0.291282 -166.3
8.82900000 0.291282 -164.6 0.956633 -75.47 0.956633 -75.47 0.291281 -166.3
8.82920000 0.291281 -164.6 0.956634 -75.48 0.956634 -75.48 0.291280 -166.4
8.82940000 0.291281 -164.6 0.956634 -75.48 0.956634 -75.48 0.291280 -166.4
8.82960000 0.291280 -164.6 0.956634 -75.48 0.956634 -75.48 0.291279 -166.4
8.82980000 0.291279 -164.6 0.956634 -75.48 0.956634 -75.48 0.291278 -166.4
8.83000000 0.291278 -164.6 0.956635 -75.48 0.956635 -75.48 0.291277 -166.4
8.83020000 0.291277 -164.6 0.956635 -75.49 0.956635 -75.49 0.291276 -166.4
8.83040000 0.291277 -164.6 0.956635 -75.49 0.956635 -75.49 0.291276 -166.4
8.83060000 0.291276 -164.6 0.956635 -75.49 0.956635 -75.49 0.291275 -166.4
8.83080000 0.291275 -164.6 0.956636 -75.49 0.956636 -75.49 0.291274 -166.4
8.83100000 0.291274 -164.6 0.956636 -75.49 0.956636 -75.49 0.291273 -166.4
8.83120000 0.291273 -164.6 0.956636 -75.50 0.956636 -75.50 0.291272 -166.4
8.83140000 0.291272 -164.6 0.956636 -75.50 0.956636 -75.50 0.291271 -166.4
8.83160000 0.291271 -164.6 0.956637 -75.50 0.956637 -75.50 0.291270 -166.4
8.83180000 0.291270 -164.6 0.956637 -75.50 0.956637 -75.50 0.291269 -166.4
8.83200000 0.291269 -164.6 0.956637 -75.50 0.956637 -75.50 0.291268 -166.4
8.83220000 0.291268 -164.6 0.956638 -75.51 0.956638 -75.51 0.291267 -166.4
8.83240000 0.291267 -164.6 0.956638 -75.51 0.956638 -75.51 0.291266 -166.4
8.83260000 0.291266 -164.6 0.956638 -75.51 0.956638 -75.51 0.291265 -166.4
8.83280000 0.291265 -164.6 0.956638 -75.51 0.956638 -75.51 0.291264 -166.4
8.83300000 0.291264 -164.6 0.956639 -75.51 0.956639 -75.51 0.291263 -166.4
8.83320000 0.291263 -164.6 0.956639 -75.52 0.956639 -75.52 0.291262 -166.4
8.83340000 0.291262 -164.6 0.956639 -75.52 0.956639 -75.52 0.291261 -166.4
8.83360000 0.291261 -164.6 0.956640 -75.52 0.956640 -75.52 0.291260 -166.4
8.83380000 0.291260 -164.6 0.956640 -75.52 0.956640 -75.52 0.291259 -166.4
8.83400000 0.291259 -164.6 0.956640 -75.52 0.956640 -75.52 0.291257 -166.4
8.83420000 0.291258 -164.6 0.956641 -75.53 0.956641 -75.53 0.291256 -166.4
8.83440000 0.291256 -164.6 0.956641 -75.53 0.956641 -75.53 0.291255 -166.4
8.83460000 0.291255 -164.6 0.956642 -75.53 0.956642 -75.53 0.291254 -166.4
8.83480000 0.291254 -164.6 0.956642 -75.53 0.956642 -75.53 0.291253 -166.4
8.83500000 0.291253 -164.6 0.956642 -75.54 0.956642 -75.54 0.291251 -166.4
8.83520000 0.291251 -164.6 0.956643 -75.54 0.956643 -75.54 0.291250 -166.4
8.83540000 0.291250 -164.6 0.956643 -75.54 0.956643 -75.54 0.291249 -166.5
8.83560000 0.291249 -164.6 0.956643 -75.54 0.956643 -75.54 0.291248 -166.5
8.83580000 0.291247 -164.6 0.956644 -75.54 0.956644 -75.54 0.291246 -166.5
8.83600000 0.291246 -164.6 0.956644 -75.55 0.956644 -75.55 0.291245 -166.5
8.83620000 0.291245 -164.6 0.956645 -75.55 0.956645 -75.55 0.291243 -166.5
8.83640000 0.291243 -164.6 0.956645 -75.55 0.956645 -75.55 0.291242 -166.5
8.83660000 0.291242 -164.6 0.956646 -75.55 0.956646 -75.55 0.291241 -166.5
8.83680000 0.291241 -164.6 0.956646 -75.55 0.956646 -75.55 0.291239 -166.5
8.83700000 0.291239 -164.6 0.956646 -75.56 0.956646 -75.56 0.291238 -166.5
8.83720000 0.291238 -164.6 0.956647 -75.56 0.956647 -75.56 0.291236 -166.5
8.83740000 0.291236 -164.6 0.956647 -75.56 0.956647 -75.56 0.291235 -166.5
8.83760000 0.291235 -164.6 0.956648 -75.56 0.956648 -75.56 0.291233 -166.5
8.83780000 0.291233 -164.6 0.956648 -75.56 0.956648 -75.56 0.291232 -166.5
8.83800000 0.291232 -164.6 0.956649 -75.57 0.956649 -75.57 0.291230 -166.5
8.83820000 0.291230 -164.6 0.956649 -75.57 0.956649 -75.57 0.291229 -166.5
8.83840000 0.291228 -164.6 0.956650 -75.57 0.956650 -75.57 0.291227 -166.5
8.83860000 0.291227 -164.6 0.956650 -75.57 0.956650 -75.57 0.291225 -166.5
8.83880000 0.291225 -164.6 0.956651 -75.58 0.956651 -75.58 0.291224 -166.5
8.83900000 0.291223 -164.6 0.956651 -75.58 0.956651 -75.58 0.291222 -166.5
8.83920000 0.291222 -164.6 0.956652 -75.58 0.956652 -75.58 0.291220 -166.5
8.83940000 0.291220 -164.6 0.956652 -75.58 0.956652 -75.58 0.291219 -166.5
8.83960000 0.291218 -164.6 0.956653 -75.58 0.956653 -75.58 0.291217 -166.5
8.83980000 0.291217 -164.6 0.956653 -75.59 0.956653 -75.59 0.291215 -166.5
8.84000000 0.291215 -164.6 0.956654 -75.59 0.956654 -75.59 0.291213 -166.5
8.84020000 0.291213 -164.6 0.956654 -75.59 0.956654 -75.59 0.291212 -166.5
8.84040000 0.291211 -164.6 0.956655 -75.59 0.956655 -75.59 0.291210 -166.5
8.84060000 0.291209 -164.6 0.956655 -75.59 0.956655 -75.59 0.291208 -166.5
8.84080000 0.291207 -164.6 0.956656 -75.60 0.956656 -75.60 0.291206 -166.5
8.84100000 0.291205 -164.6 0.956657 -75.60 0.956657 -75.60 0.291204 -166.6
8.84120000 0.291204 -164.6 0.956657 -75.60 0.956657 -75.60 0.291202 -166.6
8.84140000 0.291202 -164.6 0.956658 -75.60 0.956658 -75.60 0.291200 -166.6
8.84160000 0.291200 -164.6 0.956658 -75.61 0.956658 -75.61 0.291198 -166.6
8.84180000 0.291198 -164.6 0.956659 -75.61 0.956659 -75.61 0.291196 -166.6
8.84200000 0.291196 -164.6 0.956660 -75.61 0.956660 -75.61 0.291194 -166.6
8.84220000 0.291193 -164.6 0.956660 -75.61 0.956660 -75.61 0.291192 -166.6
8.84240000 0.291191 -164.7 0.956661 -75.61 0.956661 -75.61 0.291190 -166.6
8.84260000 0.291189 -164.7 0.956661 -75.62 0.956661 -75.62 0.291188 -166.6
8.84280000 0.291187 -164.7 0.956662 -75.62 0.956662 -75.62 0.291186 -166.6
8.84300000 0.291185 -164.7 0.956663 -75.62 0.956663 -75.62 0.291183 -166.6
8.84320000 0.291183 -164.7 0.956663 -75.62 0.956663 -75.62 0.291181 -166.6
8.84340000 0.291181 -164.7 0.956664 -75.62 0.956664 -75.62 0.291179 -166.6
8.84360000 0.291178 -164.7 0.956665 -75.63 0.956665 -75.63 0.291177 -166.6
8.84380000 0.291176 -164.7 0.956665 -75.63 0.956665 -75.63 0.291174 -166.6
8.84400000 0.291174 -164.7 0.956666 -75.63 0.956666 -75.63 0.291172 -166.6
8.84420000 0.291171 -164.7 0.956667 -75.63 0.956667 -75.63 0.291170 -166.6
8.84440000 0.291169 -164.7 0.956668 -75.64 0.956668 -75.64 0.291167 -166.6
8.84460000 0.291167 -164.7 0.956668 -75.64 0.956668 -75.64 0.291165 -166.6
8.84480000 0.291164 -164.7 0.956669 -75.64 0.956669 -75.64 0.291162 -166.6
8.84500000 0.291162 -164.7 0.956670 -75.64 0.956670 -75.64 0.291160 -166.6
8.84520000 0.291159 -164.7 0.956671 -75.64 0.956671 -75.64 0.291158 -166.6
8.84540000 0.291157 -164.7 0.956671 -75.65 0.956671 -75.65 0.291155 -166.6
8.84560000 0.291154 -164.7 0.956672 -75.65 0.956672 -75.65 0.291152 -166.6
8.84580000 0.291152 -164.7 0.956673 -75.65 0.956673 -75.65 0.291150 -166.6
8.84600000 0.291149 -164.7 0.956674 -75.65 0.956674 -75.65 0.291147 -166.6
8.84620000 0.291146 -164.7 0.956674 -75.66 0.956674 -75.66 0.291145 -166.7
8.84640000 0.291144 -164.7 0.956675 -75.66 0.956675 -75.66 0.291142 -166.7
8.84660000 0.291141 -164.7 0.956676 -75.66 0.956676 -75.66 0.291139 -166.7
8.84680000 0.291138 -164.7 0.956677 -75.66 0.956677 -75.66 0.291136 -166.7
8.84700000 0.291135 -164.7 0.956678 -75.67 0.956678 -75.67 0.291134 -166.7
8.84720000 0.291133 -164.7 0.956679 -75.67 0.956679 -75.67 0.291131 -166.7
8.84740000 0.291130 -164.7 0.956679 -75.67 0.956679 -75.67 0.291128 -166.7
8.84760000 0.291127 -164.7 0.956680 -75.67 0.956680 -75.67 0.291125 -166.7
8.84780000 0.291124 -164.7 0.956681 -75.67 0.956681 -75.67 0.291122 -166.7
8.84800000 0.291121 -164.7 0.956682 -75.68 0.956682 -75.68 0.291119 -166.7
8.84820000 0.291118 -164.7 0.956683 -75.68 0.956683 -75.68 0.291116 -166.7
8.84840000 0.291115 -164.7 0.956684 -75.68 0.956684 -75.68 0.291113 -166.7
8.84860000 0.291112 -164.7 0.956685 -75.68 0.956685 -75.68 0.291110 -166.7
8.84880000 0.291109 -164.7 0.956686 -75.69 0.956686 -75.69 0.291107 -166.7
8.84900000 0.291106 -164.7 0.956687 -75.69 0.956687 -75.69 0.291104 -166.7
8.84920000 0.291103 -164.7 0.956688 -75.69 0.956688 -75.69 0.291101 -166.7
8.84940000 0.291099 -164.7 0.956689 -75.69 0.956689 -75.69 0.291097 -166.7
8.84960000 0.291096 -164.7 0.956690 -75.70 0.956690 -75.70 0.291094 -166.7
8.84980000 0.291093 -164.7 0.956691 -75.70 0.956691 -75.70 0.291091 -166.7
8.85000000 0.291090 -164.7 0.956692 -75.70 0.956692 -75.70 0.291088 -166.7
8.85020000 0.291086 -164.7 0.956693 -75.70 0.956693 -75.70 0.291084 -166.7
8.85040000 0.291083 -164.7 0.956694 -75.70 0.956694 -75.70 0.291081 -166.7
8.85060000 0.291079 -164.7 0.956695 -75.71 0.956695 -75.71 0.291077 -166.7
8.85080000 0.291076 -164.7 0.956696 -75.71 0.956696 -75.71 0.291074 -166.8
8.85100000 0.291072 -164.7 0.956697 -75.71 0.956697 -75.71 0.291070 -166.8
8.85120000 0.291069 -164.7 0.956698 -75.71 0.956698 -75.71 0.291067 -166.8
8.85140000 0.291065 -164.7 0.956699 -75.72 0.956699 -75.72 0.291063 -166.8
8.85160000 0.291062 -164.7 0.956700 -75.72 0.956700 -75.72 0.291060 -166.8
8.85180000 0.291058 -164.7 0.956701 -75.72 0.956701 -75.72 0.291056 -166.8
