! Sonnet Data File
! From: emgraph Version : 16.52
! From Project: Resonator2
! Data is De-embedded 
! Data File Written: 10/05/2017 10:46:05
!< HDATE 10/04/2017 20:26:48
!< MDATE 10/05/2017 00:36:07
!< PARAMS
!< gap = 76.0
!< Length = 400.0
!< Pwid1 = 2000.0
!< Pwid2 = 2000.0
!< END PARAMS
# GHZ S MA R 50.00000
8.80000000 0.295168 -164.5 0.955442 -74.94 0.955442 -74.94 0.295168 -165.4
!< P1 F=8.8 Eeff=(5.36817953 -2.3731e-5) Z0=(35.9853883 8.0522e-5) R=0.0 C=0.0 
!< P2 F=8.8 Eeff=(5.36817953 -2.3731e-5) Z0=(35.9853883 8.0522e-5) R=0.0 C=0.0 
8.80020000 0.295170 -164.5 0.955442 -74.94 0.955442 -74.94 0.295170 -165.4
8.80040000 0.295172 -164.5 0.955441 -74.95 0.955441 -74.95 0.295172 -165.4
8.80060000 0.295174 -164.5 0.955440 -74.95 0.955440 -74.95 0.295174 -165.4
8.80080000 0.295176 -164.5 0.955440 -74.95 0.955440 -74.95 0.295176 -165.4
8.80100000 0.295178 -164.5 0.955439 -74.95 0.955439 -74.95 0.295178 -165.4
8.80120000 0.295180 -164.5 0.955439 -74.95 0.955439 -74.95 0.295180 -165.4
8.80140000 0.295182 -164.5 0.955438 -74.96 0.955438 -74.96 0.295182 -165.4
8.80160000 0.295184 -164.5 0.955437 -74.96 0.955437 -74.96 0.295184 -165.5
8.80180000 0.295186 -164.5 0.955437 -74.96 0.955437 -74.96 0.295185 -165.5
8.80200000 0.295188 -164.5 0.955436 -74.96 0.955436 -74.96 0.295187 -165.5
8.80220000 0.295190 -164.5 0.955435 -74.96 0.955435 -74.96 0.295189 -165.5
8.80240000 0.295192 -164.5 0.955435 -74.96 0.955435 -74.96 0.295191 -165.5
8.80260000 0.295194 -164.5 0.955434 -74.97 0.955434 -74.97 0.295193 -165.5
8.80280000 0.295195 -164.5 0.955434 -74.97 0.955434 -74.97 0.295195 -165.5
8.80300000 0.295197 -164.5 0.955433 -74.97 0.955433 -74.97 0.295197 -165.5
8.80320000 0.295199 -164.5 0.955432 -74.97 0.955432 -74.97 0.295199 -165.5
8.80340000 0.295201 -164.5 0.955432 -74.97 0.955432 -74.97 0.295201 -165.5
8.80360000 0.295203 -164.5 0.955431 -74.97 0.955431 -74.97 0.295203 -165.5
8.80380000 0.295205 -164.5 0.955431 -74.98 0.955431 -74.98 0.295205 -165.5
8.80400000 0.295207 -164.5 0.955430 -74.98 0.955430 -74.98 0.295207 -165.5
8.80420000 0.295209 -164.5 0.955429 -74.98 0.955429 -74.98 0.295209 -165.5
8.80440000 0.295211 -164.5 0.955429 -74.98 0.955429 -74.98 0.295211 -165.5
8.80460000 0.295213 -164.5 0.955428 -74.98 0.955428 -74.98 0.295213 -165.5
8.80480000 0.295215 -164.5 0.955428 -74.98 0.955428 -74.98 0.295215 -165.5
8.80500000 0.295217 -164.5 0.955427 -74.99 0.955427 -74.99 0.295216 -165.5
8.80520000 0.295219 -164.5 0.955426 -74.99 0.955426 -74.99 0.295218 -165.5
8.80540000 0.295221 -164.5 0.955426 -74.99 0.955426 -74.99 0.295220 -165.5
8.80560000 0.295223 -164.5 0.955425 -74.99 0.955425 -74.99 0.295222 -165.5
8.80580000 0.295224 -164.5 0.955425 -74.99 0.955425 -74.99 0.295224 -165.5
8.80600000 0.295226 -164.5 0.955424 -75.00 0.955424 -75.00 0.295226 -165.5
8.80620000 0.295228 -164.5 0.955424 -75.00 0.955424 -75.00 0.295228 -165.5
8.80640000 0.295230 -164.5 0.955423 -75.00 0.955423 -75.00 0.295230 -165.5
8.80660000 0.295232 -164.5 0.955422 -75.00 0.955422 -75.00 0.295232 -165.5
8.80680000 0.295234 -164.5 0.955422 -75.00 0.955422 -75.00 0.295234 -165.5
8.80700000 0.295236 -164.5 0.955421 -75.00 0.955421 -75.00 0.295236 -165.5
8.80720000 0.295238 -164.5 0.955421 -75.01 0.955421 -75.01 0.295238 -165.5
8.80740000 0.295240 -164.5 0.955420 -75.01 0.955420 -75.01 0.295239 -165.5
8.80760000 0.295242 -164.5 0.955419 -75.01 0.955419 -75.01 0.295241 -165.5
8.80780000 0.295243 -164.5 0.955419 -75.01 0.955419 -75.01 0.295243 -165.5
8.80800000 0.295245 -164.5 0.955418 -75.01 0.955418 -75.01 0.295245 -165.5
8.80820000 0.295247 -164.5 0.955418 -75.01 0.955418 -75.01 0.295247 -165.5
8.80840000 0.295249 -164.5 0.955417 -75.02 0.955417 -75.02 0.295249 -165.5
8.80860000 0.295251 -164.5 0.955416 -75.02 0.955416 -75.02 0.295251 -165.5
8.80880000 0.295253 -164.5 0.955416 -75.02 0.955416 -75.02 0.295253 -165.5
8.80900000 0.295255 -164.5 0.955415 -75.02 0.955415 -75.02 0.295255 -165.5
8.80920000 0.295257 -164.5 0.955415 -75.02 0.955415 -75.02 0.295256 -165.5
8.80940000 0.295259 -164.5 0.955414 -75.02 0.955414 -75.02 0.295258 -165.5
8.80960000 0.295260 -164.5 0.955414 -75.03 0.955414 -75.03 0.295260 -165.5
8.80980000 0.295262 -164.5 0.955413 -75.03 0.955413 -75.03 0.295262 -165.5
8.81000000 0.295264 -164.5 0.955412 -75.03 0.955412 -75.03 0.295264 -165.5
8.81020000 0.295266 -164.5 0.955412 -75.03 0.955412 -75.03 0.295266 -165.5
8.81040000 0.295268 -164.5 0.955411 -75.03 0.955411 -75.03 0.295268 -165.5
8.81060000 0.295270 -164.5 0.955411 -75.04 0.955411 -75.04 0.295270 -165.5
8.81080000 0.295272 -164.5 0.955410 -75.04 0.955410 -75.04 0.295271 -165.5
8.81100000 0.295274 -164.5 0.955409 -75.04 0.955409 -75.04 0.295273 -165.5
8.81120000 0.295275 -164.5 0.955409 -75.04 0.955409 -75.04 0.295275 -165.6
8.81140000 0.295277 -164.5 0.955408 -75.04 0.955408 -75.04 0.295277 -165.6
8.81160000 0.295279 -164.5 0.955408 -75.04 0.955408 -75.04 0.295279 -165.6
8.81180000 0.295281 -164.5 0.955407 -75.05 0.955407 -75.05 0.295281 -165.6
8.81200000 0.295283 -164.5 0.955407 -75.05 0.955407 -75.05 0.295283 -165.6
8.81220000 0.295285 -164.5 0.955406 -75.05 0.955406 -75.05 0.295284 -165.6
8.81240000 0.295287 -164.5 0.955405 -75.05 0.955405 -75.05 0.295286 -165.6
8.81260000 0.295288 -164.5 0.955405 -75.05 0.955405 -75.05 0.295288 -165.6
8.81280000 0.295290 -164.5 0.955404 -75.05 0.955404 -75.05 0.295290 -165.6
8.81300000 0.295292 -164.5 0.955404 -75.06 0.955404 -75.06 0.295292 -165.6
8.81320000 0.295294 -164.5 0.955403 -75.06 0.955403 -75.06 0.295294 -165.6
8.81340000 0.295296 -164.5 0.955403 -75.06 0.955403 -75.06 0.295295 -165.6
8.81360000 0.295298 -164.5 0.955402 -75.06 0.955402 -75.06 0.295297 -165.6
8.81380000 0.295299 -164.5 0.955401 -75.06 0.955401 -75.06 0.295299 -165.6
8.81400000 0.295301 -164.6 0.955401 -75.07 0.955401 -75.07 0.295301 -165.6
8.81420000 0.295303 -164.6 0.955400 -75.07 0.955400 -75.07 0.295303 -165.6
8.81440000 0.295305 -164.6 0.955400 -75.07 0.955400 -75.07 0.295305 -165.6
8.81460000 0.295307 -164.6 0.955399 -75.07 0.955399 -75.07 0.295306 -165.6
8.81480000 0.295309 -164.6 0.955399 -75.07 0.955399 -75.07 0.295308 -165.6
8.81500000 0.295310 -164.6 0.955398 -75.07 0.955398 -75.07 0.295310 -165.6
8.81520000 0.295312 -164.6 0.955398 -75.08 0.955398 -75.08 0.295312 -165.6
8.81540000 0.295314 -164.6 0.955397 -75.08 0.955397 -75.08 0.295314 -165.6
8.81560000 0.295316 -164.6 0.955396 -75.08 0.955396 -75.08 0.295315 -165.6
8.81580000 0.295318 -164.6 0.955396 -75.08 0.955396 -75.08 0.295317 -165.6
8.81600000 0.295319 -164.6 0.955395 -75.08 0.955395 -75.08 0.295319 -165.6
8.81620000 0.295321 -164.6 0.955395 -75.08 0.955395 -75.08 0.295321 -165.6
8.81640000 0.295323 -164.6 0.955394 -75.09 0.955394 -75.09 0.295323 -165.6
8.81660000 0.295325 -164.6 0.955394 -75.09 0.955394 -75.09 0.295324 -165.6
8.81680000 0.295327 -164.6 0.955393 -75.09 0.955393 -75.09 0.295326 -165.6
8.81700000 0.295328 -164.6 0.955392 -75.09 0.955392 -75.09 0.295328 -165.6
8.81720000 0.295330 -164.6 0.955392 -75.09 0.955392 -75.09 0.295330 -165.6
8.81740000 0.295332 -164.6 0.955391 -75.10 0.955391 -75.10 0.295332 -165.6
8.81760000 0.295334 -164.6 0.955391 -75.10 0.955391 -75.10 0.295333 -165.6
8.81780000 0.295336 -164.6 0.955390 -75.10 0.955390 -75.10 0.295335 -165.6
8.81800000 0.295337 -164.6 0.955390 -75.10 0.955390 -75.10 0.295337 -165.6
8.81820000 0.295339 -164.6 0.955389 -75.10 0.955389 -75.10 0.295339 -165.6
8.81840000 0.295341 -164.6 0.955389 -75.10 0.955389 -75.10 0.295340 -165.6
8.81860000 0.295343 -164.6 0.955388 -75.11 0.955388 -75.11 0.295342 -165.6
8.81880000 0.295344 -164.6 0.955388 -75.11 0.955388 -75.11 0.295344 -165.6
8.81900000 0.295346 -164.6 0.955387 -75.11 0.955387 -75.11 0.295346 -165.6
8.81920000 0.295348 -164.6 0.955386 -75.11 0.955386 -75.11 0.295348 -165.6
8.81940000 0.295350 -164.6 0.955386 -75.11 0.955386 -75.11 0.295349 -165.6
8.81960000 0.295351 -164.6 0.955385 -75.11 0.955385 -75.11 0.295351 -165.6
8.81980000 0.295353 -164.6 0.955385 -75.12 0.955385 -75.12 0.295353 -165.6
8.82000000 0.295355 -164.6 0.955384 -75.12 0.955384 -75.12 0.295355 -165.6
8.82020000 0.295357 -164.6 0.955384 -75.12 0.955384 -75.12 0.295356 -165.6
8.82040000 0.295358 -164.6 0.955383 -75.12 0.955383 -75.12 0.295358 -165.6
8.82060000 0.295360 -164.6 0.955383 -75.12 0.955383 -75.12 0.295360 -165.7
8.82080000 0.295362 -164.6 0.955382 -75.13 0.955382 -75.13 0.295362 -165.7
8.82100000 0.295364 -164.6 0.955382 -75.13 0.955382 -75.13 0.295363 -165.7
8.82120000 0.295365 -164.6 0.955381 -75.13 0.955381 -75.13 0.295365 -165.7
8.82140000 0.295367 -164.6 0.955380 -75.13 0.955380 -75.13 0.295367 -165.7
8.82160000 0.295369 -164.6 0.955380 -75.13 0.955380 -75.13 0.295368 -165.7
8.82180000 0.295371 -164.6 0.955379 -75.13 0.955379 -75.13 0.295370 -165.7
8.82200000 0.295372 -164.6 0.955379 -75.14 0.955379 -75.14 0.295372 -165.7
8.82220000 0.295374 -164.6 0.955378 -75.14 0.955378 -75.14 0.295374 -165.7
8.82240000 0.295376 -164.6 0.955378 -75.14 0.955378 -75.14 0.295375 -165.7
8.82260000 0.295377 -164.6 0.955377 -75.14 0.955377 -75.14 0.295377 -165.7
8.82280000 0.295379 -164.6 0.955377 -75.14 0.955377 -75.14 0.295379 -165.7
8.82300000 0.295381 -164.6 0.955376 -75.14 0.955376 -75.14 0.295380 -165.7
8.82320000 0.295383 -164.6 0.955376 -75.15 0.955376 -75.15 0.295382 -165.7
8.82340000 0.295384 -164.6 0.955375 -75.15 0.955375 -75.15 0.295384 -165.7
8.82360000 0.295386 -164.6 0.955375 -75.15 0.955375 -75.15 0.295386 -165.7
8.82380000 0.295388 -164.6 0.955374 -75.15 0.955374 -75.15 0.295387 -165.7
8.82400000 0.295389 -164.6 0.955374 -75.15 0.955374 -75.15 0.295389 -165.7
8.82420000 0.295391 -164.6 0.955373 -75.16 0.955373 -75.16 0.295391 -165.7
8.82440000 0.295393 -164.6 0.955373 -75.16 0.955373 -75.16 0.295392 -165.7
8.82460000 0.295394 -164.6 0.955372 -75.16 0.955372 -75.16 0.295394 -165.7
8.82480000 0.295396 -164.6 0.955371 -75.16 0.955371 -75.16 0.295396 -165.7
8.82500000 0.295398 -164.6 0.955371 -75.16 0.955371 -75.16 0.295397 -165.7
8.82520000 0.295399 -164.6 0.955370 -75.16 0.955370 -75.16 0.295399 -165.7
8.82540000 0.295401 -164.6 0.955370 -75.17 0.955370 -75.17 0.295401 -165.7
8.82560000 0.295403 -164.6 0.955369 -75.17 0.955369 -75.17 0.295402 -165.7
8.82580000 0.295404 -164.6 0.955369 -75.17 0.955369 -75.17 0.295404 -165.7
8.82600000 0.295406 -164.6 0.955368 -75.17 0.955368 -75.17 0.295406 -165.7
8.82620000 0.295408 -164.6 0.955368 -75.17 0.955368 -75.17 0.295407 -165.7
8.82640000 0.295409 -164.6 0.955367 -75.17 0.955367 -75.17 0.295409 -165.7
8.82660000 0.295411 -164.6 0.955367 -75.18 0.955367 -75.18 0.295411 -165.7
8.82680000 0.295413 -164.6 0.955366 -75.18 0.955366 -75.18 0.295412 -165.7
8.82700000 0.295414 -164.6 0.955366 -75.18 0.955366 -75.18 0.295414 -165.7
8.82720000 0.295416 -164.6 0.955365 -75.18 0.955365 -75.18 0.295416 -165.7
8.82740000 0.295418 -164.6 0.955365 -75.18 0.955365 -75.18 0.295417 -165.7
8.82760000 0.295419 -164.6 0.955364 -75.19 0.955364 -75.19 0.295419 -165.7
8.82780000 0.295421 -164.6 0.955364 -75.19 0.955364 -75.19 0.295420 -165.7
8.82800000 0.295423 -164.6 0.955363 -75.19 0.955363 -75.19 0.295422 -165.7
8.82820000 0.295424 -164.6 0.955363 -75.19 0.955363 -75.19 0.295424 -165.7
8.82840000 0.295426 -164.6 0.955362 -75.19 0.955362 -75.19 0.295425 -165.7
8.82860000 0.295427 -164.6 0.955362 -75.19 0.955362 -75.19 0.295427 -165.7
8.82880000 0.295429 -164.7 0.955361 -75.20 0.955361 -75.20 0.295429 -165.7
8.82900000 0.295431 -164.7 0.955361 -75.20 0.955361 -75.20 0.295430 -165.7
8.82920000 0.295432 -164.7 0.955360 -75.20 0.955360 -75.20 0.295432 -165.7
8.82940000 0.295434 -164.7 0.955360 -75.20 0.955360 -75.20 0.295433 -165.8
8.82960000 0.295435 -164.7 0.955359 -75.20 0.955359 -75.20 0.295435 -165.8
8.82980000 0.295437 -164.7 0.955359 -75.21 0.955359 -75.21 0.295437 -165.8
8.83000000 0.295439 -164.7 0.955358 -75.21 0.955358 -75.21 0.295438 -165.8
8.83020000 0.295440 -164.7 0.955358 -75.21 0.955358 -75.21 0.295440 -165.8
8.83040000 0.295442 -164.7 0.955357 -75.21 0.955357 -75.21 0.295441 -165.8
8.83060000 0.295443 -164.7 0.955357 -75.21 0.955357 -75.21 0.295443 -165.8
8.83080000 0.295445 -164.7 0.955356 -75.21 0.955356 -75.21 0.295444 -165.8
8.83100000 0.295447 -164.7 0.955356 -75.22 0.955356 -75.22 0.295446 -165.8
8.83120000 0.295448 -164.7 0.955355 -75.22 0.955355 -75.22 0.295448 -165.8
8.83140000 0.295450 -164.7 0.955355 -75.22 0.955355 -75.22 0.295449 -165.8
8.83160000 0.295451 -164.7 0.955354 -75.22 0.955354 -75.22 0.295451 -165.8
8.83180000 0.295453 -164.7 0.955354 -75.22 0.955354 -75.22 0.295452 -165.8
8.83200000 0.295454 -164.7 0.955353 -75.23 0.955353 -75.23 0.295454 -165.8
8.83220000 0.295456 -164.7 0.955353 -75.23 0.955353 -75.23 0.295455 -165.8
8.83240000 0.295457 -164.7 0.955352 -75.23 0.955352 -75.23 0.295457 -165.8
8.83260000 0.295459 -164.7 0.955352 -75.23 0.955352 -75.23 0.295458 -165.8
8.83280000 0.295461 -164.7 0.955352 -75.23 0.955352 -75.23 0.295460 -165.8
8.83300000 0.295462 -164.7 0.955351 -75.23 0.955351 -75.23 0.295462 -165.8
8.83320000 0.295464 -164.7 0.955351 -75.24 0.955351 -75.24 0.295463 -165.8
8.83340000 0.295465 -164.7 0.955350 -75.24 0.955350 -75.24 0.295465 -165.8
8.83360000 0.295467 -164.7 0.955350 -75.24 0.955350 -75.24 0.295466 -165.8
8.83380000 0.295468 -164.7 0.955349 -75.24 0.955349 -75.24 0.295468 -165.8
8.83400000 0.295470 -164.7 0.955349 -75.24 0.955349 -75.24 0.295469 -165.8
8.83420000 0.295471 -164.7 0.955348 -75.25 0.955348 -75.25 0.295471 -165.8
8.83440000 0.295473 -164.7 0.955348 -75.25 0.955348 -75.25 0.295472 -165.8
8.83460000 0.295474 -164.7 0.955347 -75.25 0.955347 -75.25 0.295474 -165.8
8.83480000 0.295476 -164.7 0.955347 -75.25 0.955347 -75.25 0.295475 -165.8
8.83500000 0.295477 -164.7 0.955346 -75.25 0.955346 -75.25 0.295477 -165.8
8.83520000 0.295479 -164.7 0.955346 -75.25 0.955346 -75.25 0.295478 -165.8
8.83540000 0.295480 -164.7 0.955345 -75.26 0.955345 -75.26 0.295480 -165.8
8.83560000 0.295482 -164.7 0.955345 -75.26 0.955345 -75.26 0.295481 -165.8
8.83580000 0.295483 -164.7 0.955345 -75.26 0.955345 -75.26 0.295483 -165.8
8.83600000 0.295485 -164.7 0.955344 -75.26 0.955344 -75.26 0.295484 -165.8
8.83620000 0.295486 -164.7 0.955344 -75.26 0.955344 -75.26 0.295486 -165.8
8.83640000 0.295488 -164.7 0.955343 -75.27 0.955343 -75.27 0.295487 -165.8
8.83660000 0.295489 -164.7 0.955343 -75.27 0.955343 -75.27 0.295488 -165.8
8.83680000 0.295490 -164.7 0.955342 -75.27 0.955342 -75.27 0.295490 -165.8
8.83700000 0.295492 -164.7 0.955342 -75.27 0.955342 -75.27 0.295491 -165.8
8.83720000 0.295493 -164.7 0.955341 -75.27 0.955341 -75.27 0.295493 -165.8
8.83740000 0.295495 -164.7 0.955341 -75.27 0.955341 -75.27 0.295494 -165.8
8.83760000 0.295496 -164.7 0.955340 -75.28 0.955340 -75.28 0.295496 -165.8
8.83780000 0.295498 -164.7 0.955340 -75.28 0.955340 -75.28 0.295497 -165.8
8.83800000 0.295499 -164.7 0.955340 -75.28 0.955340 -75.28 0.295498 -165.9
8.83820000 0.295500 -164.7 0.955339 -75.28 0.955339 -75.28 0.295500 -165.9
8.83840000 0.295502 -164.7 0.955339 -75.28 0.955339 -75.28 0.295501 -165.9
8.83860000 0.295503 -164.7 0.955338 -75.29 0.955338 -75.29 0.295503 -165.9
8.83880000 0.295505 -164.7 0.955338 -75.29 0.955338 -75.29 0.295504 -165.9
8.83900000 0.295506 -164.7 0.955337 -75.29 0.955337 -75.29 0.295506 -165.9
8.83920000 0.295508 -164.7 0.955337 -75.29 0.955337 -75.29 0.295507 -165.9
8.83940000 0.295509 -164.7 0.955336 -75.29 0.955336 -75.29 0.295508 -165.9
8.83960000 0.295510 -164.7 0.955336 -75.29 0.955336 -75.29 0.295510 -165.9
8.83980000 0.295512 -164.7 0.955336 -75.30 0.955336 -75.30 0.295511 -165.9
8.84000000 0.295513 -164.7 0.955335 -75.30 0.955335 -75.30 0.295512 -165.9
8.84020000 0.295514 -164.7 0.955335 -75.30 0.955335 -75.30 0.295514 -165.9
8.84040000 0.295516 -164.7 0.955334 -75.30 0.955334 -75.30 0.295515 -165.9
8.84060000 0.295517 -164.7 0.955334 -75.30 0.955334 -75.30 0.295517 -165.9
8.84080000 0.295519 -164.7 0.955334 -75.31 0.955334 -75.31 0.295518 -165.9
8.84100000 0.295520 -164.7 0.955333 -75.31 0.955333 -75.31 0.295519 -165.9
8.84120000 0.295521 -164.7 0.955333 -75.31 0.955333 -75.31 0.295521 -165.9
8.84140000 0.295523 -164.7 0.955332 -75.31 0.955332 -75.31 0.295522 -165.9
8.84160000 0.295524 -164.7 0.955332 -75.31 0.955332 -75.31 0.295523 -165.9
8.84180000 0.295525 -164.7 0.955331 -75.31 0.955331 -75.31 0.295525 -165.9
8.84200000 0.295527 -164.7 0.955331 -75.32 0.955331 -75.32 0.295526 -165.9
8.84220000 0.295528 -164.7 0.955331 -75.32 0.955331 -75.32 0.295527 -165.9
8.84240000 0.295529 -164.7 0.955330 -75.32 0.955330 -75.32 0.295529 -165.9
8.84260000 0.295530 -164.7 0.955330 -75.32 0.955330 -75.32 0.295530 -165.9
8.84280000 0.295532 -164.7 0.955329 -75.32 0.955329 -75.32 0.295531 -165.9
8.84300000 0.295533 -164.7 0.955329 -75.33 0.955329 -75.33 0.295532 -165.9
8.84320000 0.295534 -164.7 0.955329 -75.33 0.955329 -75.33 0.295534 -165.9
8.84340000 0.295536 -164.7 0.955328 -75.33 0.955328 -75.33 0.295535 -165.9
8.84360000 0.295537 -164.7 0.955328 -75.33 0.955328 -75.33 0.295536 -165.9
8.84380000 0.295538 -164.7 0.955327 -75.33 0.955327 -75.33 0.295538 -165.9
8.84400000 0.295539 -164.7 0.955327 -75.33 0.955327 -75.33 0.295539 -165.9
8.84420000 0.295541 -164.7 0.955327 -75.34 0.955327 -75.34 0.295540 -165.9
8.84440000 0.295542 -164.7 0.955326 -75.34 0.955326 -75.34 0.295541 -165.9
8.84460000 0.295543 -164.7 0.955326 -75.34 0.955326 -75.34 0.295543 -165.9
8.84480000 0.295545 -164.7 0.955325 -75.34 0.955325 -75.34 0.295544 -165.9
8.84500000 0.295546 -164.7 0.955325 -75.34 0.955325 -75.34 0.295545 -165.9
8.84520000 0.295547 -164.8 0.955325 -75.35 0.955325 -75.35 0.295546 -165.9
8.84540000 0.295548 -164.8 0.955324 -75.35 0.955324 -75.35 0.295548 -165.9
8.84560000 0.295549 -164.8 0.955324 -75.35 0.955324 -75.35 0.295549 -165.9
8.84580000 0.295551 -164.8 0.955324 -75.35 0.955324 -75.35 0.295550 -166.0
8.84600000 0.295552 -164.8 0.955323 -75.35 0.955323 -75.35 0.295551 -166.0
8.84620000 0.295553 -164.8 0.955323 -75.36 0.955323 -75.36 0.295552 -166.0
8.84640000 0.295554 -164.8 0.955322 -75.36 0.955322 -75.36 0.295554 -166.0
8.84660000 0.295555 -164.8 0.955322 -75.36 0.955322 -75.36 0.295555 -166.0
8.84680000 0.295557 -164.8 0.955322 -75.36 0.955322 -75.36 0.295556 -166.0
8.84700000 0.295558 -164.8 0.955321 -75.36 0.955321 -75.36 0.295557 -166.0
8.84720000 0.295559 -164.8 0.955321 -75.36 0.955321 -75.36 0.295558 -166.0
8.84740000 0.295560 -164.8 0.955321 -75.37 0.955321 -75.37 0.295559 -166.0
8.84760000 0.295561 -164.8 0.955320 -75.37 0.955320 -75.37 0.295561 -166.0
8.84780000 0.295562 -164.8 0.955320 -75.37 0.955320 -75.37 0.295562 -166.0
8.84800000 0.295564 -164.8 0.955320 -75.37 0.955320 -75.37 0.295563 -166.0
8.84820000 0.295565 -164.8 0.955319 -75.37 0.955319 -75.37 0.295564 -166.0
8.84840000 0.295566 -164.8 0.955319 -75.38 0.955319 -75.38 0.295565 -166.0
8.84860000 0.295567 -164.8 0.955318 -75.38 0.955318 -75.38 0.295566 -166.0
8.84880000 0.295568 -164.8 0.955318 -75.38 0.955318 -75.38 0.295567 -166.0
8.84900000 0.295569 -164.8 0.955318 -75.38 0.955318 -75.38 0.295568 -166.0
8.84920000 0.295570 -164.8 0.955317 -75.38 0.955317 -75.38 0.295570 -166.0
8.84940000 0.295571 -164.8 0.955317 -75.39 0.955317 -75.39 0.295571 -166.0
8.84960000 0.295572 -164.8 0.955317 -75.39 0.955317 -75.39 0.295572 -166.0
8.84980000 0.295574 -164.8 0.955316 -75.39 0.955316 -75.39 0.295573 -166.0
8.85000000 0.295575 -164.8 0.955316 -75.39 0.955316 -75.39 0.295574 -166.0
8.85020000 0.295576 -164.8 0.955316 -75.39 0.955316 -75.39 0.295575 -166.0
8.85040000 0.295577 -164.8 0.955315 -75.39 0.955315 -75.39 0.295576 -166.0
8.85060000 0.295578 -164.8 0.955315 -75.40 0.955315 -75.40 0.295577 -166.0
8.85080000 0.295579 -164.8 0.955315 -75.40 0.955315 -75.40 0.295578 -166.0
8.85100000 0.295580 -164.8 0.955314 -75.40 0.955314 -75.40 0.295579 -166.0
8.85120000 0.295581 -164.8 0.955314 -75.40 0.955314 -75.40 0.295580 -166.0
8.85140000 0.295582 -164.8 0.955314 -75.40 0.955314 -75.40 0.295581 -166.0
8.85160000 0.295583 -164.8 0.955313 -75.41 0.955313 -75.41 0.295582 -166.0
8.85180000 0.295584 -164.8 0.955313 -75.41 0.955313 -75.41 0.295583 -166.0
