! Sonnet Data File
! From: emgraph Version : 16.52
! From Project: Resonator2
! Data is De-embedded 
! Data File Written: 10/05/2017 10:46:04
!< HDATE 10/04/2017 20:26:48
!< MDATE 10/05/2017 00:36:07
!< PARAMS
!< gap = 16.0
!< Length = 400.0
!< Pwid1 = 2000.0
!< Pwid2 = 2000.0
!< END PARAMS
# GHZ S MA R 50.00000
8.80000000 0.278967 -164.3 0.960297 -75.97 0.960297 -75.97 0.278965 -167.6
!< P1 F=8.8 Eeff=(5.36817953 -2.3731e-5) Z0=(35.9853883 8.0522e-5) R=0.0 C=0.0 
!< P2 F=8.8 Eeff=(5.36817953 -2.3731e-5) Z0=(35.9853883 8.0522e-5) R=0.0 C=0.0 
8.80020000 0.278960 -164.4 0.960299 -75.97 0.960299 -75.97 0.278958 -167.6
8.80040000 0.278952 -164.4 0.960301 -75.97 0.960301 -75.97 0.278951 -167.6
8.80060000 0.278945 -164.4 0.960303 -75.97 0.960303 -75.97 0.278943 -167.6
8.80080000 0.278938 -164.4 0.960305 -75.98 0.960305 -75.98 0.278936 -167.6
8.80100000 0.278930 -164.4 0.960307 -75.98 0.960307 -75.98 0.278929 -167.6
8.80120000 0.278923 -164.4 0.960309 -75.98 0.960309 -75.98 0.278921 -167.6
8.80140000 0.278915 -164.4 0.960311 -75.98 0.960311 -75.98 0.278914 -167.6
8.80160000 0.278908 -164.4 0.960314 -75.98 0.960314 -75.98 0.278906 -167.6
8.80180000 0.278900 -164.4 0.960316 -75.99 0.960316 -75.99 0.278899 -167.6
8.80200000 0.278893 -164.4 0.960318 -75.99 0.960318 -75.99 0.278891 -167.6
8.80220000 0.278885 -164.4 0.960320 -75.99 0.960320 -75.99 0.278883 -167.6
8.80240000 0.278877 -164.4 0.960322 -75.99 0.960322 -75.99 0.278876 -167.6
8.80260000 0.278870 -164.4 0.960325 -76.00 0.960325 -76.00 0.278868 -167.6
8.80280000 0.278862 -164.4 0.960327 -76.00 0.960327 -76.00 0.278860 -167.6
8.80300000 0.278854 -164.4 0.960329 -76.00 0.960329 -76.00 0.278853 -167.6
8.80320000 0.278846 -164.4 0.960331 -76.00 0.960331 -76.00 0.278845 -167.6
8.80340000 0.278839 -164.4 0.960334 -76.01 0.960334 -76.01 0.278837 -167.7
8.80360000 0.278831 -164.4 0.960336 -76.01 0.960336 -76.01 0.278829 -167.7
8.80380000 0.278823 -164.4 0.960338 -76.01 0.960338 -76.01 0.278821 -167.7
8.80400000 0.278815 -164.4 0.960341 -76.01 0.960341 -76.01 0.278813 -167.7
8.80420000 0.278807 -164.4 0.960343 -76.02 0.960343 -76.02 0.278805 -167.7
8.80440000 0.278799 -164.4 0.960345 -76.02 0.960345 -76.02 0.278797 -167.7
8.80460000 0.278791 -164.4 0.960348 -76.02 0.960348 -76.02 0.278789 -167.7
8.80480000 0.278782 -164.4 0.960350 -76.02 0.960350 -76.02 0.278781 -167.7
8.80500000 0.278774 -164.4 0.960352 -76.03 0.960352 -76.03 0.278772 -167.7
8.80520000 0.278766 -164.4 0.960355 -76.03 0.960355 -76.03 0.278764 -167.7
8.80540000 0.278758 -164.4 0.960357 -76.03 0.960357 -76.03 0.278756 -167.7
8.80560000 0.278749 -164.4 0.960360 -76.03 0.960360 -76.03 0.278748 -167.7
8.80580000 0.278741 -164.4 0.960362 -76.04 0.960362 -76.04 0.278739 -167.7
8.80600000 0.278733 -164.4 0.960364 -76.04 0.960364 -76.04 0.278731 -167.7
8.80620000 0.278724 -164.4 0.960367 -76.04 0.960367 -76.04 0.278722 -167.7
8.80640000 0.278716 -164.4 0.960369 -76.04 0.960369 -76.04 0.278714 -167.7
8.80660000 0.278707 -164.4 0.960372 -76.05 0.960372 -76.05 0.278705 -167.7
8.80680000 0.278698 -164.4 0.960374 -76.05 0.960374 -76.05 0.278697 -167.7
8.80700000 0.278690 -164.4 0.960377 -76.05 0.960377 -76.05 0.278688 -167.7
8.80720000 0.278681 -164.4 0.960379 -76.05 0.960379 -76.05 0.278679 -167.7
8.80740000 0.278672 -164.4 0.960382 -76.06 0.960382 -76.06 0.278671 -167.7
8.80760000 0.278664 -164.4 0.960384 -76.06 0.960384 -76.06 0.278662 -167.7
8.80780000 0.278655 -164.4 0.960387 -76.06 0.960387 -76.06 0.278653 -167.8
8.80800000 0.278646 -164.4 0.960389 -76.06 0.960389 -76.06 0.278644 -167.8
8.80820000 0.278637 -164.4 0.960392 -76.07 0.960392 -76.07 0.278635 -167.8
8.80840000 0.278628 -164.4 0.960395 -76.07 0.960395 -76.07 0.278626 -167.8
8.80860000 0.278619 -164.4 0.960397 -76.07 0.960397 -76.07 0.278617 -167.8
8.80880000 0.278610 -164.4 0.960400 -76.07 0.960400 -76.07 0.278608 -167.8
8.80900000 0.278601 -164.4 0.960403 -76.08 0.960403 -76.08 0.278599 -167.8
8.80920000 0.278592 -164.4 0.960405 -76.08 0.960405 -76.08 0.278590 -167.8
8.80940000 0.278583 -164.4 0.960408 -76.08 0.960408 -76.08 0.278581 -167.8
8.80960000 0.278573 -164.4 0.960411 -76.08 0.960411 -76.08 0.278571 -167.8
8.80980000 0.278564 -164.4 0.960413 -76.09 0.960413 -76.09 0.278562 -167.8
8.81000000 0.278555 -164.4 0.960416 -76.09 0.960416 -76.09 0.278553 -167.8
8.81020000 0.278545 -164.4 0.960419 -76.09 0.960419 -76.09 0.278543 -167.8
8.81040000 0.278536 -164.4 0.960421 -76.09 0.960421 -76.09 0.278534 -167.8
8.81060000 0.278526 -164.4 0.960424 -76.10 0.960424 -76.10 0.278524 -167.8
8.81080000 0.278517 -164.4 0.960427 -76.10 0.960427 -76.10 0.278515 -167.8
8.81100000 0.278507 -164.4 0.960430 -76.10 0.960430 -76.10 0.278505 -167.8
8.81120000 0.278497 -164.4 0.960432 -76.11 0.960432 -76.11 0.278495 -167.8
8.81140000 0.278488 -164.4 0.960435 -76.11 0.960435 -76.11 0.278486 -167.8
8.81160000 0.278478 -164.4 0.960438 -76.11 0.960438 -76.11 0.278476 -167.8
8.81180000 0.278468 -164.4 0.960441 -76.11 0.960441 -76.11 0.278466 -167.8
8.81200000 0.278458 -164.4 0.960444 -76.12 0.960444 -76.12 0.278456 -167.9
8.81220000 0.278448 -164.4 0.960447 -76.12 0.960447 -76.12 0.278446 -167.9
8.81240000 0.278438 -164.4 0.960450 -76.12 0.960450 -76.12 0.278436 -167.9
8.81260000 0.278428 -164.4 0.960452 -76.12 0.960452 -76.12 0.278426 -167.9
8.81280000 0.278418 -164.4 0.960455 -76.13 0.960455 -76.13 0.278416 -167.9
8.81300000 0.278408 -164.4 0.960458 -76.13 0.960458 -76.13 0.278406 -167.9
8.81320000 0.278398 -164.4 0.960461 -76.13 0.960461 -76.13 0.278396 -167.9
8.81340000 0.278388 -164.4 0.960464 -76.13 0.960464 -76.13 0.278385 -167.9
8.81360000 0.278377 -164.4 0.960467 -76.14 0.960467 -76.14 0.278375 -167.9
8.81380000 0.278367 -164.4 0.960470 -76.14 0.960470 -76.14 0.278365 -167.9
8.81400000 0.278356 -164.4 0.960473 -76.14 0.960473 -76.14 0.278354 -167.9
8.81420000 0.278346 -164.4 0.960476 -76.14 0.960476 -76.14 0.278344 -167.9
8.81440000 0.278335 -164.4 0.960479 -76.15 0.960479 -76.15 0.278333 -167.9
8.81460000 0.278325 -164.4 0.960482 -76.15 0.960482 -76.15 0.278322 -167.9
8.81480000 0.278314 -164.4 0.960486 -76.15 0.960486 -76.15 0.278312 -167.9
8.81500000 0.278303 -164.4 0.960489 -76.16 0.960489 -76.16 0.278301 -167.9
8.81520000 0.278293 -164.4 0.960492 -76.16 0.960492 -76.16 0.278290 -167.9
8.81540000 0.278282 -164.4 0.960495 -76.16 0.960495 -76.16 0.278279 -167.9
8.81560000 0.278271 -164.4 0.960498 -76.16 0.960498 -76.16 0.278268 -167.9
8.81580000 0.278260 -164.4 0.960501 -76.17 0.960501 -76.17 0.278257 -167.9
8.81600000 0.278249 -164.4 0.960504 -76.17 0.960504 -76.17 0.278246 -168.0
8.81620000 0.278238 -164.4 0.960508 -76.17 0.960508 -76.17 0.278235 -168.0
8.81640000 0.278227 -164.4 0.960511 -76.17 0.960511 -76.17 0.278224 -168.0
8.81660000 0.278215 -164.4 0.960514 -76.18 0.960514 -76.18 0.278213 -168.0
8.81680000 0.278204 -164.4 0.960517 -76.18 0.960517 -76.18 0.278202 -168.0
8.81700000 0.278193 -164.4 0.960521 -76.18 0.960521 -76.18 0.278190 -168.0
8.81720000 0.278181 -164.4 0.960524 -76.19 0.960524 -76.19 0.278179 -168.0
8.81740000 0.278170 -164.4 0.960527 -76.19 0.960527 -76.19 0.278167 -168.0
8.81760000 0.278158 -164.4 0.960531 -76.19 0.960531 -76.19 0.278156 -168.0
8.81780000 0.278147 -164.4 0.960534 -76.19 0.960534 -76.19 0.278144 -168.0
8.81800000 0.278135 -164.4 0.960537 -76.20 0.960537 -76.20 0.278132 -168.0
8.81820000 0.278123 -164.4 0.960541 -76.20 0.960541 -76.20 0.278121 -168.0
8.81840000 0.278111 -164.4 0.960544 -76.20 0.960544 -76.20 0.278109 -168.0
8.81860000 0.278099 -164.4 0.960547 -76.20 0.960547 -76.20 0.278097 -168.0
8.81880000 0.278088 -164.4 0.960551 -76.21 0.960551 -76.21 0.278085 -168.0
8.81900000 0.278076 -164.4 0.960554 -76.21 0.960554 -76.21 0.278073 -168.0
8.81920000 0.278063 -164.4 0.960558 -76.21 0.960558 -76.21 0.278061 -168.0
8.81940000 0.278051 -164.4 0.960561 -76.22 0.960561 -76.22 0.278049 -168.0
8.81960000 0.278039 -164.4 0.960565 -76.22 0.960565 -76.22 0.278037 -168.0
8.81980000 0.278027 -164.4 0.960568 -76.22 0.960568 -76.22 0.278024 -168.1
8.82000000 0.278014 -164.4 0.960572 -76.22 0.960572 -76.22 0.278012 -168.1
8.82020000 0.278002 -164.4 0.960576 -76.23 0.960576 -76.23 0.277999 -168.1
8.82040000 0.277989 -164.4 0.960579 -76.23 0.960579 -76.23 0.277987 -168.1
8.82060000 0.277977 -164.4 0.960583 -76.23 0.960583 -76.23 0.277974 -168.1
8.82080000 0.277964 -164.4 0.960587 -76.24 0.960587 -76.24 0.277962 -168.1
8.82100000 0.277952 -164.4 0.960590 -76.24 0.960590 -76.24 0.277949 -168.1
8.82120000 0.277939 -164.4 0.960594 -76.24 0.960594 -76.24 0.277936 -168.1
8.82140000 0.277926 -164.4 0.960598 -76.24 0.960598 -76.24 0.277923 -168.1
8.82160000 0.277913 -164.4 0.960601 -76.25 0.960601 -76.25 0.277910 -168.1
8.82180000 0.277900 -164.4 0.960605 -76.25 0.960605 -76.25 0.277897 -168.1
8.82200000 0.277887 -164.4 0.960609 -76.25 0.960609 -76.25 0.277884 -168.1
8.82220000 0.277874 -164.4 0.960613 -76.26 0.960613 -76.26 0.277871 -168.1
8.82240000 0.277860 -164.4 0.960617 -76.26 0.960617 -76.26 0.277857 -168.1
8.82260000 0.277847 -164.4 0.960620 -76.26 0.960620 -76.26 0.277844 -168.1
8.82280000 0.277834 -164.4 0.960624 -76.26 0.960624 -76.26 0.277831 -168.1
8.82300000 0.277820 -164.4 0.960628 -76.27 0.960628 -76.27 0.277817 -168.1
8.82320000 0.277806 -164.4 0.960632 -76.27 0.960632 -76.27 0.277804 -168.2
8.82340000 0.277793 -164.4 0.960636 -76.27 0.960636 -76.27 0.277790 -168.2
8.82360000 0.277779 -164.4 0.960640 -76.28 0.960640 -76.28 0.277776 -168.2
8.82380000 0.277765 -164.4 0.960644 -76.28 0.960644 -76.28 0.277762 -168.2
8.82400000 0.277751 -164.4 0.960648 -76.28 0.960648 -76.28 0.277748 -168.2
8.82420000 0.277737 -164.4 0.960652 -76.28 0.960652 -76.28 0.277734 -168.2
8.82440000 0.277723 -164.4 0.960656 -76.29 0.960656 -76.29 0.277720 -168.2
8.82460000 0.277709 -164.4 0.960660 -76.29 0.960660 -76.29 0.277706 -168.2
8.82480000 0.277695 -164.4 0.960664 -76.29 0.960664 -76.29 0.277692 -168.2
8.82500000 0.277680 -164.4 0.960668 -76.30 0.960668 -76.30 0.277677 -168.2
8.82520000 0.277666 -164.4 0.960673 -76.30 0.960673 -76.30 0.277663 -168.2
8.82540000 0.277652 -164.4 0.960677 -76.30 0.960677 -76.30 0.277649 -168.2
8.82560000 0.277637 -164.4 0.960681 -76.31 0.960681 -76.31 0.277634 -168.2
8.82580000 0.277622 -164.4 0.960685 -76.31 0.960685 -76.31 0.277619 -168.2
8.82600000 0.277607 -164.4 0.960689 -76.31 0.960689 -76.31 0.277604 -168.2
8.82620000 0.277593 -164.4 0.960694 -76.31 0.960694 -76.31 0.277590 -168.2
8.82640000 0.277578 -164.4 0.960698 -76.32 0.960698 -76.32 0.277575 -168.2
8.82660000 0.277563 -164.4 0.960702 -76.32 0.960702 -76.32 0.277559 -168.3
8.82680000 0.277547 -164.4 0.960707 -76.32 0.960707 -76.32 0.277544 -168.3
8.82700000 0.277532 -164.4 0.960711 -76.33 0.960711 -76.33 0.277529 -168.3
8.82720000 0.277517 -164.4 0.960716 -76.33 0.960716 -76.33 0.277514 -168.3
8.82740000 0.277501 -164.4 0.960720 -76.33 0.960720 -76.33 0.277498 -168.3
8.82760000 0.277486 -164.4 0.960724 -76.34 0.960724 -76.34 0.277483 -168.3
8.82780000 0.277470 -164.4 0.960729 -76.34 0.960729 -76.34 0.277467 -168.3
8.82800000 0.277455 -164.4 0.960733 -76.34 0.960733 -76.34 0.277451 -168.3
8.82820000 0.277439 -164.4 0.960738 -76.34 0.960738 -76.34 0.277436 -168.3
8.82840000 0.277423 -164.4 0.960743 -76.35 0.960743 -76.35 0.277420 -168.3
8.82860000 0.277407 -164.4 0.960747 -76.35 0.960747 -76.35 0.277404 -168.3
8.82880000 0.277391 -164.4 0.960752 -76.35 0.960752 -76.35 0.277387 -168.3
8.82900000 0.277375 -164.4 0.960757 -76.36 0.960757 -76.36 0.277371 -168.3
8.82920000 0.277358 -164.4 0.960761 -76.36 0.960761 -76.36 0.277355 -168.3
8.82940000 0.277342 -164.4 0.960766 -76.36 0.960766 -76.36 0.277338 -168.3
8.82960000 0.277325 -164.4 0.960771 -76.37 0.960771 -76.37 0.277322 -168.4
8.82980000 0.277309 -164.4 0.960776 -76.37 0.960776 -76.37 0.277305 -168.4
8.83000000 0.277292 -164.4 0.960780 -76.37 0.960780 -76.37 0.277288 -168.4
8.83020000 0.277275 -164.4 0.960785 -76.38 0.960785 -76.38 0.277272 -168.4
8.83040000 0.277258 -164.4 0.960790 -76.38 0.960790 -76.38 0.277255 -168.4
8.83060000 0.277241 -164.4 0.960795 -76.38 0.960795 -76.38 0.277238 -168.4
8.83080000 0.277224 -164.4 0.960800 -76.39 0.960800 -76.39 0.277220 -168.4
8.83100000 0.277207 -164.4 0.960805 -76.39 0.960805 -76.39 0.277203 -168.4
8.83120000 0.277189 -164.4 0.960810 -76.39 0.960810 -76.39 0.277186 -168.4
8.83140000 0.277172 -164.4 0.960815 -76.40 0.960815 -76.40 0.277168 -168.4
8.83160000 0.277154 -164.4 0.960820 -76.40 0.960820 -76.40 0.277150 -168.4
8.83180000 0.277136 -164.4 0.960825 -76.40 0.960825 -76.40 0.277133 -168.4
8.83200000 0.277119 -164.4 0.960830 -76.40 0.960830 -76.40 0.277115 -168.4
8.83220000 0.277101 -164.4 0.960835 -76.41 0.960835 -76.41 0.277097 -168.4
8.83240000 0.277082 -164.4 0.960841 -76.41 0.960841 -76.41 0.277079 -168.4
8.83260000 0.277064 -164.4 0.960846 -76.41 0.960846 -76.41 0.277061 -168.5
8.83280000 0.277046 -164.4 0.960851 -76.42 0.960851 -76.42 0.277042 -168.5
8.83300000 0.277028 -164.4 0.960856 -76.42 0.960856 -76.42 0.277024 -168.5
8.83320000 0.277009 -164.4 0.960862 -76.42 0.960862 -76.42 0.277005 -168.5
8.83340000 0.276990 -164.4 0.960867 -76.43 0.960867 -76.43 0.276986 -168.5
8.83360000 0.276971 -164.4 0.960873 -76.43 0.960873 -76.43 0.276968 -168.5
8.83380000 0.276953 -164.4 0.960878 -76.43 0.960878 -76.43 0.276949 -168.5
8.83400000 0.276933 -164.4 0.960883 -76.44 0.960883 -76.44 0.276930 -168.5
8.83420000 0.276914 -164.4 0.960889 -76.44 0.960889 -76.44 0.276910 -168.5
8.83440000 0.276895 -164.4 0.960895 -76.44 0.960895 -76.44 0.276891 -168.5
8.83460000 0.276876 -164.4 0.960900 -76.45 0.960900 -76.45 0.276872 -168.5
8.83480000 0.276856 -164.4 0.960906 -76.45 0.960906 -76.45 0.276852 -168.5
8.83500000 0.276836 -164.4 0.960911 -76.45 0.960911 -76.45 0.276832 -168.5
8.83520000 0.276816 -164.4 0.960917 -76.46 0.960917 -76.46 0.276812 -168.6
8.83540000 0.276796 -164.4 0.960923 -76.46 0.960923 -76.46 0.276792 -168.6
8.83560000 0.276776 -164.4 0.960929 -76.46 0.960929 -76.46 0.276772 -168.6
8.83580000 0.276756 -164.4 0.960934 -76.47 0.960934 -76.47 0.276752 -168.6
8.83600000 0.276736 -164.4 0.960940 -76.47 0.960940 -76.47 0.276732 -168.6
8.83620000 0.276715 -164.4 0.960946 -76.48 0.960946 -76.48 0.276711 -168.6
8.83640000 0.276694 -164.4 0.960952 -76.48 0.960952 -76.48 0.276690 -168.6
8.83660000 0.276674 -164.4 0.960958 -76.48 0.960958 -76.48 0.276669 -168.6
8.83680000 0.276653 -164.4 0.960964 -76.49 0.960964 -76.49 0.276648 -168.6
8.83700000 0.276632 -164.4 0.960970 -76.49 0.960970 -76.49 0.276627 -168.6
8.83720000 0.276610 -164.4 0.960976 -76.49 0.960976 -76.49 0.276606 -168.6
8.83740000 0.276589 -164.4 0.960982 -76.50 0.960982 -76.50 0.276585 -168.6
8.83760000 0.276567 -164.4 0.960989 -76.50 0.960989 -76.50 0.276563 -168.6
8.83780000 0.276546 -164.4 0.960995 -76.50 0.960995 -76.50 0.276541 -168.7
8.83800000 0.276524 -164.4 0.961001 -76.51 0.961001 -76.51 0.276520 -168.7
8.83820000 0.276502 -164.4 0.961007 -76.51 0.961007 -76.51 0.276497 -168.7
8.83840000 0.276480 -164.3 0.961014 -76.51 0.961014 -76.51 0.276475 -168.7
8.83860000 0.276457 -164.3 0.961020 -76.52 0.961020 -76.52 0.276453 -168.7
8.83880000 0.276435 -164.3 0.961027 -76.52 0.961027 -76.52 0.276430 -168.7
8.83900000 0.276412 -164.3 0.961033 -76.52 0.961033 -76.52 0.276408 -168.7
8.83920000 0.276390 -164.3 0.961040 -76.53 0.961040 -76.53 0.276385 -168.7
8.83940000 0.276367 -164.3 0.961046 -76.53 0.961046 -76.53 0.276362 -168.7
8.83960000 0.276344 -164.3 0.961053 -76.54 0.961053 -76.54 0.276339 -168.7
8.83980000 0.276320 -164.3 0.961059 -76.54 0.961059 -76.54 0.276316 -168.7
8.84000000 0.276297 -164.3 0.961066 -76.54 0.961066 -76.54 0.276292 -168.7
8.84020000 0.276273 -164.3 0.961073 -76.55 0.961073 -76.55 0.276268 -168.8
8.84040000 0.276249 -164.3 0.961080 -76.55 0.961080 -76.55 0.276245 -168.8
8.84060000 0.276225 -164.3 0.961087 -76.55 0.961087 -76.55 0.276221 -168.8
8.84080000 0.276201 -164.3 0.961094 -76.56 0.961094 -76.56 0.276197 -168.8
8.84100000 0.276177 -164.3 0.961100 -76.56 0.961100 -76.56 0.276172 -168.8
8.84120000 0.276153 -164.3 0.961107 -76.57 0.961107 -76.57 0.276148 -168.8
8.84140000 0.276128 -164.3 0.961115 -76.57 0.961115 -76.57 0.276123 -168.8
8.84160000 0.276103 -164.3 0.961122 -76.57 0.961122 -76.57 0.276098 -168.8
8.84180000 0.276078 -164.3 0.961129 -76.58 0.961129 -76.58 0.276073 -168.8
8.84200000 0.276053 -164.3 0.961136 -76.58 0.961136 -76.58 0.276048 -168.8
8.84220000 0.276027 -164.3 0.961143 -76.58 0.961143 -76.58 0.276022 -168.8
8.84240000 0.276002 -164.3 0.961151 -76.59 0.961151 -76.59 0.275997 -168.9
8.84260000 0.275976 -164.3 0.961158 -76.59 0.961158 -76.59 0.275971 -168.9
8.84280000 0.275950 -164.3 0.961165 -76.60 0.961165 -76.60 0.275945 -168.9
8.84300000 0.275924 -164.3 0.961173 -76.60 0.961173 -76.60 0.275919 -168.9
8.84320000 0.275898 -164.3 0.961180 -76.60 0.961180 -76.60 0.275892 -168.9
8.84340000 0.275871 -164.3 0.961188 -76.61 0.961188 -76.61 0.275866 -168.9
8.84360000 0.275844 -164.3 0.961196 -76.61 0.961196 -76.61 0.275839 -168.9
8.84380000 0.275817 -164.3 0.961203 -76.62 0.961203 -76.62 0.275812 -168.9
8.84400000 0.275790 -164.3 0.961211 -76.62 0.961211 -76.62 0.275785 -168.9
8.84420000 0.275763 -164.3 0.961219 -76.62 0.961219 -76.62 0.275757 -168.9
8.84440000 0.275735 -164.3 0.961227 -76.63 0.961227 -76.63 0.275730 -168.9
8.84460000 0.275707 -164.3 0.961235 -76.63 0.961235 -76.63 0.275702 -169.0
8.84480000 0.275679 -164.3 0.961243 -76.64 0.961243 -76.64 0.275674 -169.0
8.84500000 0.275651 -164.3 0.961251 -76.64 0.961251 -76.64 0.275645 -169.0
8.84520000 0.275623 -164.3 0.961259 -76.64 0.961259 -76.64 0.275617 -169.0
8.84540000 0.275594 -164.3 0.961267 -76.65 0.961267 -76.65 0.275588 -169.0
8.84560000 0.275565 -164.3 0.961276 -76.65 0.961276 -76.65 0.275559 -169.0
8.84580000 0.275536 -164.3 0.961284 -76.66 0.961284 -76.66 0.275530 -169.0
8.84600000 0.275507 -164.3 0.961292 -76.66 0.961292 -76.66 0.275501 -169.0
8.84620000 0.275477 -164.3 0.961301 -76.67 0.961301 -76.67 0.275471 -169.0
8.84640000 0.275447 -164.3 0.961309 -76.67 0.961309 -76.67 0.275441 -169.0
8.84660000 0.275417 -164.3 0.961318 -76.67 0.961318 -76.67 0.275411 -169.1
8.84680000 0.275387 -164.3 0.961326 -76.68 0.961326 -76.68 0.275381 -169.1
8.84700000 0.275356 -164.3 0.961335 -76.68 0.961335 -76.68 0.275350 -169.1
8.84720000 0.275326 -164.3 0.961344 -76.69 0.961344 -76.69 0.275319 -169.1
8.84740000 0.275295 -164.3 0.961353 -76.69 0.961353 -76.69 0.275288 -169.1
8.84760000 0.275263 -164.3 0.961362 -76.70 0.961362 -76.70 0.275257 -169.1
8.84780000 0.275232 -164.3 0.961371 -76.70 0.961371 -76.70 0.275226 -169.1
8.84800000 0.275200 -164.3 0.961380 -76.70 0.961380 -76.70 0.275194 -169.1
8.84820000 0.275168 -164.3 0.961389 -76.71 0.961389 -76.71 0.275162 -169.1
8.84840000 0.275136 -164.3 0.961398 -76.71 0.961398 -76.71 0.275129 -169.2
8.84860000 0.275103 -164.3 0.961407 -76.72 0.961407 -76.72 0.275097 -169.2
8.84880000 0.275070 -164.3 0.961417 -76.72 0.961417 -76.72 0.275064 -169.2
8.84900000 0.275037 -164.3 0.961426 -76.73 0.961426 -76.73 0.275031 -169.2
8.84920000 0.275004 -164.3 0.961436 -76.73 0.961436 -76.73 0.274997 -169.2
8.84940000 0.274970 -164.3 0.961445 -76.74 0.961445 -76.74 0.274963 -169.2
8.84960000 0.274936 -164.3 0.961455 -76.74 0.961455 -76.74 0.274929 -169.2
8.84980000 0.274902 -164.3 0.961465 -76.74 0.961465 -76.74 0.274895 -169.2
8.85000000 0.274868 -164.2 0.961475 -76.75 0.961475 -76.75 0.274861 -169.2
8.85020000 0.274833 -164.2 0.961484 -76.75 0.961484 -76.75 0.274826 -169.3
8.85040000 0.274798 -164.2 0.961494 -76.76 0.961494 -76.76 0.274791 -169.3
8.85060000 0.274762 -164.2 0.961505 -76.76 0.961505 -76.76 0.274755 -169.3
8.85080000 0.274727 -164.2 0.961515 -76.77 0.961515 -76.77 0.274719 -169.3
8.85100000 0.274691 -164.2 0.961525 -76.77 0.961525 -76.77 0.274683 -169.3
8.85120000 0.274654 -164.2 0.961535 -76.78 0.961535 -76.78 0.274647 -169.3
8.85140000 0.274618 -164.2 0.961546 -76.78 0.961546 -76.78 0.274610 -169.3
8.85160000 0.274581 -164.2 0.961556 -76.79 0.961556 -76.79 0.274573 -169.3
8.85180000 0.274543 -164.2 0.961567 -76.79 0.961567 -76.79 0.274536 -169.4
