! Sonnet Data File
! From: emgraph Version : 16.52
! From Project: Resonator2
! Data is De-embedded 
! Data File Written: 10/05/2017 10:46:05
!< HDATE 10/04/2017 20:26:48
!< MDATE 10/05/2017 00:36:07
!< PARAMS
!< gap = 26.0
!< Length = 400.0
!< Pwid1 = 2000.0
!< Pwid2 = 2000.0
!< END PARAMS
# GHZ S MA R 50.00000
8.80000000 0.285458 -164.4 0.958388 -75.56 0.958388 -75.56 0.285457 -166.7
!< P1 F=8.8 Eeff=(5.36817953 -2.3731e-5) Z0=(35.9853883 8.0522e-5) R=0.0 C=0.0 
!< P2 F=8.8 Eeff=(5.36817953 -2.3731e-5) Z0=(35.9853883 8.0522e-5) R=0.0 C=0.0 
8.80020000 0.285456 -164.4 0.958388 -75.56 0.958388 -75.56 0.285455 -166.7
8.80040000 0.285454 -164.4 0.958389 -75.56 0.958389 -75.56 0.285453 -166.7
8.80060000 0.285451 -164.4 0.958390 -75.56 0.958390 -75.56 0.285450 -166.7
8.80080000 0.285449 -164.4 0.958390 -75.57 0.958390 -75.57 0.285448 -166.7
8.80100000 0.285447 -164.4 0.958391 -75.57 0.958391 -75.57 0.285446 -166.7
8.80120000 0.285445 -164.4 0.958391 -75.57 0.958391 -75.57 0.285444 -166.7
8.80140000 0.285442 -164.4 0.958392 -75.57 0.958392 -75.57 0.285441 -166.7
8.80160000 0.285440 -164.4 0.958393 -75.57 0.958393 -75.57 0.285439 -166.7
8.80180000 0.285438 -164.4 0.958394 -75.58 0.958394 -75.58 0.285437 -166.7
8.80200000 0.285436 -164.4 0.958394 -75.58 0.958394 -75.58 0.285435 -166.7
8.80220000 0.285433 -164.4 0.958395 -75.58 0.958395 -75.58 0.285432 -166.7
8.80240000 0.285431 -164.4 0.958396 -75.58 0.958396 -75.58 0.285430 -166.7
8.80260000 0.285429 -164.4 0.958396 -75.59 0.958396 -75.59 0.285428 -166.7
8.80280000 0.285426 -164.4 0.958397 -75.59 0.958397 -75.59 0.285425 -166.7
8.80300000 0.285424 -164.4 0.958398 -75.59 0.958398 -75.59 0.285423 -166.7
8.80320000 0.285421 -164.4 0.958398 -75.59 0.958398 -75.59 0.285420 -166.7
8.80340000 0.285419 -164.4 0.958399 -75.59 0.958399 -75.59 0.285418 -166.8
8.80360000 0.285416 -164.4 0.958400 -75.60 0.958400 -75.60 0.285415 -166.8
8.80380000 0.285414 -164.4 0.958401 -75.60 0.958401 -75.60 0.285413 -166.8
8.80400000 0.285411 -164.4 0.958401 -75.60 0.958401 -75.60 0.285410 -166.8
8.80420000 0.285409 -164.4 0.958402 -75.60 0.958402 -75.60 0.285408 -166.8
8.80440000 0.285406 -164.4 0.958403 -75.60 0.958403 -75.60 0.285405 -166.8
8.80460000 0.285404 -164.4 0.958404 -75.61 0.958404 -75.61 0.285403 -166.8
8.80480000 0.285401 -164.4 0.958404 -75.61 0.958404 -75.61 0.285400 -166.8
8.80500000 0.285399 -164.4 0.958405 -75.61 0.958405 -75.61 0.285398 -166.8
8.80520000 0.285396 -164.4 0.958406 -75.61 0.958406 -75.61 0.285395 -166.8
8.80540000 0.285394 -164.4 0.958407 -75.61 0.958407 -75.61 0.285392 -166.8
8.80560000 0.285391 -164.4 0.958407 -75.62 0.958407 -75.62 0.285390 -166.8
8.80580000 0.285388 -164.4 0.958408 -75.62 0.958408 -75.62 0.285387 -166.8
8.80600000 0.285386 -164.4 0.958409 -75.62 0.958409 -75.62 0.285384 -166.8
8.80620000 0.285383 -164.4 0.958410 -75.62 0.958410 -75.62 0.285382 -166.8
8.80640000 0.285380 -164.4 0.958411 -75.62 0.958411 -75.62 0.285379 -166.8
8.80660000 0.285377 -164.5 0.958411 -75.63 0.958411 -75.63 0.285376 -166.8
8.80680000 0.285375 -164.5 0.958412 -75.63 0.958412 -75.63 0.285374 -166.8
8.80700000 0.285372 -164.5 0.958413 -75.63 0.958413 -75.63 0.285371 -166.8
8.80720000 0.285369 -164.5 0.958414 -75.63 0.958414 -75.63 0.285368 -166.8
8.80740000 0.285366 -164.5 0.958415 -75.64 0.958415 -75.64 0.285365 -166.8
8.80760000 0.285363 -164.5 0.958416 -75.64 0.958416 -75.64 0.285362 -166.8
8.80780000 0.285361 -164.5 0.958416 -75.64 0.958416 -75.64 0.285359 -166.8
8.80800000 0.285358 -164.5 0.958417 -75.64 0.958417 -75.64 0.285357 -166.8
8.80820000 0.285355 -164.5 0.958418 -75.64 0.958418 -75.64 0.285354 -166.8
8.80840000 0.285352 -164.5 0.958419 -75.65 0.958419 -75.65 0.285351 -166.8
8.80860000 0.285349 -164.5 0.958420 -75.65 0.958420 -75.65 0.285348 -166.8
8.80880000 0.285346 -164.5 0.958421 -75.65 0.958421 -75.65 0.285345 -166.8
8.80900000 0.285343 -164.5 0.958422 -75.65 0.958422 -75.65 0.285342 -166.8
8.80920000 0.285340 -164.5 0.958423 -75.65 0.958423 -75.65 0.285339 -166.8
8.80940000 0.285337 -164.5 0.958423 -75.66 0.958423 -75.66 0.285336 -166.9
8.80960000 0.285334 -164.5 0.958424 -75.66 0.958424 -75.66 0.285333 -166.9
8.80980000 0.285331 -164.5 0.958425 -75.66 0.958425 -75.66 0.285330 -166.9
8.81000000 0.285328 -164.5 0.958426 -75.66 0.958426 -75.66 0.285326 -166.9
8.81020000 0.285325 -164.5 0.958427 -75.67 0.958427 -75.67 0.285323 -166.9
8.81040000 0.285321 -164.5 0.958428 -75.67 0.958428 -75.67 0.285320 -166.9
8.81060000 0.285318 -164.5 0.958429 -75.67 0.958429 -75.67 0.285317 -166.9
8.81080000 0.285315 -164.5 0.958430 -75.67 0.958430 -75.67 0.285314 -166.9
8.81100000 0.285312 -164.5 0.958431 -75.67 0.958431 -75.67 0.285311 -166.9
8.81120000 0.285309 -164.5 0.958432 -75.68 0.958432 -75.68 0.285307 -166.9
8.81140000 0.285305 -164.5 0.958433 -75.68 0.958433 -75.68 0.285304 -166.9
8.81160000 0.285302 -164.5 0.958434 -75.68 0.958434 -75.68 0.285301 -166.9
8.81180000 0.285299 -164.5 0.958435 -75.68 0.958435 -75.68 0.285298 -166.9
8.81200000 0.285295 -164.5 0.958436 -75.68 0.958436 -75.68 0.285294 -166.9
8.81220000 0.285292 -164.5 0.958437 -75.69 0.958437 -75.69 0.285291 -166.9
8.81240000 0.285289 -164.5 0.958438 -75.69 0.958438 -75.69 0.285287 -166.9
8.81260000 0.285285 -164.5 0.958439 -75.69 0.958439 -75.69 0.285284 -166.9
8.81280000 0.285282 -164.5 0.958440 -75.69 0.958440 -75.69 0.285281 -166.9
8.81300000 0.285278 -164.5 0.958441 -75.70 0.958441 -75.70 0.285277 -166.9
8.81320000 0.285275 -164.5 0.958442 -75.70 0.958442 -75.70 0.285274 -166.9
8.81340000 0.285271 -164.5 0.958443 -75.70 0.958443 -75.70 0.285270 -166.9
8.81360000 0.285268 -164.5 0.958444 -75.70 0.958444 -75.70 0.285267 -166.9
8.81380000 0.285264 -164.5 0.958445 -75.70 0.958445 -75.70 0.285263 -166.9
8.81400000 0.285261 -164.5 0.958446 -75.71 0.958446 -75.71 0.285260 -166.9
8.81420000 0.285257 -164.5 0.958447 -75.71 0.958447 -75.71 0.285256 -166.9
8.81440000 0.285254 -164.5 0.958448 -75.71 0.958448 -75.71 0.285252 -166.9
8.81460000 0.285250 -164.5 0.958449 -75.71 0.958449 -75.71 0.285249 -166.9
8.81480000 0.285246 -164.5 0.958450 -75.72 0.958450 -75.72 0.285245 -166.9
8.81500000 0.285243 -164.5 0.958451 -75.72 0.958451 -75.72 0.285241 -166.9
8.81520000 0.285239 -164.5 0.958452 -75.72 0.958452 -75.72 0.285237 -167.0
8.81540000 0.285235 -164.5 0.958454 -75.72 0.958454 -75.72 0.285234 -167.0
8.81560000 0.285231 -164.5 0.958455 -75.72 0.958455 -75.72 0.285230 -167.0
8.81580000 0.285227 -164.5 0.958456 -75.73 0.958456 -75.73 0.285226 -167.0
8.81600000 0.285224 -164.5 0.958457 -75.73 0.958457 -75.73 0.285222 -167.0
8.81620000 0.285220 -164.5 0.958458 -75.73 0.958458 -75.73 0.285218 -167.0
8.81640000 0.285216 -164.5 0.958459 -75.73 0.958459 -75.73 0.285215 -167.0
8.81660000 0.285212 -164.5 0.958460 -75.73 0.958460 -75.73 0.285211 -167.0
8.81680000 0.285208 -164.5 0.958462 -75.74 0.958462 -75.74 0.285207 -167.0
8.81700000 0.285204 -164.5 0.958463 -75.74 0.958463 -75.74 0.285203 -167.0
8.81720000 0.285200 -164.5 0.958464 -75.74 0.958464 -75.74 0.285199 -167.0
8.81740000 0.285196 -164.5 0.958465 -75.74 0.958465 -75.74 0.285195 -167.0
8.81760000 0.285192 -164.5 0.958466 -75.75 0.958466 -75.75 0.285191 -167.0
8.81780000 0.285188 -164.5 0.958468 -75.75 0.958468 -75.75 0.285186 -167.0
8.81800000 0.285184 -164.5 0.958469 -75.75 0.958469 -75.75 0.285182 -167.0
8.81820000 0.285180 -164.5 0.958470 -75.75 0.958470 -75.75 0.285178 -167.0
8.81840000 0.285175 -164.5 0.958471 -75.75 0.958471 -75.75 0.285174 -167.0
8.81860000 0.285171 -164.5 0.958473 -75.76 0.958473 -75.76 0.285170 -167.0
8.81880000 0.285167 -164.5 0.958474 -75.76 0.958474 -75.76 0.285166 -167.0
8.81900000 0.285163 -164.5 0.958475 -75.76 0.958475 -75.76 0.285161 -167.0
8.81920000 0.285158 -164.5 0.958476 -75.76 0.958476 -75.76 0.285157 -167.0
8.81940000 0.285154 -164.5 0.958478 -75.77 0.958478 -75.77 0.285153 -167.0
8.81960000 0.285150 -164.5 0.958479 -75.77 0.958479 -75.77 0.285148 -167.0
8.81980000 0.285145 -164.5 0.958480 -75.77 0.958480 -75.77 0.285144 -167.0
8.82000000 0.285141 -164.5 0.958481 -75.77 0.958481 -75.77 0.285139 -167.0
8.82020000 0.285137 -164.5 0.958483 -75.78 0.958483 -75.78 0.285135 -167.0
8.82040000 0.285132 -164.5 0.958484 -75.78 0.958484 -75.78 0.285131 -167.1
8.82060000 0.285128 -164.5 0.958485 -75.78 0.958485 -75.78 0.285126 -167.1
8.82080000 0.285123 -164.5 0.958487 -75.78 0.958487 -75.78 0.285121 -167.1
8.82100000 0.285118 -164.5 0.958488 -75.78 0.958488 -75.78 0.285117 -167.1
8.82120000 0.285114 -164.5 0.958490 -75.79 0.958490 -75.79 0.285112 -167.1
8.82140000 0.285109 -164.5 0.958491 -75.79 0.958491 -75.79 0.285108 -167.1
8.82160000 0.285105 -164.5 0.958492 -75.79 0.958492 -75.79 0.285103 -167.1
8.82180000 0.285100 -164.5 0.958494 -75.79 0.958494 -75.79 0.285098 -167.1
8.82200000 0.285095 -164.5 0.958495 -75.80 0.958495 -75.80 0.285093 -167.1
8.82220000 0.285090 -164.5 0.958496 -75.80 0.958496 -75.80 0.285089 -167.1
8.82240000 0.285085 -164.5 0.958498 -75.80 0.958498 -75.80 0.285084 -167.1
8.82260000 0.285081 -164.5 0.958499 -75.80 0.958499 -75.80 0.285079 -167.1
8.82280000 0.285076 -164.5 0.958501 -75.80 0.958501 -75.80 0.285074 -167.1
8.82300000 0.285071 -164.5 0.958502 -75.81 0.958502 -75.81 0.285069 -167.1
8.82320000 0.285066 -164.5 0.958504 -75.81 0.958504 -75.81 0.285064 -167.1
8.82340000 0.285061 -164.5 0.958505 -75.81 0.958505 -75.81 0.285059 -167.1
8.82360000 0.285056 -164.5 0.958507 -75.81 0.958507 -75.81 0.285054 -167.1
8.82380000 0.285051 -164.5 0.958508 -75.82 0.958508 -75.82 0.285049 -167.1
8.82400000 0.285046 -164.5 0.958510 -75.82 0.958510 -75.82 0.285044 -167.1
8.82420000 0.285041 -164.5 0.958511 -75.82 0.958511 -75.82 0.285039 -167.1
8.82440000 0.285036 -164.5 0.958513 -75.82 0.958513 -75.82 0.285034 -167.1
8.82460000 0.285030 -164.5 0.958514 -75.83 0.958514 -75.83 0.285029 -167.1
8.82480000 0.285025 -164.5 0.958516 -75.83 0.958516 -75.83 0.285023 -167.1
8.82500000 0.285020 -164.5 0.958517 -75.83 0.958517 -75.83 0.285018 -167.1
8.82520000 0.285015 -164.5 0.958519 -75.83 0.958519 -75.83 0.285013 -167.1
8.82540000 0.285009 -164.5 0.958521 -75.83 0.958521 -75.83 0.285007 -167.2
8.82560000 0.285004 -164.5 0.958522 -75.84 0.958522 -75.84 0.285002 -167.2
8.82580000 0.284998 -164.5 0.958524 -75.84 0.958524 -75.84 0.284997 -167.2
8.82600000 0.284993 -164.5 0.958525 -75.84 0.958525 -75.84 0.284991 -167.2
8.82620000 0.284987 -164.5 0.958527 -75.84 0.958527 -75.84 0.284986 -167.2
8.82640000 0.284982 -164.5 0.958529 -75.85 0.958529 -75.85 0.284980 -167.2
8.82660000 0.284976 -164.5 0.958530 -75.85 0.958530 -75.85 0.284975 -167.2
8.82680000 0.284971 -164.5 0.958532 -75.85 0.958532 -75.85 0.284969 -167.2
8.82700000 0.284965 -164.5 0.958534 -75.85 0.958534 -75.85 0.284963 -167.2
8.82720000 0.284959 -164.5 0.958535 -75.86 0.958535 -75.86 0.284958 -167.2
8.82740000 0.284954 -164.5 0.958537 -75.86 0.958537 -75.86 0.284952 -167.2
8.82760000 0.284948 -164.5 0.958539 -75.86 0.958539 -75.86 0.284946 -167.2
8.82780000 0.284942 -164.5 0.958540 -75.86 0.958540 -75.86 0.284940 -167.2
8.82800000 0.284936 -164.5 0.958542 -75.87 0.958542 -75.87 0.284934 -167.2
8.82820000 0.284930 -164.5 0.958544 -75.87 0.958544 -75.87 0.284929 -167.2
8.82840000 0.284924 -164.5 0.958546 -75.87 0.958546 -75.87 0.284923 -167.2
8.82860000 0.284918 -164.5 0.958547 -75.87 0.958547 -75.87 0.284917 -167.2
8.82880000 0.284912 -164.5 0.958549 -75.88 0.958549 -75.88 0.284911 -167.2
8.82900000 0.284906 -164.5 0.958551 -75.88 0.958551 -75.88 0.284904 -167.2
8.82920000 0.284900 -164.5 0.958553 -75.88 0.958553 -75.88 0.284898 -167.2
8.82940000 0.284894 -164.5 0.958555 -75.88 0.958555 -75.88 0.284892 -167.2
8.82960000 0.284888 -164.5 0.958556 -75.88 0.958556 -75.88 0.284886 -167.2
8.82980000 0.284882 -164.5 0.958558 -75.89 0.958558 -75.89 0.284880 -167.2
8.83000000 0.284875 -164.5 0.958560 -75.89 0.958560 -75.89 0.284873 -167.3
8.83020000 0.284869 -164.5 0.958562 -75.89 0.958562 -75.89 0.284867 -167.3
8.83040000 0.284863 -164.5 0.958564 -75.89 0.958564 -75.89 0.284861 -167.3
8.83060000 0.284856 -164.5 0.958566 -75.90 0.958566 -75.90 0.284854 -167.3
8.83080000 0.284850 -164.5 0.958568 -75.90 0.958568 -75.90 0.284848 -167.3
8.83100000 0.284843 -164.5 0.958570 -75.90 0.958570 -75.90 0.284841 -167.3
8.83120000 0.284837 -164.5 0.958572 -75.90 0.958572 -75.90 0.284835 -167.3
8.83140000 0.284830 -164.5 0.958574 -75.91 0.958574 -75.91 0.284828 -167.3
8.83160000 0.284823 -164.5 0.958576 -75.91 0.958576 -75.91 0.284821 -167.3
8.83180000 0.284817 -164.5 0.958578 -75.91 0.958578 -75.91 0.284815 -167.3
8.83200000 0.284810 -164.5 0.958580 -75.91 0.958580 -75.91 0.284808 -167.3
8.83220000 0.284803 -164.5 0.958582 -75.92 0.958582 -75.92 0.284801 -167.3
8.83240000 0.284796 -164.5 0.958584 -75.92 0.958584 -75.92 0.284794 -167.3
8.83260000 0.284789 -164.5 0.958586 -75.92 0.958586 -75.92 0.284787 -167.3
8.83280000 0.284782 -164.5 0.958588 -75.92 0.958588 -75.92 0.284780 -167.3
8.83300000 0.284775 -164.5 0.958590 -75.93 0.958590 -75.93 0.284773 -167.3
8.83320000 0.284768 -164.5 0.958592 -75.93 0.958592 -75.93 0.284766 -167.3
8.83340000 0.284761 -164.5 0.958594 -75.93 0.958594 -75.93 0.284759 -167.3
8.83360000 0.284754 -164.5 0.958596 -75.93 0.958596 -75.93 0.284752 -167.3
8.83380000 0.284747 -164.5 0.958598 -75.94 0.958598 -75.94 0.284745 -167.3
8.83400000 0.284740 -164.5 0.958600 -75.94 0.958600 -75.94 0.284737 -167.3
8.83420000 0.284732 -164.5 0.958603 -75.94 0.958603 -75.94 0.284730 -167.3
8.83440000 0.284725 -164.5 0.958605 -75.94 0.958605 -75.94 0.284723 -167.4
8.83460000 0.284718 -164.5 0.958607 -75.95 0.958607 -75.95 0.284715 -167.4
8.83480000 0.284710 -164.5 0.958609 -75.95 0.958609 -75.95 0.284708 -167.4
8.83500000 0.284702 -164.5 0.958611 -75.95 0.958611 -75.95 0.284700 -167.4
8.83520000 0.284695 -164.5 0.958614 -75.95 0.958614 -75.95 0.284693 -167.4
8.83540000 0.284687 -164.5 0.958616 -75.96 0.958616 -75.96 0.284685 -167.4
8.83560000 0.284680 -164.5 0.958618 -75.96 0.958618 -75.96 0.284677 -167.4
8.83580000 0.284672 -164.5 0.958620 -75.96 0.958620 -75.96 0.284669 -167.4
8.83600000 0.284664 -164.5 0.958623 -75.96 0.958623 -75.96 0.284662 -167.4
8.83620000 0.284656 -164.5 0.958625 -75.97 0.958625 -75.97 0.284654 -167.4
8.83640000 0.284648 -164.5 0.958627 -75.97 0.958627 -75.97 0.284646 -167.4
8.83660000 0.284640 -164.5 0.958630 -75.97 0.958630 -75.97 0.284638 -167.4
8.83680000 0.284632 -164.5 0.958632 -75.97 0.958632 -75.97 0.284630 -167.4
8.83700000 0.284624 -164.5 0.958635 -75.98 0.958635 -75.98 0.284622 -167.4
8.83720000 0.284616 -164.5 0.958637 -75.98 0.958637 -75.98 0.284613 -167.4
8.83740000 0.284608 -164.5 0.958639 -75.98 0.958639 -75.98 0.284605 -167.4
8.83760000 0.284599 -164.5 0.958642 -75.99 0.958642 -75.99 0.284597 -167.4
8.83780000 0.284591 -164.5 0.958644 -75.99 0.958644 -75.99 0.284588 -167.4
8.83800000 0.284583 -164.5 0.958647 -75.99 0.958647 -75.99 0.284580 -167.4
8.83820000 0.284574 -164.5 0.958649 -75.99 0.958649 -75.99 0.284572 -167.4
8.83840000 0.284565 -164.5 0.958652 -76.00 0.958652 -76.00 0.284563 -167.5
8.83860000 0.284557 -164.5 0.958654 -76.00 0.958654 -76.00 0.284554 -167.5
8.83880000 0.284548 -164.5 0.958657 -76.00 0.958657 -76.00 0.284546 -167.5
8.83900000 0.284539 -164.5 0.958660 -76.00 0.958660 -76.00 0.284537 -167.5
8.83920000 0.284531 -164.5 0.958662 -76.01 0.958662 -76.01 0.284528 -167.5
8.83940000 0.284522 -164.5 0.958665 -76.01 0.958665 -76.01 0.284519 -167.5
8.83960000 0.284513 -164.5 0.958667 -76.01 0.958667 -76.01 0.284510 -167.5
8.83980000 0.284504 -164.5 0.958670 -76.01 0.958670 -76.01 0.284501 -167.5
8.84000000 0.284495 -164.5 0.958673 -76.02 0.958673 -76.02 0.284492 -167.5
8.84020000 0.284486 -164.5 0.958676 -76.02 0.958676 -76.02 0.284483 -167.5
8.84040000 0.284476 -164.5 0.958678 -76.02 0.958678 -76.02 0.284474 -167.5
8.84060000 0.284467 -164.5 0.958681 -76.03 0.958681 -76.03 0.284464 -167.5
8.84080000 0.284458 -164.5 0.958684 -76.03 0.958684 -76.03 0.284455 -167.5
8.84100000 0.284448 -164.5 0.958687 -76.03 0.958687 -76.03 0.284446 -167.5
8.84120000 0.284439 -164.5 0.958689 -76.03 0.958689 -76.03 0.284436 -167.5
8.84140000 0.284429 -164.5 0.958692 -76.04 0.958692 -76.04 0.284426 -167.5
8.84160000 0.284420 -164.5 0.958695 -76.04 0.958695 -76.04 0.284417 -167.5
8.84180000 0.284410 -164.5 0.958698 -76.04 0.958698 -76.04 0.284407 -167.5
8.84200000 0.284400 -164.5 0.958701 -76.04 0.958701 -76.04 0.284397 -167.6
8.84220000 0.284390 -164.5 0.958704 -76.05 0.958704 -76.05 0.284387 -167.6
8.84240000 0.284380 -164.5 0.958707 -76.05 0.958707 -76.05 0.284377 -167.6
8.84260000 0.284370 -164.5 0.958710 -76.05 0.958710 -76.05 0.284367 -167.6
8.84280000 0.284360 -164.5 0.958713 -76.06 0.958713 -76.06 0.284357 -167.6
8.84300000 0.284350 -164.5 0.958716 -76.06 0.958716 -76.06 0.284347 -167.6
8.84320000 0.284340 -164.5 0.958719 -76.06 0.958719 -76.06 0.284337 -167.6
8.84340000 0.284329 -164.5 0.958722 -76.06 0.958722 -76.06 0.284326 -167.6
8.84360000 0.284319 -164.5 0.958725 -76.07 0.958725 -76.07 0.284316 -167.6
8.84380000 0.284308 -164.5 0.958728 -76.07 0.958728 -76.07 0.284305 -167.6
8.84400000 0.284298 -164.5 0.958731 -76.07 0.958731 -76.07 0.284295 -167.6
8.84420000 0.284287 -164.5 0.958734 -76.08 0.958734 -76.08 0.284284 -167.6
8.84440000 0.284276 -164.5 0.958737 -76.08 0.958737 -76.08 0.284273 -167.6
8.84460000 0.284265 -164.5 0.958741 -76.08 0.958741 -76.08 0.284262 -167.6
8.84480000 0.284254 -164.5 0.958744 -76.08 0.958744 -76.08 0.284251 -167.6
8.84500000 0.284243 -164.5 0.958747 -76.09 0.958747 -76.09 0.284240 -167.6
8.84520000 0.284232 -164.5 0.958750 -76.09 0.958750 -76.09 0.284229 -167.6
8.84540000 0.284221 -164.5 0.958754 -76.09 0.958754 -76.09 0.284218 -167.7
8.84560000 0.284210 -164.5 0.958757 -76.10 0.958757 -76.10 0.284207 -167.7
8.84580000 0.284198 -164.5 0.958760 -76.10 0.958760 -76.10 0.284195 -167.7
8.84600000 0.284187 -164.5 0.958764 -76.10 0.958764 -76.10 0.284184 -167.7
8.84620000 0.284175 -164.5 0.958767 -76.10 0.958767 -76.10 0.284172 -167.7
8.84640000 0.284164 -164.5 0.958771 -76.11 0.958771 -76.11 0.284160 -167.7
8.84660000 0.284152 -164.5 0.958774 -76.11 0.958774 -76.11 0.284149 -167.7
8.84680000 0.284140 -164.5 0.958778 -76.11 0.958778 -76.11 0.284137 -167.7
8.84700000 0.284128 -164.5 0.958781 -76.12 0.958781 -76.12 0.284125 -167.7
8.84720000 0.284116 -164.5 0.958785 -76.12 0.958785 -76.12 0.284113 -167.7
8.84740000 0.284104 -164.5 0.958788 -76.12 0.958788 -76.12 0.284101 -167.7
8.84760000 0.284092 -164.5 0.958792 -76.12 0.958792 -76.12 0.284088 -167.7
8.84780000 0.284079 -164.5 0.958796 -76.13 0.958796 -76.13 0.284076 -167.7
8.84800000 0.284067 -164.5 0.958799 -76.13 0.958799 -76.13 0.284063 -167.7
8.84820000 0.284054 -164.5 0.958803 -76.13 0.958803 -76.13 0.284051 -167.7
8.84840000 0.284042 -164.5 0.958807 -76.14 0.958807 -76.14 0.284038 -167.7
8.84860000 0.284029 -164.5 0.958810 -76.14 0.958810 -76.14 0.284025 -167.8
8.84880000 0.284016 -164.5 0.958814 -76.14 0.958814 -76.14 0.284013 -167.8
8.84900000 0.284003 -164.5 0.958818 -76.15 0.958818 -76.15 0.284000 -167.8
8.84920000 0.283990 -164.5 0.958822 -76.15 0.958822 -76.15 0.283986 -167.8
8.84940000 0.283977 -164.5 0.958826 -76.15 0.958826 -76.15 0.283973 -167.8
8.84960000 0.283964 -164.5 0.958830 -76.15 0.958830 -76.15 0.283960 -167.8
8.84980000 0.283950 -164.5 0.958834 -76.16 0.958834 -76.16 0.283947 -167.8
8.85000000 0.283937 -164.5 0.958838 -76.16 0.958838 -76.16 0.283933 -167.8
8.85020000 0.283923 -164.5 0.958842 -76.16 0.958842 -76.16 0.283919 -167.8
8.85040000 0.283909 -164.5 0.958846 -76.17 0.958846 -76.17 0.283906 -167.8
8.85060000 0.283895 -164.5 0.958850 -76.17 0.958850 -76.17 0.283892 -167.8
8.85080000 0.283881 -164.5 0.958854 -76.17 0.958854 -76.17 0.283878 -167.8
8.85100000 0.283867 -164.5 0.958858 -76.18 0.958858 -76.18 0.283863 -167.8
8.85120000 0.283853 -164.5 0.958862 -76.18 0.958862 -76.18 0.283849 -167.8
8.85140000 0.283839 -164.5 0.958867 -76.18 0.958867 -76.18 0.283835 -167.9
8.85160000 0.283824 -164.5 0.958871 -76.19 0.958871 -76.19 0.283820 -167.9
8.85180000 0.283810 -164.5 0.958875 -76.19 0.958875 -76.19 0.283806 -167.9
