! Sonnet Data File
! From: emgraph Version : 16.52
! From Project: Resonator2
! Data is De-embedded 
! Data File Written: 10/05/2017 10:46:05
!< HDATE 10/04/2017 20:26:48
!< MDATE 10/05/2017 00:36:07
!< PARAMS
!< gap = 36.0
!< Length = 400.0
!< Pwid1 = 2000.0
!< Pwid2 = 2000.0
!< END PARAMS
# GHZ S MA R 50.00000
8.80000000 0.288966 -164.4 0.957336 -75.34 0.957336 -75.34 0.288965 -166.2
!< P1 F=8.8 Eeff=(5.36817953 -2.3731e-5) Z0=(35.9853883 8.0522e-5) R=0.0 C=0.0 
!< P2 F=8.8 Eeff=(5.36817953 -2.3731e-5) Z0=(35.9853883 8.0522e-5) R=0.0 C=0.0 
8.80020000 0.288965 -164.4 0.957336 -75.34 0.957336 -75.34 0.288965 -166.2
8.80040000 0.288965 -164.4 0.957336 -75.34 0.957336 -75.34 0.288965 -166.2
8.80060000 0.288965 -164.4 0.957336 -75.34 0.957336 -75.34 0.288964 -166.2
8.80080000 0.288965 -164.4 0.957336 -75.35 0.957336 -75.35 0.288964 -166.3
8.80100000 0.288964 -164.4 0.957336 -75.35 0.957336 -75.35 0.288964 -166.3
8.80120000 0.288964 -164.4 0.957336 -75.35 0.957336 -75.35 0.288963 -166.3
8.80140000 0.288964 -164.4 0.957337 -75.35 0.957337 -75.35 0.288963 -166.3
8.80160000 0.288963 -164.4 0.957337 -75.35 0.957337 -75.35 0.288963 -166.3
8.80180000 0.288963 -164.4 0.957337 -75.36 0.957337 -75.36 0.288962 -166.3
8.80200000 0.288963 -164.5 0.957337 -75.36 0.957337 -75.36 0.288962 -166.3
8.80220000 0.288962 -164.5 0.957337 -75.36 0.957337 -75.36 0.288962 -166.3
8.80240000 0.288962 -164.5 0.957337 -75.36 0.957337 -75.36 0.288961 -166.3
8.80260000 0.288962 -164.5 0.957337 -75.36 0.957337 -75.36 0.288961 -166.3
8.80280000 0.288961 -164.5 0.957337 -75.37 0.957337 -75.37 0.288961 -166.3
8.80300000 0.288961 -164.5 0.957337 -75.37 0.957337 -75.37 0.288960 -166.3
8.80320000 0.288961 -164.5 0.957338 -75.37 0.957338 -75.37 0.288960 -166.3
8.80340000 0.288960 -164.5 0.957338 -75.37 0.957338 -75.37 0.288959 -166.3
8.80360000 0.288960 -164.5 0.957338 -75.37 0.957338 -75.37 0.288959 -166.3
8.80380000 0.288959 -164.5 0.957338 -75.38 0.957338 -75.38 0.288959 -166.3
8.80400000 0.288959 -164.5 0.957338 -75.38 0.957338 -75.38 0.288958 -166.3
8.80420000 0.288958 -164.5 0.957338 -75.38 0.957338 -75.38 0.288958 -166.3
8.80440000 0.288958 -164.5 0.957338 -75.38 0.957338 -75.38 0.288957 -166.3
8.80460000 0.288957 -164.5 0.957338 -75.38 0.957338 -75.38 0.288957 -166.3
8.80480000 0.288957 -164.5 0.957339 -75.39 0.957339 -75.39 0.288956 -166.3
8.80500000 0.288956 -164.5 0.957339 -75.39 0.957339 -75.39 0.288956 -166.3
8.80520000 0.288956 -164.5 0.957339 -75.39 0.957339 -75.39 0.288955 -166.3
8.80540000 0.288955 -164.5 0.957339 -75.39 0.957339 -75.39 0.288955 -166.3
8.80560000 0.288955 -164.5 0.957339 -75.39 0.957339 -75.39 0.288954 -166.3
8.80580000 0.288954 -164.5 0.957339 -75.40 0.957339 -75.40 0.288954 -166.3
8.80600000 0.288954 -164.5 0.957340 -75.40 0.957340 -75.40 0.288953 -166.3
8.80620000 0.288953 -164.5 0.957340 -75.40 0.957340 -75.40 0.288952 -166.3
8.80640000 0.288953 -164.5 0.957340 -75.40 0.957340 -75.40 0.288952 -166.3
8.80660000 0.288952 -164.5 0.957340 -75.40 0.957340 -75.40 0.288951 -166.3
8.80680000 0.288951 -164.5 0.957340 -75.40 0.957340 -75.40 0.288951 -166.3
8.80700000 0.288951 -164.5 0.957340 -75.41 0.957340 -75.41 0.288950 -166.3
8.80720000 0.288950 -164.5 0.957341 -75.41 0.957341 -75.41 0.288949 -166.3
8.80740000 0.288950 -164.5 0.957341 -75.41 0.957341 -75.41 0.288949 -166.3
8.80760000 0.288949 -164.5 0.957341 -75.41 0.957341 -75.41 0.288948 -166.3
8.80780000 0.288948 -164.5 0.957341 -75.41 0.957341 -75.41 0.288948 -166.3
8.80800000 0.288948 -164.5 0.957341 -75.42 0.957341 -75.42 0.288947 -166.4
8.80820000 0.288947 -164.5 0.957342 -75.42 0.957342 -75.42 0.288946 -166.4
8.80840000 0.288946 -164.5 0.957342 -75.42 0.957342 -75.42 0.288945 -166.4
8.80860000 0.288946 -164.5 0.957342 -75.42 0.957342 -75.42 0.288945 -166.4
8.80880000 0.288945 -164.5 0.957342 -75.42 0.957342 -75.42 0.288944 -166.4
8.80900000 0.288944 -164.5 0.957342 -75.43 0.957342 -75.43 0.288943 -166.4
8.80920000 0.288943 -164.5 0.957343 -75.43 0.957343 -75.43 0.288943 -166.4
8.80940000 0.288943 -164.5 0.957343 -75.43 0.957343 -75.43 0.288942 -166.4
8.80960000 0.288942 -164.5 0.957343 -75.43 0.957343 -75.43 0.288941 -166.4
8.80980000 0.288941 -164.5 0.957343 -75.43 0.957343 -75.43 0.288940 -166.4
8.81000000 0.288940 -164.5 0.957344 -75.44 0.957344 -75.44 0.288939 -166.4
8.81020000 0.288939 -164.5 0.957344 -75.44 0.957344 -75.44 0.288939 -166.4
8.81040000 0.288939 -164.5 0.957344 -75.44 0.957344 -75.44 0.288938 -166.4
8.81060000 0.288938 -164.5 0.957344 -75.44 0.957344 -75.44 0.288937 -166.4
8.81080000 0.288937 -164.5 0.957345 -75.44 0.957345 -75.44 0.288936 -166.4
8.81100000 0.288936 -164.5 0.957345 -75.45 0.957345 -75.45 0.288935 -166.4
8.81120000 0.288935 -164.5 0.957345 -75.45 0.957345 -75.45 0.288934 -166.4
8.81140000 0.288934 -164.5 0.957345 -75.45 0.957345 -75.45 0.288934 -166.4
8.81160000 0.288933 -164.5 0.957346 -75.45 0.957346 -75.45 0.288933 -166.4
8.81180000 0.288933 -164.5 0.957346 -75.45 0.957346 -75.45 0.288932 -166.4
8.81200000 0.288932 -164.5 0.957346 -75.46 0.957346 -75.46 0.288931 -166.4
8.81220000 0.288931 -164.5 0.957346 -75.46 0.957346 -75.46 0.288930 -166.4
8.81240000 0.288930 -164.5 0.957347 -75.46 0.957347 -75.46 0.288929 -166.4
8.81260000 0.288929 -164.5 0.957347 -75.46 0.957347 -75.46 0.288928 -166.4
8.81280000 0.288928 -164.5 0.957347 -75.46 0.957347 -75.46 0.288927 -166.4
8.81300000 0.288927 -164.5 0.957348 -75.47 0.957348 -75.47 0.288926 -166.4
8.81320000 0.288926 -164.5 0.957348 -75.47 0.957348 -75.47 0.288925 -166.4
8.81340000 0.288925 -164.5 0.957348 -75.47 0.957348 -75.47 0.288924 -166.4
8.81360000 0.288924 -164.5 0.957349 -75.47 0.957349 -75.47 0.288923 -166.4
8.81380000 0.288923 -164.5 0.957349 -75.47 0.957349 -75.47 0.288922 -166.4
8.81400000 0.288922 -164.5 0.957349 -75.48 0.957349 -75.48 0.288921 -166.4
8.81420000 0.288921 -164.5 0.957349 -75.48 0.957349 -75.48 0.288920 -166.4
8.81440000 0.288919 -164.5 0.957350 -75.48 0.957350 -75.48 0.288919 -166.4
8.81460000 0.288918 -164.5 0.957350 -75.48 0.957350 -75.48 0.288917 -166.4
8.81480000 0.288917 -164.5 0.957350 -75.48 0.957350 -75.48 0.288916 -166.4
8.81500000 0.288916 -164.5 0.957351 -75.49 0.957351 -75.49 0.288915 -166.5
8.81520000 0.288915 -164.5 0.957351 -75.49 0.957351 -75.49 0.288914 -166.5
8.81540000 0.288914 -164.5 0.957351 -75.49 0.957351 -75.49 0.288913 -166.5
8.81560000 0.288913 -164.5 0.957352 -75.49 0.957352 -75.49 0.288912 -166.5
8.81580000 0.288911 -164.5 0.957352 -75.49 0.957352 -75.49 0.288910 -166.5
8.81600000 0.288910 -164.5 0.957353 -75.50 0.957353 -75.50 0.288909 -166.5
8.81620000 0.288909 -164.5 0.957353 -75.50 0.957353 -75.50 0.288908 -166.5
8.81640000 0.288908 -164.5 0.957353 -75.50 0.957353 -75.50 0.288907 -166.5
8.81660000 0.288906 -164.5 0.957354 -75.50 0.957354 -75.50 0.288906 -166.5
8.81680000 0.288905 -164.5 0.957354 -75.50 0.957354 -75.50 0.288904 -166.5
8.81700000 0.288904 -164.5 0.957354 -75.51 0.957354 -75.51 0.288903 -166.5
8.81720000 0.288903 -164.5 0.957355 -75.51 0.957355 -75.51 0.288902 -166.5
8.81740000 0.288901 -164.5 0.957355 -75.51 0.957355 -75.51 0.288900 -166.5
8.81760000 0.288900 -164.5 0.957356 -75.51 0.957356 -75.51 0.288899 -166.5
8.81780000 0.288899 -164.5 0.957356 -75.51 0.957356 -75.51 0.288898 -166.5
8.81800000 0.288897 -164.5 0.957356 -75.52 0.957356 -75.52 0.288896 -166.5
8.81820000 0.288896 -164.5 0.957357 -75.52 0.957357 -75.52 0.288895 -166.5
8.81840000 0.288894 -164.5 0.957357 -75.52 0.957357 -75.52 0.288893 -166.5
8.81860000 0.288893 -164.5 0.957358 -75.52 0.957358 -75.52 0.288892 -166.5
8.81880000 0.288892 -164.5 0.957358 -75.52 0.957358 -75.52 0.288891 -166.5
8.81900000 0.288890 -164.5 0.957359 -75.53 0.957359 -75.53 0.288889 -166.5
8.81920000 0.288889 -164.5 0.957359 -75.53 0.957359 -75.53 0.288888 -166.5
8.81940000 0.288887 -164.5 0.957359 -75.53 0.957359 -75.53 0.288886 -166.5
8.81960000 0.288886 -164.5 0.957360 -75.53 0.957360 -75.53 0.288885 -166.5
8.81980000 0.288884 -164.5 0.957360 -75.53 0.957360 -75.53 0.288883 -166.5
8.82000000 0.288883 -164.5 0.957361 -75.54 0.957361 -75.54 0.288882 -166.5
8.82020000 0.288881 -164.5 0.957361 -75.54 0.957361 -75.54 0.288880 -166.5
8.82040000 0.288879 -164.5 0.957362 -75.54 0.957362 -75.54 0.288878 -166.5
8.82060000 0.288878 -164.5 0.957362 -75.54 0.957362 -75.54 0.288877 -166.5
8.82080000 0.288876 -164.5 0.957363 -75.54 0.957363 -75.54 0.288875 -166.5
8.82100000 0.288875 -164.5 0.957363 -75.55 0.957363 -75.55 0.288874 -166.5
8.82120000 0.288873 -164.5 0.957364 -75.55 0.957364 -75.55 0.288872 -166.6
8.82140000 0.288871 -164.5 0.957364 -75.55 0.957364 -75.55 0.288870 -166.6
8.82160000 0.288870 -164.6 0.957365 -75.55 0.957365 -75.55 0.288869 -166.6
8.82180000 0.288868 -164.6 0.957365 -75.56 0.957365 -75.56 0.288867 -166.6
8.82200000 0.288866 -164.6 0.957366 -75.56 0.957366 -75.56 0.288865 -166.6
8.82220000 0.288864 -164.6 0.957366 -75.56 0.957366 -75.56 0.288863 -166.6
8.82240000 0.288863 -164.6 0.957367 -75.56 0.957367 -75.56 0.288862 -166.6
8.82260000 0.288861 -164.6 0.957367 -75.56 0.957367 -75.56 0.288860 -166.6
8.82280000 0.288859 -164.6 0.957368 -75.57 0.957368 -75.57 0.288858 -166.6
8.82300000 0.288857 -164.6 0.957368 -75.57 0.957368 -75.57 0.288856 -166.6
8.82320000 0.288855 -164.6 0.957369 -75.57 0.957369 -75.57 0.288854 -166.6
8.82340000 0.288854 -164.6 0.957370 -75.57 0.957370 -75.57 0.288852 -166.6
8.82360000 0.288852 -164.6 0.957370 -75.57 0.957370 -75.57 0.288851 -166.6
8.82380000 0.288850 -164.6 0.957371 -75.58 0.957371 -75.58 0.288849 -166.6
8.82400000 0.288848 -164.6 0.957371 -75.58 0.957371 -75.58 0.288847 -166.6
8.82420000 0.288846 -164.6 0.957372 -75.58 0.957372 -75.58 0.288845 -166.6
8.82440000 0.288844 -164.6 0.957372 -75.58 0.957372 -75.58 0.288843 -166.6
8.82460000 0.288842 -164.6 0.957373 -75.58 0.957373 -75.58 0.288841 -166.6
8.82480000 0.288840 -164.6 0.957374 -75.59 0.957374 -75.59 0.288839 -166.6
8.82500000 0.288838 -164.6 0.957374 -75.59 0.957374 -75.59 0.288837 -166.6
8.82520000 0.288836 -164.6 0.957375 -75.59 0.957375 -75.59 0.288835 -166.6
8.82540000 0.288834 -164.6 0.957375 -75.59 0.957375 -75.59 0.288833 -166.6
8.82560000 0.288832 -164.6 0.957376 -75.59 0.957376 -75.59 0.288831 -166.6
8.82580000 0.288830 -164.6 0.957377 -75.60 0.957377 -75.60 0.288829 -166.6
8.82600000 0.288828 -164.6 0.957377 -75.60 0.957377 -75.60 0.288826 -166.6
8.82620000 0.288825 -164.6 0.957378 -75.60 0.957378 -75.60 0.288824 -166.6
8.82640000 0.288823 -164.6 0.957379 -75.60 0.957379 -75.60 0.288822 -166.6
8.82660000 0.288821 -164.6 0.957379 -75.61 0.957379 -75.61 0.288820 -166.6
8.82680000 0.288819 -164.6 0.957380 -75.61 0.957380 -75.61 0.288818 -166.6
8.82700000 0.288817 -164.6 0.957381 -75.61 0.957381 -75.61 0.288815 -166.6
8.82720000 0.288814 -164.6 0.957381 -75.61 0.957381 -75.61 0.288813 -166.7
8.82740000 0.288812 -164.6 0.957382 -75.61 0.957382 -75.61 0.288811 -166.7
8.82760000 0.288810 -164.6 0.957383 -75.62 0.957383 -75.62 0.288809 -166.7
8.82780000 0.288808 -164.6 0.957383 -75.62 0.957383 -75.62 0.288806 -166.7
8.82800000 0.288805 -164.6 0.957384 -75.62 0.957384 -75.62 0.288804 -166.7
8.82820000 0.288803 -164.6 0.957385 -75.62 0.957385 -75.62 0.288801 -166.7
8.82840000 0.288800 -164.6 0.957386 -75.62 0.957386 -75.62 0.288799 -166.7
8.82860000 0.288798 -164.6 0.957386 -75.63 0.957386 -75.63 0.288797 -166.7
8.82880000 0.288796 -164.6 0.957387 -75.63 0.957387 -75.63 0.288794 -166.7
8.82900000 0.288793 -164.6 0.957388 -75.63 0.957388 -75.63 0.288792 -166.7
8.82920000 0.288791 -164.6 0.957388 -75.63 0.957388 -75.63 0.288789 -166.7
8.82940000 0.288788 -164.6 0.957389 -75.64 0.957389 -75.64 0.288787 -166.7
8.82960000 0.288786 -164.6 0.957390 -75.64 0.957390 -75.64 0.288784 -166.7
8.82980000 0.288783 -164.6 0.957391 -75.64 0.957391 -75.64 0.288782 -166.7
8.83000000 0.288780 -164.6 0.957392 -75.64 0.957392 -75.64 0.288779 -166.7
8.83020000 0.288778 -164.6 0.957392 -75.64 0.957392 -75.64 0.288776 -166.7
8.83040000 0.288775 -164.6 0.957393 -75.65 0.957393 -75.65 0.288774 -166.7
8.83060000 0.288772 -164.6 0.957394 -75.65 0.957394 -75.65 0.288771 -166.7
8.83080000 0.288770 -164.6 0.957395 -75.65 0.957395 -75.65 0.288768 -166.7
8.83100000 0.288767 -164.6 0.957396 -75.65 0.957396 -75.65 0.288766 -166.7
8.83120000 0.288764 -164.6 0.957396 -75.65 0.957396 -75.65 0.288763 -166.7
8.83140000 0.288762 -164.6 0.957397 -75.66 0.957397 -75.66 0.288760 -166.7
8.83160000 0.288759 -164.6 0.957398 -75.66 0.957398 -75.66 0.288757 -166.7
8.83180000 0.288756 -164.6 0.957399 -75.66 0.957399 -75.66 0.288754 -166.7
8.83200000 0.288753 -164.6 0.957400 -75.66 0.957400 -75.66 0.288752 -166.7
8.83220000 0.288750 -164.6 0.957401 -75.67 0.957401 -75.67 0.288749 -166.7
8.83240000 0.288747 -164.6 0.957401 -75.67 0.957401 -75.67 0.288746 -166.7
8.83260000 0.288744 -164.6 0.957402 -75.67 0.957402 -75.67 0.288743 -166.7
8.83280000 0.288741 -164.6 0.957403 -75.67 0.957403 -75.67 0.288740 -166.8
8.83300000 0.288738 -164.6 0.957404 -75.67 0.957404 -75.67 0.288737 -166.8
8.83320000 0.288735 -164.6 0.957405 -75.68 0.957405 -75.68 0.288734 -166.8
8.83340000 0.288732 -164.6 0.957406 -75.68 0.957406 -75.68 0.288731 -166.8
8.83360000 0.288729 -164.6 0.957407 -75.68 0.957407 -75.68 0.288728 -166.8
8.83380000 0.288726 -164.6 0.957408 -75.68 0.957408 -75.68 0.288725 -166.8
8.83400000 0.288723 -164.6 0.957409 -75.69 0.957409 -75.69 0.288721 -166.8
8.83420000 0.288720 -164.6 0.957410 -75.69 0.957410 -75.69 0.288718 -166.8
8.83440000 0.288717 -164.6 0.957411 -75.69 0.957411 -75.69 0.288715 -166.8
8.83460000 0.288713 -164.6 0.957412 -75.69 0.957412 -75.69 0.288712 -166.8
8.83480000 0.288710 -164.6 0.957413 -75.69 0.957413 -75.69 0.288709 -166.8
8.83500000 0.288707 -164.6 0.957414 -75.70 0.957414 -75.70 0.288705 -166.8
8.83520000 0.288704 -164.6 0.957415 -75.70 0.957415 -75.70 0.288702 -166.8
8.83540000 0.288700 -164.6 0.957416 -75.70 0.957416 -75.70 0.288699 -166.8
8.83560000 0.288697 -164.6 0.957417 -75.70 0.957417 -75.70 0.288695 -166.8
8.83580000 0.288693 -164.6 0.957418 -75.71 0.957418 -75.71 0.288692 -166.8
8.83600000 0.288690 -164.6 0.957419 -75.71 0.957419 -75.71 0.288688 -166.8
8.83620000 0.288686 -164.6 0.957420 -75.71 0.957420 -75.71 0.288685 -166.8
8.83640000 0.288683 -164.6 0.957421 -75.71 0.957421 -75.71 0.288681 -166.8
8.83660000 0.288679 -164.6 0.957422 -75.71 0.957422 -75.71 0.288678 -166.8
8.83680000 0.288676 -164.6 0.957423 -75.72 0.957423 -75.72 0.288674 -166.8
8.83700000 0.288672 -164.6 0.957424 -75.72 0.957424 -75.72 0.288671 -166.8
8.83720000 0.288669 -164.6 0.957425 -75.72 0.957425 -75.72 0.288667 -166.8
8.83740000 0.288665 -164.6 0.957426 -75.72 0.957426 -75.72 0.288663 -166.8
8.83760000 0.288661 -164.6 0.957427 -75.73 0.957427 -75.73 0.288660 -166.8
8.83780000 0.288657 -164.6 0.957428 -75.73 0.957428 -75.73 0.288656 -166.9
8.83800000 0.288654 -164.6 0.957430 -75.73 0.957430 -75.73 0.288652 -166.9
8.83820000 0.288650 -164.6 0.957431 -75.73 0.957431 -75.73 0.288648 -166.9
8.83840000 0.288646 -164.6 0.957432 -75.74 0.957432 -75.74 0.288644 -166.9
8.83860000 0.288642 -164.6 0.957433 -75.74 0.957433 -75.74 0.288640 -166.9
8.83880000 0.288638 -164.6 0.957434 -75.74 0.957434 -75.74 0.288636 -166.9
8.83900000 0.288634 -164.6 0.957435 -75.74 0.957435 -75.74 0.288633 -166.9
8.83920000 0.288630 -164.6 0.957437 -75.74 0.957437 -75.74 0.288629 -166.9
8.83940000 0.288626 -164.6 0.957438 -75.75 0.957438 -75.75 0.288624 -166.9
8.83960000 0.288622 -164.6 0.957439 -75.75 0.957439 -75.75 0.288620 -166.9
8.83980000 0.288618 -164.6 0.957440 -75.75 0.957440 -75.75 0.288616 -166.9
8.84000000 0.288614 -164.6 0.957441 -75.75 0.957441 -75.75 0.288612 -166.9
8.84020000 0.288610 -164.6 0.957443 -75.76 0.957443 -75.76 0.288608 -166.9
8.84040000 0.288606 -164.6 0.957444 -75.76 0.957444 -75.76 0.288604 -166.9
8.84060000 0.288601 -164.6 0.957445 -75.76 0.957445 -75.76 0.288599 -166.9
8.84080000 0.288597 -164.6 0.957447 -75.76 0.957447 -75.76 0.288595 -166.9
8.84100000 0.288593 -164.6 0.957448 -75.77 0.957448 -75.77 0.288591 -166.9
8.84120000 0.288588 -164.6 0.957449 -75.77 0.957449 -75.77 0.288586 -166.9
8.84140000 0.288584 -164.6 0.957450 -75.77 0.957450 -75.77 0.288582 -166.9
8.84160000 0.288579 -164.6 0.957452 -75.77 0.957452 -75.77 0.288578 -166.9
8.84180000 0.288575 -164.6 0.957453 -75.77 0.957453 -75.77 0.288573 -166.9
8.84200000 0.288570 -164.6 0.957455 -75.78 0.957455 -75.78 0.288568 -166.9
8.84220000 0.288566 -164.6 0.957456 -75.78 0.957456 -75.78 0.288564 -166.9
8.84240000 0.288561 -164.6 0.957457 -75.78 0.957457 -75.78 0.288559 -166.9
8.84260000 0.288557 -164.6 0.957459 -75.78 0.957459 -75.78 0.288555 -167.0
8.84280000 0.288552 -164.6 0.957460 -75.79 0.957460 -75.79 0.288550 -167.0
8.84300000 0.288547 -164.6 0.957462 -75.79 0.957462 -75.79 0.288545 -167.0
8.84320000 0.288542 -164.6 0.957463 -75.79 0.957463 -75.79 0.288540 -167.0
8.84340000 0.288537 -164.6 0.957464 -75.79 0.957464 -75.79 0.288535 -167.0
8.84360000 0.288533 -164.6 0.957466 -75.80 0.957466 -75.80 0.288530 -167.0
8.84380000 0.288528 -164.6 0.957467 -75.80 0.957467 -75.80 0.288526 -167.0
8.84400000 0.288523 -164.6 0.957469 -75.80 0.957469 -75.80 0.288521 -167.0
8.84420000 0.288518 -164.6 0.957470 -75.80 0.957470 -75.80 0.288516 -167.0
8.84440000 0.288513 -164.6 0.957472 -75.81 0.957472 -75.81 0.288510 -167.0
8.84460000 0.288507 -164.6 0.957473 -75.81 0.957473 -75.81 0.288505 -167.0
8.84480000 0.288502 -164.6 0.957475 -75.81 0.957475 -75.81 0.288500 -167.0
8.84500000 0.288497 -164.6 0.957477 -75.81 0.957477 -75.81 0.288495 -167.0
8.84520000 0.288492 -164.6 0.957478 -75.82 0.957478 -75.82 0.288490 -167.0
8.84540000 0.288487 -164.6 0.957480 -75.82 0.957480 -75.82 0.288484 -167.0
8.84560000 0.288481 -164.6 0.957481 -75.82 0.957481 -75.82 0.288479 -167.0
8.84580000 0.288476 -164.6 0.957483 -75.82 0.957483 -75.82 0.288474 -167.0
8.84600000 0.288470 -164.6 0.957485 -75.83 0.957485 -75.83 0.288468 -167.0
8.84620000 0.288465 -164.6 0.957486 -75.83 0.957486 -75.83 0.288463 -167.0
8.84640000 0.288459 -164.6 0.957488 -75.83 0.957488 -75.83 0.288457 -167.0
8.84660000 0.288454 -164.6 0.957490 -75.83 0.957490 -75.83 0.288451 -167.0
8.84680000 0.288448 -164.6 0.957491 -75.84 0.957491 -75.84 0.288446 -167.1
8.84700000 0.288442 -164.6 0.957493 -75.84 0.957493 -75.84 0.288440 -167.1
8.84720000 0.288437 -164.6 0.957495 -75.84 0.957495 -75.84 0.288434 -167.1
8.84740000 0.288431 -164.6 0.957496 -75.84 0.957496 -75.84 0.288428 -167.1
8.84760000 0.288425 -164.6 0.957498 -75.85 0.957498 -75.85 0.288422 -167.1
8.84780000 0.288419 -164.6 0.957500 -75.85 0.957500 -75.85 0.288417 -167.1
8.84800000 0.288413 -164.6 0.957502 -75.85 0.957502 -75.85 0.288411 -167.1
8.84820000 0.288407 -164.6 0.957504 -75.85 0.957504 -75.85 0.288404 -167.1
8.84840000 0.288401 -164.6 0.957505 -75.86 0.957505 -75.86 0.288398 -167.1
8.84860000 0.288395 -164.6 0.957507 -75.86 0.957507 -75.86 0.288392 -167.1
8.84880000 0.288388 -164.6 0.957509 -75.86 0.957509 -75.86 0.288386 -167.1
8.84900000 0.288382 -164.6 0.957511 -75.86 0.957511 -75.86 0.288380 -167.1
8.84920000 0.288376 -164.6 0.957513 -75.87 0.957513 -75.87 0.288373 -167.1
8.84940000 0.288369 -164.6 0.957515 -75.87 0.957515 -75.87 0.288367 -167.1
8.84960000 0.288363 -164.6 0.957517 -75.87 0.957517 -75.87 0.288360 -167.1
8.84980000 0.288357 -164.6 0.957519 -75.87 0.957519 -75.87 0.288354 -167.1
8.85000000 0.288350 -164.6 0.957521 -75.88 0.957521 -75.88 0.288347 -167.1
8.85020000 0.288343 -164.6 0.957523 -75.88 0.957523 -75.88 0.288341 -167.1
8.85040000 0.288337 -164.6 0.957525 -75.88 0.957525 -75.88 0.288334 -167.1
8.85060000 0.288330 -164.6 0.957527 -75.88 0.957527 -75.88 0.288327 -167.1
8.85080000 0.288323 -164.6 0.957529 -75.89 0.957529 -75.89 0.288320 -167.2
8.85100000 0.288316 -164.6 0.957531 -75.89 0.957531 -75.89 0.288314 -167.2
8.85120000 0.288309 -164.6 0.957533 -75.89 0.957533 -75.89 0.288307 -167.2
8.85140000 0.288302 -164.6 0.957535 -75.89 0.957535 -75.89 0.288300 -167.2
8.85160000 0.288295 -164.6 0.957537 -75.90 0.957537 -75.90 0.288292 -167.2
8.85180000 0.288288 -164.6 0.957539 -75.90 0.957539 -75.90 0.288285 -167.2
