! Sonnet Data File
! From: emgraph Version : 16.52
! From Project: Resonator2_cp
! Data is De-embedded 
! Data File Written: 10/06/2017 13:30:08
!< HDATE 10/06/2017 09:06:26
!< MDATE 10/06/2017 09:06:26
!< PARAMS
!< gap = 96.0
!< Length = 400.0
!< Pwid1 = 2000.0
!< Pwid2 = 2000.0
!< END PARAMS
# GHZ S MA R 35.97000
8.80000000 0.011470 4.8012 0.999931 -74.12 0.999931 -74.12 0.011471 26.989
!< P1 F=8.8 Eeff=(5.36817953 -2.3731e-5) Z0=(35.9853883 8.0522e-5) R=0.0 C=0.0 
!< P2 F=8.8 Eeff=(5.36817953 -2.3731e-5) Z0=(35.9853883 8.0522e-5) R=0.0 C=0.0 
8.80020000 0.011471 4.7934 0.999931 -74.12 0.999931 -74.12 0.011472 26.993
8.80040000 0.011471 4.7855 0.999931 -74.12 0.999931 -74.12 0.011472 26.997
8.80060000 0.011472 4.7775 0.999931 -74.12 0.999931 -74.12 0.011473 27.002
8.80080000 0.011472 4.7695 0.999931 -74.12 0.999931 -74.12 0.011473 27.006
8.80100000 0.011473 4.7615 0.999931 -74.12 0.999931 -74.12 0.011474 27.011
8.80120000 0.011473 4.7535 0.999931 -74.13 0.999931 -74.13 0.011475 27.015
8.80140000 0.011474 4.7455 0.999931 -74.13 0.999931 -74.13 0.011475 27.019
8.80160000 0.011475 4.7374 0.999931 -74.13 0.999931 -74.13 0.011476 27.024
8.80180000 0.011475 4.7293 0.999931 -74.13 0.999931 -74.13 0.011476 27.028
8.80200000 0.011476 4.7213 0.999931 -74.13 0.999931 -74.13 0.011477 27.033
8.80220000 0.011476 4.7131 0.999931 -74.13 0.999931 -74.13 0.011477 27.037
8.80240000 0.011477 4.7050 0.999931 -74.14 0.999931 -74.14 0.011478 27.042
8.80260000 0.011477 4.6969 0.999931 -74.14 0.999931 -74.14 0.011478 27.047
8.80280000 0.011478 4.6887 0.999931 -74.14 0.999931 -74.14 0.011479 27.051
8.80300000 0.011479 4.6805 0.999931 -74.14 0.999931 -74.14 0.011480 27.056
8.80320000 0.011479 4.6723 0.999931 -74.14 0.999931 -74.14 0.011480 27.060
8.80340000 0.011480 4.6641 0.999931 -74.15 0.999931 -74.15 0.011481 27.065
8.80360000 0.011480 4.6558 0.999931 -74.15 0.999931 -74.15 0.011481 27.070
8.80380000 0.011481 4.6476 0.999931 -74.15 0.999931 -74.15 0.011482 27.074
8.80400000 0.011481 4.6393 0.999931 -74.15 0.999931 -74.15 0.011483 27.079
8.80420000 0.011482 4.6310 0.999931 -74.15 0.999931 -74.15 0.011483 27.084
8.80440000 0.011483 4.6227 0.999931 -74.15 0.999931 -74.15 0.011484 27.089
8.80460000 0.011483 4.6143 0.999931 -74.16 0.999931 -74.16 0.011484 27.093
8.80480000 0.011484 4.6060 0.999931 -74.16 0.999931 -74.16 0.011485 27.098
8.80500000 0.011484 4.5976 0.999931 -74.16 0.999931 -74.16 0.011485 27.103
8.80520000 0.011485 4.5892 0.999931 -74.16 0.999931 -74.16 0.011486 27.108
8.80540000 0.011486 4.5807 0.999931 -74.16 0.999931 -74.16 0.011487 27.113
8.80560000 0.011486 4.5723 0.999931 -74.17 0.999931 -74.17 0.011487 27.117
8.80580000 0.011487 4.5638 0.999931 -74.17 0.999931 -74.17 0.011488 27.122
8.80600000 0.011487 4.5553 0.999931 -74.17 0.999931 -74.17 0.011488 27.127
8.80620000 0.011488 4.5468 0.999931 -74.17 0.999931 -74.17 0.011489 27.132
8.80640000 0.011489 4.5383 0.999931 -74.17 0.999931 -74.17 0.011490 27.137
8.80660000 0.011489 4.5298 0.999931 -74.17 0.999931 -74.17 0.011490 27.142
8.80680000 0.011490 4.5212 0.999931 -74.18 0.999931 -74.18 0.011491 27.147
8.80700000 0.011490 4.5126 0.999931 -74.18 0.999931 -74.18 0.011492 27.152
8.80720000 0.011491 4.5040 0.999931 -74.18 0.999931 -74.18 0.011492 27.157
8.80740000 0.011492 4.4954 0.999931 -74.18 0.999931 -74.18 0.011493 27.162
8.80760000 0.011492 4.4867 0.999931 -74.18 0.999931 -74.18 0.011493 27.167
8.80780000 0.011493 4.4780 0.999931 -74.18 0.999931 -74.18 0.011494 27.172
8.80800000 0.011494 4.4693 0.999931 -74.19 0.999931 -74.19 0.011495 27.177
8.80820000 0.011494 4.4606 0.999931 -74.19 0.999931 -74.19 0.011495 27.182
8.80840000 0.011495 4.4519 0.999931 -74.19 0.999931 -74.19 0.011496 27.188
8.80860000 0.011495 4.4431 0.999931 -74.19 0.999931 -74.19 0.011497 27.193
8.80880000 0.011496 4.4343 0.999931 -74.19 0.999931 -74.19 0.011497 27.198
8.80900000 0.011497 4.4255 0.999931 -74.20 0.999931 -74.20 0.011498 27.203
8.80920000 0.011497 4.4167 0.999931 -74.20 0.999931 -74.20 0.011499 27.208
8.80940000 0.011498 4.4078 0.999931 -74.20 0.999931 -74.20 0.011499 27.214
8.80960000 0.011499 4.3989 0.999931 -74.20 0.999931 -74.20 0.011500 27.219
8.80980000 0.011499 4.3900 0.999931 -74.20 0.999931 -74.20 0.011500 27.224
8.81000000 0.011500 4.3811 0.999931 -74.20 0.999931 -74.20 0.011501 27.230
8.81020000 0.011501 4.3722 0.999931 -74.21 0.999931 -74.21 0.011502 27.235
8.81040000 0.011501 4.3632 0.999931 -74.21 0.999931 -74.21 0.011502 27.240
8.81060000 0.011502 4.3542 0.999931 -74.21 0.999931 -74.21 0.011503 27.246
8.81080000 0.011503 4.3452 0.999931 -74.21 0.999931 -74.21 0.011504 27.251
8.81100000 0.011503 4.3362 0.999931 -74.21 0.999931 -74.21 0.011504 27.257
8.81120000 0.011504 4.3271 0.999931 -74.22 0.999931 -74.22 0.011505 27.262
8.81140000 0.011505 4.3180 0.999931 -74.22 0.999931 -74.22 0.011506 27.267
8.81160000 0.011505 4.3089 0.999931 -74.22 0.999931 -74.22 0.011507 27.273
8.81180000 0.011506 4.2998 0.999931 -74.22 0.999931 -74.22 0.011507 27.278
8.81200000 0.011507 4.2906 0.999931 -74.22 0.999931 -74.22 0.011508 27.284
8.81220000 0.011507 4.2814 0.999931 -74.22 0.999931 -74.22 0.011509 27.290
8.81240000 0.011508 4.2722 0.999931 -74.23 0.999931 -74.23 0.011509 27.295
8.81260000 0.011509 4.2630 0.999931 -74.23 0.999931 -74.23 0.011510 27.301
8.81280000 0.011509 4.2537 0.999931 -74.23 0.999931 -74.23 0.011511 27.306
8.81300000 0.011510 4.2445 0.999931 -74.23 0.999931 -74.23 0.011511 27.312
8.81320000 0.011511 4.2352 0.999931 -74.23 0.999931 -74.23 0.011512 27.318
8.81340000 0.011512 4.2258 0.999931 -74.24 0.999931 -74.24 0.011513 27.324
8.81360000 0.011512 4.2165 0.999931 -74.24 0.999931 -74.24 0.011513 27.329
8.81380000 0.011513 4.2071 0.999931 -74.24 0.999931 -74.24 0.011514 27.335
8.81400000 0.011514 4.1977 0.999931 -74.24 0.999931 -74.24 0.011515 27.341
8.81420000 0.011514 4.1883 0.999931 -74.24 0.999931 -74.24 0.011516 27.347
8.81440000 0.011515 4.1788 0.999931 -74.24 0.999931 -74.24 0.011516 27.353
8.81460000 0.011516 4.1693 0.999931 -74.25 0.999931 -74.25 0.011517 27.358
8.81480000 0.011517 4.1598 0.999931 -74.25 0.999931 -74.25 0.011518 27.364
8.81500000 0.011517 4.1503 0.999931 -74.25 0.999931 -74.25 0.011519 27.370
8.81520000 0.011518 4.1407 0.999931 -74.25 0.999931 -74.25 0.011519 27.376
8.81540000 0.011519 4.1311 0.999931 -74.25 0.999931 -74.25 0.011520 27.382
8.81560000 0.011520 4.1215 0.999931 -74.26 0.999931 -74.26 0.011521 27.388
8.81580000 0.011520 4.1119 0.999931 -74.26 0.999931 -74.26 0.011522 27.394
8.81600000 0.011521 4.1022 0.999931 -74.26 0.999931 -74.26 0.011522 27.400
8.81620000 0.011522 4.0925 0.999931 -74.26 0.999931 -74.26 0.011523 27.406
8.81640000 0.011523 4.0828 0.999931 -74.26 0.999931 -74.26 0.011524 27.412
8.81660000 0.011523 4.0731 0.999931 -74.26 0.999931 -74.26 0.011525 27.418
8.81680000 0.011524 4.0633 0.999931 -74.27 0.999931 -74.27 0.011525 27.425
8.81700000 0.011525 4.0535 0.999931 -74.27 0.999931 -74.27 0.011526 27.431
8.81720000 0.011526 4.0436 0.999931 -74.27 0.999931 -74.27 0.011527 27.437
8.81740000 0.011526 4.0338 0.999931 -74.27 0.999931 -74.27 0.011528 27.443
8.81760000 0.011527 4.0239 0.999931 -74.27 0.999931 -74.27 0.011528 27.449
8.81780000 0.011528 4.0140 0.999931 -74.28 0.999931 -74.28 0.011529 27.456
8.81800000 0.011529 4.0041 0.999931 -74.28 0.999931 -74.28 0.011530 27.462
8.81820000 0.011530 3.9941 0.999931 -74.28 0.999931 -74.28 0.011531 27.468
8.81840000 0.011530 3.9841 0.999931 -74.28 0.999931 -74.28 0.011532 27.475
8.81860000 0.011531 3.9741 0.999931 -74.28 0.999931 -74.28 0.011532 27.481
8.81880000 0.011532 3.9640 0.999930 -74.28 0.999930 -74.28 0.011533 27.488
8.81900000 0.011533 3.9539 0.999930 -74.29 0.999930 -74.29 0.011534 27.494
8.81920000 0.011534 3.9438 0.999930 -74.29 0.999930 -74.29 0.011535 27.501
8.81940000 0.011534 3.9337 0.999930 -74.29 0.999930 -74.29 0.011536 27.507
8.81960000 0.011535 3.9235 0.999930 -74.29 0.999930 -74.29 0.011536 27.514
8.81980000 0.011536 3.9133 0.999930 -74.29 0.999930 -74.29 0.011537 27.520
8.82000000 0.011537 3.9031 0.999930 -74.29 0.999930 -74.29 0.011538 27.527
8.82020000 0.011538 3.8928 0.999930 -74.30 0.999930 -74.30 0.011539 27.533
8.82040000 0.011538 3.8825 0.999930 -74.30 0.999930 -74.30 0.011540 27.540
8.82060000 0.011539 3.8722 0.999930 -74.30 0.999930 -74.30 0.011540 27.547
8.82080000 0.011540 3.8618 0.999930 -74.30 0.999930 -74.30 0.011541 27.553
8.82100000 0.011541 3.8515 0.999930 -74.30 0.999930 -74.30 0.011542 27.560
8.82120000 0.011542 3.8410 0.999930 -74.31 0.999930 -74.31 0.011543 27.567
8.82140000 0.011543 3.8306 0.999930 -74.31 0.999930 -74.31 0.011544 27.574
8.82160000 0.011543 3.8201 0.999930 -74.31 0.999930 -74.31 0.011545 27.581
8.82180000 0.011544 3.8096 0.999930 -74.31 0.999930 -74.31 0.011546 27.587
8.82200000 0.011545 3.7991 0.999930 -74.31 0.999930 -74.31 0.011546 27.594
8.82220000 0.011546 3.7885 0.999930 -74.31 0.999930 -74.31 0.011547 27.601
8.82240000 0.011547 3.7779 0.999930 -74.32 0.999930 -74.32 0.011548 27.608
8.82260000 0.011548 3.7673 0.999930 -74.32 0.999930 -74.32 0.011549 27.615
8.82280000 0.011549 3.7566 0.999930 -74.32 0.999930 -74.32 0.011550 27.622
8.82300000 0.011550 3.7459 0.999930 -74.32 0.999930 -74.32 0.011551 27.629
8.82320000 0.011550 3.7352 0.999930 -74.32 0.999930 -74.32 0.011552 27.636
8.82340000 0.011551 3.7244 0.999930 -74.33 0.999930 -74.33 0.011553 27.643
8.82360000 0.011552 3.7136 0.999930 -74.33 0.999930 -74.33 0.011553 27.651
8.82380000 0.011553 3.7028 0.999930 -74.33 0.999930 -74.33 0.011554 27.658
8.82400000 0.011554 3.6919 0.999930 -74.33 0.999930 -74.33 0.011555 27.665
8.82420000 0.011555 3.6810 0.999930 -74.33 0.999930 -74.33 0.011556 27.672
8.82440000 0.011556 3.6701 0.999930 -74.33 0.999930 -74.33 0.011557 27.680
8.82460000 0.011557 3.6591 0.999930 -74.34 0.999930 -74.34 0.011558 27.687
8.82480000 0.011558 3.6481 0.999930 -74.34 0.999930 -74.34 0.011559 27.694
8.82500000 0.011559 3.6371 0.999930 -74.34 0.999930 -74.34 0.011560 27.702
8.82520000 0.011559 3.6260 0.999930 -74.34 0.999930 -74.34 0.011561 27.709
8.82540000 0.011560 3.6149 0.999930 -74.34 0.999930 -74.34 0.011562 27.716
8.82560000 0.011561 3.6038 0.999930 -74.35 0.999930 -74.35 0.011563 27.724
8.82580000 0.011562 3.5926 0.999930 -74.35 0.999930 -74.35 0.011564 27.731
8.82600000 0.011563 3.5814 0.999930 -74.35 0.999930 -74.35 0.011564 27.739
8.82620000 0.011564 3.5702 0.999930 -74.35 0.999930 -74.35 0.011565 27.746
8.82640000 0.011565 3.5589 0.999930 -74.35 0.999930 -74.35 0.011566 27.754
8.82660000 0.011566 3.5476 0.999930 -74.36 0.999930 -74.36 0.011567 27.762
8.82680000 0.011567 3.5362 0.999930 -74.36 0.999930 -74.36 0.011568 27.769
8.82700000 0.011568 3.5248 0.999930 -74.36 0.999930 -74.36 0.011569 27.777
8.82720000 0.011569 3.5134 0.999930 -74.36 0.999930 -74.36 0.011570 27.785
8.82740000 0.011570 3.5020 0.999930 -74.36 0.999930 -74.36 0.011571 27.793
8.82760000 0.011571 3.4905 0.999930 -74.36 0.999930 -74.36 0.011572 27.801
8.82780000 0.011572 3.4789 0.999930 -74.37 0.999930 -74.37 0.011573 27.808
8.82800000 0.011573 3.4674 0.999930 -74.37 0.999930 -74.37 0.011574 27.816
8.82820000 0.011574 3.4558 0.999930 -74.37 0.999930 -74.37 0.011575 27.824
8.82840000 0.011575 3.4441 0.999930 -74.37 0.999930 -74.37 0.011576 27.832
8.82860000 0.011576 3.4324 0.999930 -74.37 0.999930 -74.37 0.011577 27.840
8.82880000 0.011577 3.4207 0.999930 -74.38 0.999930 -74.38 0.011578 27.848
8.82900000 0.011578 3.4089 0.999930 -74.38 0.999930 -74.38 0.011579 27.856
8.82920000 0.011579 3.3971 0.999930 -74.38 0.999930 -74.38 0.011580 27.864
8.82940000 0.011580 3.3853 0.999930 -74.38 0.999930 -74.38 0.011581 27.873
8.82960000 0.011581 3.3734 0.999930 -74.38 0.999930 -74.38 0.011582 27.881
8.82980000 0.011582 3.3615 0.999930 -74.38 0.999930 -74.38 0.011583 27.889
8.83000000 0.011583 3.3495 0.999930 -74.39 0.999930 -74.39 0.011584 27.897
8.83020000 0.011584 3.3375 0.999930 -74.39 0.999930 -74.39 0.011585 27.906
8.83040000 0.011585 3.3255 0.999930 -74.39 0.999930 -74.39 0.011586 27.914
8.83060000 0.011586 3.3134 0.999930 -74.39 0.999930 -74.39 0.011587 27.922
8.83080000 0.011587 3.3013 0.999930 -74.39 0.999930 -74.39 0.011589 27.931
8.83100000 0.011588 3.2891 0.999930 -74.40 0.999930 -74.40 0.011590 27.939
8.83120000 0.011589 3.2769 0.999930 -74.40 0.999930 -74.40 0.011591 27.948
8.83140000 0.011590 3.2647 0.999930 -74.40 0.999930 -74.40 0.011592 27.956
8.83160000 0.011591 3.2524 0.999930 -74.40 0.999930 -74.40 0.011593 27.965
8.83180000 0.011593 3.2401 0.999930 -74.40 0.999930 -74.40 0.011594 27.974
8.83200000 0.011594 3.2277 0.999930 -74.40 0.999930 -74.40 0.011595 27.982
8.83220000 0.011595 3.2153 0.999930 -74.41 0.999930 -74.41 0.011596 27.991
8.83240000 0.011596 3.2029 0.999930 -74.41 0.999930 -74.41 0.011597 28.000
8.83260000 0.011597 3.1904 0.999930 -74.41 0.999930 -74.41 0.011598 28.008
8.83280000 0.011598 3.1778 0.999930 -74.41 0.999930 -74.41 0.011599 28.017
8.83300000 0.011599 3.1652 0.999930 -74.41 0.999930 -74.41 0.011601 28.026
8.83320000 0.011600 3.1526 0.999930 -74.42 0.999930 -74.42 0.011602 28.035
8.83340000 0.011601 3.1399 0.999930 -74.42 0.999930 -74.42 0.011603 28.044
8.83360000 0.011603 3.1272 0.999930 -74.42 0.999930 -74.42 0.011604 28.053
8.83380000 0.011604 3.1145 0.999930 -74.42 0.999930 -74.42 0.011605 28.062
8.83400000 0.011605 3.1016 0.999930 -74.42 0.999930 -74.42 0.011606 28.071
8.83420000 0.011606 3.0888 0.999930 -74.43 0.999930 -74.43 0.011607 28.080
8.83440000 0.011607 3.0759 0.999930 -74.43 0.999930 -74.43 0.011609 28.090
8.83460000 0.011608 3.0630 0.999930 -74.43 0.999930 -74.43 0.011610 28.099
8.83480000 0.011610 3.0500 0.999930 -74.43 0.999930 -74.43 0.011611 28.108
8.83500000 0.011611 3.0369 0.999930 -74.43 0.999930 -74.43 0.011612 28.117
8.83520000 0.011612 3.0238 0.999930 -74.43 0.999930 -74.43 0.011613 28.127
8.83540000 0.011613 3.0107 0.999929 -74.44 0.999929 -74.44 0.011614 28.136
8.83560000 0.011614 2.9975 0.999929 -74.44 0.999929 -74.44 0.011616 28.146
8.83580000 0.011615 2.9843 0.999929 -74.44 0.999929 -74.44 0.011617 28.155
8.83600000 0.011617 2.9710 0.999929 -74.44 0.999929 -74.44 0.011618 28.165
8.83620000 0.011618 2.9577 0.999929 -74.44 0.999929 -74.44 0.011619 28.174
8.83640000 0.011619 2.9443 0.999929 -74.45 0.999929 -74.45 0.011621 28.184
8.83660000 0.011620 2.9309 0.999929 -74.45 0.999929 -74.45 0.011622 28.194
8.83680000 0.011622 2.9175 0.999929 -74.45 0.999929 -74.45 0.011623 28.203
8.83700000 0.011623 2.9039 0.999929 -74.45 0.999929 -74.45 0.011624 28.213
8.83720000 0.011624 2.8904 0.999929 -74.45 0.999929 -74.45 0.011626 28.223
8.83740000 0.011625 2.8768 0.999929 -74.45 0.999929 -74.45 0.011627 28.233
8.83760000 0.011627 2.8631 0.999929 -74.46 0.999929 -74.46 0.011628 28.243
8.83780000 0.011628 2.8494 0.999929 -74.46 0.999929 -74.46 0.011629 28.253
8.83800000 0.011629 2.8356 0.999929 -74.46 0.999929 -74.46 0.011631 28.263
8.83820000 0.011630 2.8218 0.999929 -74.46 0.999929 -74.46 0.011632 28.273
8.83840000 0.011632 2.8079 0.999929 -74.46 0.999929 -74.46 0.011633 28.283
8.83860000 0.011633 2.7940 0.999929 -74.47 0.999929 -74.47 0.011634 28.293
8.83880000 0.011634 2.7800 0.999929 -74.47 0.999929 -74.47 0.011636 28.303
8.83900000 0.011636 2.7660 0.999929 -74.47 0.999929 -74.47 0.011637 28.314
8.83920000 0.011637 2.7519 0.999929 -74.47 0.999929 -74.47 0.011638 28.324
8.83940000 0.011638 2.7377 0.999929 -74.47 0.999929 -74.47 0.011640 28.334
8.83960000 0.011640 2.7236 0.999929 -74.48 0.999929 -74.48 0.011641 28.345
8.83980000 0.011641 2.7093 0.999929 -74.48 0.999929 -74.48 0.011642 28.355
8.84000000 0.011642 2.6950 0.999929 -74.48 0.999929 -74.48 0.011644 28.366
8.84020000 0.011644 2.6807 0.999929 -74.48 0.999929 -74.48 0.011645 28.376
8.84040000 0.011645 2.6662 0.999929 -74.48 0.999929 -74.48 0.011646 28.387
8.84060000 0.011646 2.6518 0.999929 -74.48 0.999929 -74.48 0.011648 28.398
8.84080000 0.011648 2.6372 0.999929 -74.49 0.999929 -74.49 0.011649 28.409
8.84100000 0.011649 2.6227 0.999929 -74.49 0.999929 -74.49 0.011651 28.419
8.84120000 0.011650 2.6080 0.999929 -74.49 0.999929 -74.49 0.011652 28.430
8.84140000 0.011652 2.5933 0.999929 -74.49 0.999929 -74.49 0.011653 28.441
8.84160000 0.011653 2.5786 0.999929 -74.49 0.999929 -74.49 0.011655 28.452
8.84180000 0.011655 2.5638 0.999929 -74.50 0.999929 -74.50 0.011656 28.463
8.84200000 0.011656 2.5489 0.999929 -74.50 0.999929 -74.50 0.011658 28.474
8.84220000 0.011658 2.5340 0.999929 -74.50 0.999929 -74.50 0.011659 28.486
8.84240000 0.011659 2.5190 0.999929 -74.50 0.999929 -74.50 0.011661 28.497
8.84260000 0.011660 2.5039 0.999929 -74.50 0.999929 -74.50 0.011662 28.508
8.84280000 0.011662 2.4888 0.999929 -74.51 0.999929 -74.51 0.011663 28.519
8.84300000 0.011663 2.4737 0.999929 -74.51 0.999929 -74.51 0.011665 28.531
8.84320000 0.011665 2.4584 0.999929 -74.51 0.999929 -74.51 0.011666 28.542
8.84340000 0.011666 2.4431 0.999929 -74.51 0.999929 -74.51 0.011668 28.554
8.84360000 0.011668 2.4278 0.999929 -74.51 0.999929 -74.51 0.011669 28.565
8.84380000 0.011669 2.4124 0.999929 -74.51 0.999929 -74.51 0.011671 28.577
8.84400000 0.011671 2.3969 0.999929 -74.52 0.999929 -74.52 0.011672 28.589
8.84420000 0.011672 2.3813 0.999929 -74.52 0.999929 -74.52 0.011674 28.600
8.84440000 0.011674 2.3657 0.999929 -74.52 0.999929 -74.52 0.011675 28.612
8.84460000 0.011675 2.3501 0.999929 -74.52 0.999929 -74.52 0.011677 28.624
8.84480000 0.011677 2.3343 0.999929 -74.52 0.999929 -74.52 0.011678 28.636
8.84500000 0.011678 2.3185 0.999929 -74.53 0.999929 -74.53 0.011680 28.648
8.84520000 0.011680 2.3027 0.999929 -74.53 0.999929 -74.53 0.011682 28.660
8.84540000 0.011682 2.2867 0.999929 -74.53 0.999929 -74.53 0.011683 28.672
8.84560000 0.011683 2.2707 0.999929 -74.53 0.999929 -74.53 0.011685 28.684
8.84580000 0.011685 2.2547 0.999929 -74.53 0.999929 -74.53 0.011686 28.697
8.84600000 0.011686 2.2385 0.999929 -74.54 0.999929 -74.54 0.011688 28.709
8.84620000 0.011688 2.2223 0.999929 -74.54 0.999929 -74.54 0.011690 28.721
8.84640000 0.011690 2.2061 0.999929 -74.54 0.999929 -74.54 0.011691 28.734
8.84660000 0.011691 2.1897 0.999928 -74.54 0.999928 -74.54 0.011693 28.746
8.84680000 0.011693 2.1733 0.999928 -74.54 0.999928 -74.54 0.011694 28.759
8.84700000 0.011694 2.1568 0.999928 -74.55 0.999928 -74.55 0.011696 28.772
8.84720000 0.011696 2.1403 0.999928 -74.55 0.999928 -74.55 0.011698 28.784
8.84740000 0.011698 2.1237 0.999928 -74.55 0.999928 -74.55 0.011699 28.797
8.84760000 0.011699 2.1070 0.999928 -74.55 0.999928 -74.55 0.011701 28.810
8.84780000 0.011701 2.0902 0.999928 -74.55 0.999928 -74.55 0.011703 28.823
8.84800000 0.011703 2.0734 0.999928 -74.55 0.999928 -74.55 0.011704 28.836
8.84820000 0.011704 2.0565 0.999928 -74.56 0.999928 -74.56 0.011706 28.849
8.84840000 0.011706 2.0395 0.999928 -74.56 0.999928 -74.56 0.011708 28.862
8.84860000 0.011708 2.0224 0.999928 -74.56 0.999928 -74.56 0.011710 28.875
8.84880000 0.011710 2.0053 0.999928 -74.56 0.999928 -74.56 0.011711 28.889
8.84900000 0.011711 1.9881 0.999928 -74.56 0.999928 -74.56 0.011713 28.902
8.84920000 0.011713 1.9708 0.999928 -74.57 0.999928 -74.57 0.011715 28.915
8.84940000 0.011715 1.9535 0.999928 -74.57 0.999928 -74.57 0.011717 28.929
8.84960000 0.011717 1.9360 0.999928 -74.57 0.999928 -74.57 0.011718 28.943
8.84980000 0.011718 1.9185 0.999928 -74.57 0.999928 -74.57 0.011720 28.956
8.85000000 0.011720 1.9009 0.999928 -74.57 0.999928 -74.57 0.011722 28.970
8.85020000 0.011722 1.8832 0.999928 -74.58 0.999928 -74.58 0.011724 28.984
8.85040000 0.011724 1.8655 0.999928 -74.58 0.999928 -74.58 0.011726 28.998
8.85060000 0.011726 1.8477 0.999928 -74.58 0.999928 -74.58 0.011727 29.012
8.85080000 0.011728 1.8297 0.999928 -74.58 0.999928 -74.58 0.011729 29.026
8.85100000 0.011729 1.8117 0.999928 -74.58 0.999928 -74.58 0.011731 29.040
8.85120000 0.011731 1.7937 0.999928 -74.59 0.999928 -74.59 0.011733 29.054
8.85140000 0.011733 1.7755 0.999928 -74.59 0.999928 -74.59 0.011735 29.068
8.85160000 0.011735 1.7573 0.999928 -74.59 0.999928 -74.59 0.011737 29.083
8.85180000 0.011737 1.7389 0.999928 -74.59 0.999928 -74.59 0.011739 29.097
