! Sonnet Data File
! From: emgraph Version : 16.52
! From Project: transmon_brg
! Data is De-embedded 
! Data File Written: 11/11/2017 22:44:25
!< HDATE 11/11/2017 16:55:33
!< MDATE 11/11/2017 17:38:18
!< PARAMS
!< Lj = 15.24
!< Gap = 6.0
!< Width = 10.0
!< Airgap = 6.0
!< Pwidth = 2000.0
!< Dist = 1600.0
!< END PARAMS
# GHZ S MA R 51.80000
8.50000000 0.003397 -172.7 0.999990 -79.80 0.999990 -79.80 0.003396 -167.0
!< P1 F=8.5 Eeff=(6.44695349 -2.9785e-5) Z0=(51.7999087 1.19092e-4) R=0.0 C=0.0 
!< P2 F=8.5 Eeff=(6.44695349 -2.9785e-5) Z0=(51.7999087 1.19092e-4) R=0.0 C=0.0 
8.50020000 0.003412 -172.7 0.999990 -79.80 0.999990 -79.80 0.003412 -167.0
8.50040000 0.003428 -172.7 0.999990 -79.80 0.999990 -79.80 0.003427 -167.0
8.50060000 0.003443 -172.7 0.999990 -79.81 0.999990 -79.81 0.003443 -167.0
8.50080000 0.003459 -172.7 0.999989 -79.81 0.999989 -79.81 0.003458 -167.0
8.50100000 0.003474 -172.7 0.999989 -79.81 0.999989 -79.81 0.003474 -167.1
8.50120000 0.003490 -172.7 0.999989 -79.82 0.999989 -79.82 0.003489 -167.1
8.50140000 0.003505 -172.7 0.999989 -79.82 0.999989 -79.82 0.003505 -167.1
8.50160000 0.003521 -172.7 0.999989 -79.82 0.999989 -79.82 0.003521 -167.1
8.50180000 0.003537 -172.7 0.999989 -79.82 0.999989 -79.82 0.003536 -167.1
8.50200000 0.003552 -172.6 0.999989 -79.83 0.999989 -79.83 0.003552 -167.1
8.50220000 0.003568 -172.6 0.999989 -79.83 0.999989 -79.83 0.003568 -167.1
8.50240000 0.003584 -172.6 0.999989 -79.83 0.999989 -79.83 0.003583 -167.2
8.50260000 0.003599 -172.6 0.999989 -79.83 0.999989 -79.83 0.003599 -167.2
8.50280000 0.003615 -172.6 0.999989 -79.84 0.999989 -79.84 0.003615 -167.2
8.50300000 0.003631 -172.6 0.999989 -79.84 0.999989 -79.84 0.003630 -167.2
8.50320000 0.003647 -172.6 0.999989 -79.84 0.999989 -79.84 0.003646 -167.2
8.50340000 0.003662 -172.6 0.999989 -79.85 0.999989 -79.85 0.003662 -167.2
8.50360000 0.003678 -172.6 0.999989 -79.85 0.999989 -79.85 0.003678 -167.2
8.50380000 0.003694 -172.6 0.999989 -79.85 0.999989 -79.85 0.003694 -167.2
8.50400000 0.003710 -172.6 0.999989 -79.85 0.999989 -79.85 0.003710 -167.3
8.50420000 0.003726 -172.6 0.999988 -79.86 0.999988 -79.86 0.003725 -167.3
8.50440000 0.003742 -172.6 0.999988 -79.86 0.999988 -79.86 0.003741 -167.3
8.50460000 0.003758 -172.5 0.999988 -79.86 0.999988 -79.86 0.003757 -167.3
8.50480000 0.003774 -172.5 0.999988 -79.87 0.999988 -79.87 0.003773 -167.3
8.50500000 0.003789 -172.5 0.999988 -79.87 0.999988 -79.87 0.003789 -167.3
8.50520000 0.003805 -172.5 0.999988 -79.87 0.999988 -79.87 0.003805 -167.3
8.50540000 0.003822 -172.5 0.999988 -79.87 0.999988 -79.87 0.003821 -167.3
8.50560000 0.003838 -172.5 0.999988 -79.88 0.999988 -79.88 0.003837 -167.3
8.50580000 0.003854 -172.5 0.999988 -79.88 0.999988 -79.88 0.003853 -167.4
8.50600000 0.003870 -172.5 0.999988 -79.88 0.999988 -79.88 0.003869 -167.4
8.50620000 0.003886 -172.5 0.999988 -79.88 0.999988 -79.88 0.003886 -167.4
8.50640000 0.003902 -172.5 0.999988 -79.89 0.999988 -79.89 0.003902 -167.4
8.50660000 0.003918 -172.5 0.999988 -79.89 0.999988 -79.89 0.003918 -167.4
8.50680000 0.003934 -172.5 0.999988 -79.89 0.999988 -79.89 0.003934 -167.4
8.50700000 0.003951 -172.5 0.999988 -79.90 0.999988 -79.90 0.003950 -167.4
8.50720000 0.003967 -172.5 0.999988 -79.90 0.999988 -79.90 0.003966 -167.4
8.50740000 0.003983 -172.5 0.999987 -79.90 0.999987 -79.90 0.003983 -167.4
8.50760000 0.003999 -172.5 0.999987 -79.90 0.999987 -79.90 0.003999 -167.5
8.50780000 0.004016 -172.4 0.999987 -79.91 0.999987 -79.91 0.004015 -167.5
8.50800000 0.004032 -172.4 0.999987 -79.91 0.999987 -79.91 0.004032 -167.5
8.50820000 0.004048 -172.4 0.999987 -79.91 0.999987 -79.91 0.004048 -167.5
8.50840000 0.004065 -172.4 0.999987 -79.92 0.999987 -79.92 0.004064 -167.5
8.50860000 0.004081 -172.4 0.999987 -79.92 0.999987 -79.92 0.004081 -167.5
8.50880000 0.004098 -172.4 0.999987 -79.92 0.999987 -79.92 0.004097 -167.5
8.50900000 0.004114 -172.4 0.999987 -79.92 0.999987 -79.92 0.004114 -167.5
8.50920000 0.004130 -172.4 0.999987 -79.93 0.999987 -79.93 0.004130 -167.5
8.50940000 0.004147 -172.4 0.999987 -79.93 0.999987 -79.93 0.004147 -167.6
8.50960000 0.004163 -172.4 0.999987 -79.93 0.999987 -79.93 0.004163 -167.6
8.50980000 0.004180 -172.4 0.999987 -79.94 0.999987 -79.94 0.004180 -167.6
8.51000000 0.004197 -172.4 0.999987 -79.94 0.999987 -79.94 0.004196 -167.6
8.51020000 0.004213 -172.4 0.999986 -79.94 0.999986 -79.94 0.004213 -167.6
8.51040000 0.004230 -172.4 0.999986 -79.94 0.999986 -79.94 0.004230 -167.6
8.51060000 0.004246 -172.4 0.999986 -79.95 0.999986 -79.95 0.004246 -167.6
8.51080000 0.004263 -172.4 0.999986 -79.95 0.999986 -79.95 0.004263 -167.6
8.51100000 0.004280 -172.4 0.999986 -79.95 0.999986 -79.95 0.004280 -167.6
8.51120000 0.004297 -172.4 0.999986 -79.96 0.999986 -79.96 0.004296 -167.7
8.51140000 0.004313 -172.4 0.999986 -79.96 0.999986 -79.96 0.004313 -167.7
8.51160000 0.004330 -172.3 0.999986 -79.96 0.999986 -79.96 0.004330 -167.7
8.51180000 0.004347 -172.3 0.999986 -79.96 0.999986 -79.96 0.004347 -167.7
8.51200000 0.004364 -172.3 0.999986 -79.97 0.999986 -79.97 0.004363 -167.7
8.51220000 0.004380 -172.3 0.999986 -79.97 0.999986 -79.97 0.004380 -167.7
8.51240000 0.004397 -172.3 0.999986 -79.97 0.999986 -79.97 0.004397 -167.7
8.51260000 0.004414 -172.3 0.999986 -79.98 0.999986 -79.98 0.004414 -167.7
8.51280000 0.004431 -172.3 0.999985 -79.98 0.999985 -79.98 0.004431 -167.7
8.51300000 0.004448 -172.3 0.999985 -79.98 0.999985 -79.98 0.004448 -167.7
8.51320000 0.004465 -172.3 0.999985 -79.98 0.999985 -79.98 0.004465 -167.8
8.51340000 0.004482 -172.3 0.999985 -79.99 0.999985 -79.99 0.004482 -167.8
8.51360000 0.004499 -172.3 0.999985 -79.99 0.999985 -79.99 0.004499 -167.8
8.51380000 0.004516 -172.3 0.999985 -79.99 0.999985 -79.99 0.004516 -167.8
8.51400000 0.004533 -172.3 0.999985 -80.00 0.999985 -80.00 0.004533 -167.8
8.51420000 0.004550 -172.3 0.999985 -80.00 0.999985 -80.00 0.004550 -167.8
8.51440000 0.004567 -172.3 0.999985 -80.00 0.999985 -80.00 0.004567 -167.8
8.51460000 0.004585 -172.3 0.999985 -80.00 0.999985 -80.00 0.004584 -167.8
8.51480000 0.004602 -172.3 0.999985 -80.01 0.999985 -80.01 0.004601 -167.8
8.51500000 0.004619 -172.3 0.999985 -80.01 0.999985 -80.01 0.004619 -167.8
8.51520000 0.004636 -172.3 0.999985 -80.01 0.999985 -80.01 0.004636 -167.8
8.51540000 0.004653 -172.3 0.999984 -80.02 0.999984 -80.02 0.004653 -167.9
8.51560000 0.004671 -172.3 0.999984 -80.02 0.999984 -80.02 0.004670 -167.9
8.51580000 0.004688 -172.3 0.999984 -80.02 0.999984 -80.02 0.004688 -167.9
8.51600000 0.004705 -172.3 0.999984 -80.02 0.999984 -80.02 0.004705 -167.9
8.51620000 0.004723 -172.3 0.999984 -80.03 0.999984 -80.03 0.004722 -167.9
8.51640000 0.004740 -172.2 0.999984 -80.03 0.999984 -80.03 0.004740 -167.9
8.51660000 0.004757 -172.2 0.999984 -80.03 0.999984 -80.03 0.004757 -167.9
8.51680000 0.004775 -172.2 0.999984 -80.04 0.999984 -80.04 0.004775 -167.9
8.51700000 0.004792 -172.2 0.999984 -80.04 0.999984 -80.04 0.004792 -167.9
8.51720000 0.004810 -172.2 0.999984 -80.04 0.999984 -80.04 0.004809 -167.9
8.51740000 0.004827 -172.2 0.999984 -80.04 0.999984 -80.04 0.004827 -167.9
8.51760000 0.004845 -172.2 0.999984 -80.05 0.999984 -80.05 0.004844 -168.0
8.51780000 0.004862 -172.2 0.999983 -80.05 0.999983 -80.05 0.004862 -168.0
8.51800000 0.004880 -172.2 0.999983 -80.05 0.999983 -80.05 0.004880 -168.0
8.51820000 0.004898 -172.2 0.999983 -80.06 0.999983 -80.06 0.004897 -168.0
8.51840000 0.004915 -172.2 0.999983 -80.06 0.999983 -80.06 0.004915 -168.0
8.51860000 0.004933 -172.2 0.999983 -80.06 0.999983 -80.06 0.004933 -168.0
8.51880000 0.004950 -172.2 0.999983 -80.06 0.999983 -80.06 0.004950 -168.0
8.51900000 0.004968 -172.2 0.999983 -80.07 0.999983 -80.07 0.004968 -168.0
8.51920000 0.004986 -172.2 0.999983 -80.07 0.999983 -80.07 0.004986 -168.0
8.51940000 0.005004 -172.2 0.999983 -80.07 0.999983 -80.07 0.005003 -168.0
8.51960000 0.005022 -172.2 0.999983 -80.08 0.999983 -80.08 0.005021 -168.0
8.51980000 0.005039 -172.2 0.999983 -80.08 0.999983 -80.08 0.005039 -168.1
8.52000000 0.005057 -172.2 0.999982 -80.08 0.999982 -80.08 0.005057 -168.1
8.52020000 0.005075 -172.2 0.999982 -80.08 0.999982 -80.08 0.005075 -168.1
8.52040000 0.005093 -172.2 0.999982 -80.09 0.999982 -80.09 0.005093 -168.1
8.52060000 0.005111 -172.2 0.999982 -80.09 0.999982 -80.09 0.005111 -168.1
8.52080000 0.005129 -172.2 0.999982 -80.09 0.999982 -80.09 0.005129 -168.1
8.52100000 0.005147 -172.2 0.999982 -80.10 0.999982 -80.10 0.005147 -168.1
8.52120000 0.005165 -172.2 0.999982 -80.10 0.999982 -80.10 0.005165 -168.1
8.52140000 0.005183 -172.2 0.999982 -80.10 0.999982 -80.10 0.005183 -168.1
8.52160000 0.005201 -172.2 0.999982 -80.10 0.999982 -80.10 0.005201 -168.1
8.52180000 0.005219 -172.2 0.999982 -80.11 0.999982 -80.11 0.005219 -168.1
8.52200000 0.005237 -172.2 0.999981 -80.11 0.999981 -80.11 0.005237 -168.1
8.52220000 0.005255 -172.2 0.999981 -80.11 0.999981 -80.11 0.005255 -168.2
8.52240000 0.005274 -172.2 0.999981 -80.12 0.999981 -80.12 0.005273 -168.2
8.52260000 0.005292 -172.2 0.999981 -80.12 0.999981 -80.12 0.005292 -168.2
8.52280000 0.005310 -172.1 0.999981 -80.12 0.999981 -80.12 0.005310 -168.2
8.52300000 0.005328 -172.1 0.999981 -80.13 0.999981 -80.13 0.005328 -168.2
8.52320000 0.005347 -172.1 0.999981 -80.13 0.999981 -80.13 0.005346 -168.2
8.52340000 0.005365 -172.1 0.999981 -80.13 0.999981 -80.13 0.005365 -168.2
8.52360000 0.005383 -172.1 0.999981 -80.13 0.999981 -80.13 0.005383 -168.2
8.52380000 0.005402 -172.1 0.999981 -80.14 0.999981 -80.14 0.005401 -168.2
8.52400000 0.005420 -172.1 0.999980 -80.14 0.999980 -80.14 0.005420 -168.2
8.52420000 0.005438 -172.1 0.999980 -80.14 0.999980 -80.14 0.005438 -168.2
8.52440000 0.005457 -172.1 0.999980 -80.15 0.999980 -80.15 0.005457 -168.2
8.52460000 0.005475 -172.1 0.999980 -80.15 0.999980 -80.15 0.005475 -168.3
8.52480000 0.005494 -172.1 0.999980 -80.15 0.999980 -80.15 0.005494 -168.3
8.52500000 0.005512 -172.1 0.999980 -80.15 0.999980 -80.15 0.005512 -168.3
8.52520000 0.005531 -172.1 0.999980 -80.16 0.999980 -80.16 0.005531 -168.3
8.52540000 0.005550 -172.1 0.999980 -80.16 0.999980 -80.16 0.005549 -168.3
8.52560000 0.005568 -172.1 0.999980 -80.16 0.999980 -80.16 0.005568 -168.3
8.52580000 0.005587 -172.1 0.999980 -80.17 0.999980 -80.17 0.005587 -168.3
8.52600000 0.005606 -172.1 0.999979 -80.17 0.999979 -80.17 0.005605 -168.3
8.52620000 0.005624 -172.1 0.999979 -80.17 0.999979 -80.17 0.005624 -168.3
8.52640000 0.005643 -172.1 0.999979 -80.18 0.999979 -80.18 0.005643 -168.3
8.52660000 0.005662 -172.1 0.999979 -80.18 0.999979 -80.18 0.005662 -168.3
8.52680000 0.005681 -172.1 0.999979 -80.18 0.999979 -80.18 0.005680 -168.3
8.52700000 0.005699 -172.1 0.999979 -80.18 0.999979 -80.18 0.005699 -168.3
8.52720000 0.005718 -172.1 0.999979 -80.19 0.999979 -80.19 0.005718 -168.4
8.52740000 0.005737 -172.1 0.999979 -80.19 0.999979 -80.19 0.005737 -168.4
8.52760000 0.005756 -172.1 0.999979 -80.19 0.999979 -80.19 0.005756 -168.4
8.52780000 0.005775 -172.1 0.999978 -80.20 0.999978 -80.20 0.005775 -168.4
8.52800000 0.005794 -172.1 0.999978 -80.20 0.999978 -80.20 0.005794 -168.4
8.52820000 0.005813 -172.1 0.999978 -80.20 0.999978 -80.20 0.005813 -168.4
8.52840000 0.005832 -172.1 0.999978 -80.20 0.999978 -80.20 0.005832 -168.4
8.52860000 0.005851 -172.1 0.999978 -80.21 0.999978 -80.21 0.005851 -168.4
8.52880000 0.005870 -172.1 0.999978 -80.21 0.999978 -80.21 0.005870 -168.4
8.52900000 0.005889 -172.1 0.999978 -80.21 0.999978 -80.21 0.005889 -168.4
8.52920000 0.005909 -172.1 0.999978 -80.22 0.999978 -80.22 0.005908 -168.4
8.52940000 0.005928 -172.1 0.999978 -80.22 0.999978 -80.22 0.005928 -168.4
8.52960000 0.005947 -172.1 0.999977 -80.22 0.999977 -80.22 0.005947 -168.4
8.52980000 0.005966 -172.1 0.999977 -80.23 0.999977 -80.23 0.005966 -168.4
8.53000000 0.005986 -172.1 0.999977 -80.23 0.999977 -80.23 0.005985 -168.5
8.53020000 0.006005 -172.1 0.999977 -80.23 0.999977 -80.23 0.006005 -168.5
8.53040000 0.006024 -172.1 0.999977 -80.23 0.999977 -80.23 0.006024 -168.5
8.53060000 0.006044 -172.1 0.999977 -80.24 0.999977 -80.24 0.006043 -168.5
8.53080000 0.006063 -172.1 0.999977 -80.24 0.999977 -80.24 0.006063 -168.5
8.53100000 0.006082 -172.1 0.999977 -80.24 0.999977 -80.24 0.006082 -168.5
8.53120000 0.006102 -172.1 0.999976 -80.25 0.999976 -80.25 0.006102 -168.5
8.53140000 0.006121 -172.1 0.999976 -80.25 0.999976 -80.25 0.006121 -168.5
8.53160000 0.006141 -172.1 0.999976 -80.25 0.999976 -80.25 0.006141 -168.5
8.53180000 0.006160 -172.1 0.999976 -80.26 0.999976 -80.26 0.006160 -168.5
8.53200000 0.006180 -172.1 0.999976 -80.26 0.999976 -80.26 0.006180 -168.5
8.53220000 0.006200 -172.1 0.999976 -80.26 0.999976 -80.26 0.006199 -168.5
8.53240000 0.006219 -172.1 0.999976 -80.26 0.999976 -80.26 0.006219 -168.5
8.53260000 0.006239 -172.1 0.999976 -80.27 0.999976 -80.27 0.006239 -168.6
8.53280000 0.006259 -172.1 0.999975 -80.27 0.999975 -80.27 0.006258 -168.6
8.53300000 0.006278 -172.1 0.999975 -80.27 0.999975 -80.27 0.006278 -168.6
8.53320000 0.006298 -172.1 0.999975 -80.28 0.999975 -80.28 0.006298 -168.6
8.53340000 0.006318 -172.1 0.999975 -80.28 0.999975 -80.28 0.006318 -168.6
8.53360000 0.006338 -172.1 0.999975 -80.28 0.999975 -80.28 0.006338 -168.6
8.53380000 0.006358 -172.0 0.999975 -80.29 0.999975 -80.29 0.006357 -168.6
8.53400000 0.006378 -172.0 0.999975 -80.29 0.999975 -80.29 0.006377 -168.6
8.53420000 0.006398 -172.0 0.999975 -80.29 0.999975 -80.29 0.006397 -168.6
8.53440000 0.006417 -172.0 0.999974 -80.29 0.999974 -80.29 0.006417 -168.6
8.53460000 0.006437 -172.0 0.999974 -80.30 0.999974 -80.30 0.006437 -168.6
8.53480000 0.006457 -172.0 0.999974 -80.30 0.999974 -80.30 0.006457 -168.6
8.53500000 0.006478 -172.0 0.999974 -80.30 0.999974 -80.30 0.006477 -168.6
8.53520000 0.006498 -172.0 0.999974 -80.31 0.999974 -80.31 0.006497 -168.6
8.53540000 0.006518 -172.0 0.999974 -80.31 0.999974 -80.31 0.006518 -168.6
8.53560000 0.006538 -172.0 0.999974 -80.31 0.999974 -80.31 0.006538 -168.7
8.53580000 0.006558 -172.0 0.999973 -80.32 0.999973 -80.32 0.006558 -168.7
8.53600000 0.006578 -172.0 0.999973 -80.32 0.999973 -80.32 0.006578 -168.7
8.53620000 0.006599 -172.0 0.999973 -80.32 0.999973 -80.32 0.006598 -168.7
8.53640000 0.006619 -172.0 0.999973 -80.32 0.999973 -80.32 0.006619 -168.7
8.53660000 0.006639 -172.0 0.999973 -80.33 0.999973 -80.33 0.006639 -168.7
8.53680000 0.006660 -172.0 0.999973 -80.33 0.999973 -80.33 0.006659 -168.7
8.53700000 0.006680 -172.0 0.999973 -80.33 0.999973 -80.33 0.006680 -168.7
8.53720000 0.006700 -172.0 0.999973 -80.34 0.999973 -80.34 0.006700 -168.7
8.53740000 0.006721 -172.0 0.999972 -80.34 0.999972 -80.34 0.006721 -168.7
8.53760000 0.006741 -172.0 0.999972 -80.34 0.999972 -80.34 0.006741 -168.7
8.53780000 0.006762 -172.0 0.999972 -80.35 0.999972 -80.35 0.006762 -168.7
8.53800000 0.006782 -172.0 0.999972 -80.35 0.999972 -80.35 0.006782 -168.7
8.53820000 0.006803 -172.0 0.999972 -80.35 0.999972 -80.35 0.006803 -168.7
8.53840000 0.006823 -172.0 0.999972 -80.36 0.999972 -80.36 0.006823 -168.7
8.53860000 0.006844 -172.0 0.999972 -80.36 0.999972 -80.36 0.006844 -168.8
8.53880000 0.006865 -172.0 0.999971 -80.36 0.999971 -80.36 0.006865 -168.8
8.53900000 0.006886 -172.0 0.999971 -80.36 0.999971 -80.36 0.006885 -168.8
8.53920000 0.006906 -172.0 0.999971 -80.37 0.999971 -80.37 0.006906 -168.8
8.53940000 0.006927 -172.0 0.999971 -80.37 0.999971 -80.37 0.006927 -168.8
8.53960000 0.006948 -172.0 0.999971 -80.37 0.999971 -80.37 0.006948 -168.8
8.53980000 0.006969 -172.0 0.999971 -80.38 0.999971 -80.38 0.006969 -168.8
8.54000000 0.006990 -172.0 0.999970 -80.38 0.999970 -80.38 0.006989 -168.8
8.54020000 0.007011 -172.0 0.999970 -80.38 0.999970 -80.38 0.007010 -168.8
8.54040000 0.007031 -172.0 0.999970 -80.39 0.999970 -80.39 0.007031 -168.8
8.54060000 0.007052 -172.0 0.999970 -80.39 0.999970 -80.39 0.007052 -168.8
8.54080000 0.007073 -172.0 0.999970 -80.39 0.999970 -80.39 0.007073 -168.8
8.54100000 0.007095 -172.0 0.999970 -80.40 0.999970 -80.40 0.007094 -168.8
8.54120000 0.007116 -172.0 0.999970 -80.40 0.999970 -80.40 0.007115 -168.8
8.54140000 0.007137 -172.0 0.999969 -80.40 0.999969 -80.40 0.007137 -168.8
8.54160000 0.007158 -172.0 0.999969 -80.40 0.999969 -80.40 0.007158 -168.9
8.54180000 0.007179 -172.0 0.999969 -80.41 0.999969 -80.41 0.007179 -168.9
8.54200000 0.007200 -172.0 0.999969 -80.41 0.999969 -80.41 0.007200 -168.9
8.54220000 0.007222 -172.0 0.999969 -80.41 0.999969 -80.41 0.007221 -168.9
8.54240000 0.007243 -172.0 0.999969 -80.42 0.999969 -80.42 0.007243 -168.9
8.54260000 0.007264 -172.0 0.999968 -80.42 0.999968 -80.42 0.007264 -168.9
8.54280000 0.007286 -172.0 0.999968 -80.42 0.999968 -80.42 0.007285 -168.9
8.54300000 0.007307 -172.0 0.999968 -80.43 0.999968 -80.43 0.007307 -168.9
8.54320000 0.007328 -172.0 0.999968 -80.43 0.999968 -80.43 0.007328 -168.9
8.54340000 0.007350 -172.0 0.999968 -80.43 0.999968 -80.43 0.007350 -168.9
8.54360000 0.007371 -172.0 0.999968 -80.44 0.999968 -80.44 0.007371 -168.9
8.54380000 0.007393 -172.0 0.999968 -80.44 0.999968 -80.44 0.007393 -168.9
8.54400000 0.007414 -172.0 0.999967 -80.44 0.999967 -80.44 0.007414 -168.9
8.54420000 0.007436 -172.0 0.999967 -80.44 0.999967 -80.44 0.007436 -168.9
8.54440000 0.007458 -172.0 0.999967 -80.45 0.999967 -80.45 0.007458 -168.9
8.54460000 0.007479 -172.0 0.999967 -80.45 0.999967 -80.45 0.007479 -168.9
8.54480000 0.007501 -172.0 0.999967 -80.45 0.999967 -80.45 0.007501 -169.0
8.54500000 0.007523 -172.0 0.999967 -80.46 0.999967 -80.46 0.007523 -169.0
8.54520000 0.007545 -172.0 0.999966 -80.46 0.999966 -80.46 0.007544 -169.0
8.54540000 0.007566 -172.0 0.999966 -80.46 0.999966 -80.46 0.007566 -169.0
8.54560000 0.007588 -172.0 0.999966 -80.47 0.999966 -80.47 0.007588 -169.0
8.54580000 0.007610 -172.0 0.999966 -80.47 0.999966 -80.47 0.007610 -169.0
8.54600000 0.007632 -172.0 0.999966 -80.47 0.999966 -80.47 0.007632 -169.0
8.54620000 0.007654 -172.0 0.999966 -80.48 0.999966 -80.48 0.007654 -169.0
8.54640000 0.007676 -172.0 0.999965 -80.48 0.999965 -80.48 0.007676 -169.0
8.54660000 0.007698 -172.0 0.999965 -80.48 0.999965 -80.48 0.007698 -169.0
8.54680000 0.007720 -172.0 0.999965 -80.49 0.999965 -80.49 0.007720 -169.0
8.54700000 0.007742 -172.0 0.999965 -80.49 0.999965 -80.49 0.007742 -169.0
8.54720000 0.007765 -172.0 0.999965 -80.49 0.999965 -80.49 0.007764 -169.0
8.54740000 0.007787 -172.0 0.999964 -80.50 0.999964 -80.50 0.007787 -169.0
8.54760000 0.007809 -172.0 0.999964 -80.50 0.999964 -80.50 0.007809 -169.0
8.54780000 0.007831 -172.0 0.999964 -80.50 0.999964 -80.50 0.007831 -169.0
8.54800000 0.007854 -172.0 0.999964 -80.50 0.999964 -80.50 0.007853 -169.1
8.54820000 0.007876 -172.0 0.999964 -80.51 0.999964 -80.51 0.007876 -169.1
8.54840000 0.007898 -172.0 0.999964 -80.51 0.999964 -80.51 0.007898 -169.1
8.54860000 0.007921 -172.0 0.999963 -80.51 0.999963 -80.51 0.007921 -169.1
8.54880000 0.007943 -172.0 0.999963 -80.52 0.999963 -80.52 0.007943 -169.1
8.54900000 0.007966 -172.0 0.999963 -80.52 0.999963 -80.52 0.007965 -169.1
8.54920000 0.007988 -172.0 0.999963 -80.52 0.999963 -80.52 0.007988 -169.1
8.54940000 0.008011 -172.0 0.999963 -80.53 0.999963 -80.53 0.008011 -169.1
8.54960000 0.008033 -172.0 0.999962 -80.53 0.999962 -80.53 0.008033 -169.1
8.54980000 0.008056 -172.0 0.999962 -80.53 0.999962 -80.53 0.008056 -169.1
8.55000000 0.008079 -172.0 0.999962 -80.54 0.999962 -80.54 0.008079 -169.1
8.55020000 0.008101 -172.0 0.999962 -80.54 0.999962 -80.54 0.008101 -169.1
8.55040000 0.008124 -172.0 0.999962 -80.54 0.999962 -80.54 0.008124 -169.1
8.55060000 0.008147 -172.0 0.999962 -80.55 0.999962 -80.55 0.008147 -169.1
8.55080000 0.008170 -172.0 0.999961 -80.55 0.999961 -80.55 0.008170 -169.1
8.55100000 0.008193 -172.0 0.999961 -80.55 0.999961 -80.55 0.008193 -169.1
8.55120000 0.008216 -172.0 0.999961 -80.56 0.999961 -80.56 0.008215 -169.2
8.55140000 0.008239 -172.0 0.999961 -80.56 0.999961 -80.56 0.008238 -169.2
8.55160000 0.008262 -172.0 0.999961 -80.56 0.999961 -80.56 0.008261 -169.2
