! Sonnet Data File
! From: emgraph Version : 16.52
! From Project: transmon_brg
! Data is De-embedded 
! Data File Written: 11/11/2017 22:44:24
!< HDATE 11/11/2017 16:55:33
!< MDATE 11/11/2017 17:38:18
!< PARAMS
!< Lj = 15.24
!< Gap = 6.0
!< Width = 10.0
!< Airgap = 6.0
!< Pwidth = 2000.0
!< Dist = 600.0
!< END PARAMS
# GHZ S MA R 51.80000
8.50000000 0.005795 -169.8 0.999979 -79.73 0.999979 -79.73 0.005795 -169.8
!< P1 F=8.5 Eeff=(6.44695349 -2.9785e-5) Z0=(51.7999087 1.19092e-4) R=0.0 C=0.0 
!< P2 F=8.5 Eeff=(6.44695349 -2.9785e-5) Z0=(51.7999087 1.19092e-4) R=0.0 C=0.0 
8.50020000 0.005811 -169.8 0.999979 -79.74 0.999979 -79.74 0.005811 -169.8
8.50040000 0.005826 -169.8 0.999978 -79.74 0.999978 -79.74 0.005826 -169.8
8.50060000 0.005842 -169.8 0.999978 -79.74 0.999978 -79.74 0.005842 -169.8
8.50080000 0.005858 -169.8 0.999978 -79.75 0.999978 -79.75 0.005858 -169.8
8.50100000 0.005873 -169.8 0.999978 -79.75 0.999978 -79.75 0.005873 -169.8
8.50120000 0.005889 -169.8 0.999978 -79.75 0.999978 -79.75 0.005889 -169.8
8.50140000 0.005904 -169.8 0.999978 -79.75 0.999978 -79.75 0.005904 -169.8
8.50160000 0.005920 -169.8 0.999978 -79.76 0.999978 -79.76 0.005920 -169.8
8.50180000 0.005936 -169.8 0.999978 -79.76 0.999978 -79.76 0.005936 -169.8
8.50200000 0.005951 -169.8 0.999978 -79.76 0.999978 -79.76 0.005951 -169.8
8.50220000 0.005967 -169.8 0.999978 -79.77 0.999978 -79.77 0.005967 -169.8
8.50240000 0.005983 -169.8 0.999978 -79.77 0.999978 -79.77 0.005983 -169.8
8.50260000 0.005998 -169.8 0.999977 -79.77 0.999977 -79.77 0.005998 -169.8
8.50280000 0.006014 -169.8 0.999977 -79.77 0.999977 -79.77 0.006014 -169.8
8.50300000 0.006030 -169.8 0.999977 -79.78 0.999977 -79.78 0.006030 -169.8
8.50320000 0.006046 -169.8 0.999977 -79.78 0.999977 -79.78 0.006046 -169.8
8.50340000 0.006062 -169.8 0.999977 -79.78 0.999977 -79.78 0.006062 -169.8
8.50360000 0.006077 -169.8 0.999977 -79.78 0.999977 -79.78 0.006078 -169.8
8.50380000 0.006093 -169.8 0.999977 -79.79 0.999977 -79.79 0.006093 -169.8
8.50400000 0.006109 -169.8 0.999977 -79.79 0.999977 -79.79 0.006109 -169.8
8.50420000 0.006125 -169.8 0.999977 -79.79 0.999977 -79.79 0.006125 -169.8
8.50440000 0.006141 -169.8 0.999977 -79.80 0.999977 -79.80 0.006141 -169.8
8.50460000 0.006157 -169.8 0.999976 -79.80 0.999976 -79.80 0.006157 -169.8
8.50480000 0.006173 -169.8 0.999976 -79.80 0.999976 -79.80 0.006173 -169.8
8.50500000 0.006189 -169.8 0.999976 -79.80 0.999976 -79.80 0.006189 -169.8
8.50520000 0.006205 -169.8 0.999976 -79.81 0.999976 -79.81 0.006205 -169.9
8.50540000 0.006221 -169.8 0.999976 -79.81 0.999976 -79.81 0.006221 -169.9
8.50560000 0.006237 -169.8 0.999976 -79.81 0.999976 -79.81 0.006237 -169.9
8.50580000 0.006253 -169.8 0.999976 -79.82 0.999976 -79.82 0.006253 -169.9
8.50600000 0.006269 -169.8 0.999976 -79.82 0.999976 -79.82 0.006270 -169.9
8.50620000 0.006286 -169.8 0.999976 -79.82 0.999976 -79.82 0.006286 -169.9
8.50640000 0.006302 -169.8 0.999976 -79.82 0.999976 -79.82 0.006302 -169.9
8.50660000 0.006318 -169.8 0.999975 -79.83 0.999975 -79.83 0.006318 -169.9
8.50680000 0.006334 -169.8 0.999975 -79.83 0.999975 -79.83 0.006334 -169.9
8.50700000 0.006350 -169.9 0.999975 -79.83 0.999975 -79.83 0.006351 -169.9
8.50720000 0.006367 -169.9 0.999975 -79.83 0.999975 -79.83 0.006367 -169.9
8.50740000 0.006383 -169.9 0.999975 -79.84 0.999975 -79.84 0.006383 -169.9
8.50760000 0.006399 -169.9 0.999975 -79.84 0.999975 -79.84 0.006399 -169.9
8.50780000 0.006416 -169.9 0.999975 -79.84 0.999975 -79.84 0.006416 -169.9
8.50800000 0.006432 -169.9 0.999975 -79.85 0.999975 -79.85 0.006432 -169.9
8.50820000 0.006448 -169.9 0.999975 -79.85 0.999975 -79.85 0.006448 -169.9
8.50840000 0.006465 -169.9 0.999974 -79.85 0.999974 -79.85 0.006465 -169.9
8.50860000 0.006481 -169.9 0.999974 -79.85 0.999974 -79.85 0.006481 -169.9
8.50880000 0.006498 -169.9 0.999974 -79.86 0.999974 -79.86 0.006498 -169.9
8.50900000 0.006514 -169.9 0.999974 -79.86 0.999974 -79.86 0.006514 -169.9
8.50920000 0.006531 -169.9 0.999974 -79.86 0.999974 -79.86 0.006531 -169.9
8.50940000 0.006547 -169.9 0.999974 -79.87 0.999974 -79.87 0.006547 -169.9
8.50960000 0.006564 -169.9 0.999974 -79.87 0.999974 -79.87 0.006564 -169.9
8.50980000 0.006580 -169.9 0.999974 -79.87 0.999974 -79.87 0.006580 -169.9
8.51000000 0.006597 -169.9 0.999974 -79.87 0.999974 -79.87 0.006597 -169.9
8.51020000 0.006613 -169.9 0.999973 -79.88 0.999973 -79.88 0.006614 -169.9
8.51040000 0.006630 -169.9 0.999973 -79.88 0.999973 -79.88 0.006630 -169.9
8.51060000 0.006647 -169.9 0.999973 -79.88 0.999973 -79.88 0.006647 -169.9
8.51080000 0.006663 -169.9 0.999973 -79.89 0.999973 -79.89 0.006664 -169.9
8.51100000 0.006680 -169.9 0.999973 -79.89 0.999973 -79.89 0.006680 -169.9
8.51120000 0.006697 -169.9 0.999973 -79.89 0.999973 -79.89 0.006697 -169.9
8.51140000 0.006714 -169.9 0.999973 -79.89 0.999973 -79.89 0.006714 -169.9
8.51160000 0.006730 -169.9 0.999973 -79.90 0.999973 -79.90 0.006731 -170.0
8.51180000 0.006747 -169.9 0.999973 -79.90 0.999973 -79.90 0.006747 -170.0
8.51200000 0.006764 -169.9 0.999972 -79.90 0.999972 -79.90 0.006764 -170.0
8.51220000 0.006781 -169.9 0.999972 -79.91 0.999972 -79.91 0.006781 -170.0
8.51240000 0.006798 -169.9 0.999972 -79.91 0.999972 -79.91 0.006798 -170.0
8.51260000 0.006815 -169.9 0.999972 -79.91 0.999972 -79.91 0.006815 -170.0
8.51280000 0.006832 -169.9 0.999972 -79.91 0.999972 -79.91 0.006832 -170.0
8.51300000 0.006849 -169.9 0.999972 -79.92 0.999972 -79.92 0.006849 -170.0
8.51320000 0.006866 -169.9 0.999972 -79.92 0.999972 -79.92 0.006866 -170.0
8.51340000 0.006883 -169.9 0.999972 -79.92 0.999972 -79.92 0.006883 -170.0
8.51360000 0.006900 -169.9 0.999971 -79.93 0.999971 -79.93 0.006900 -170.0
8.51380000 0.006917 -169.9 0.999971 -79.93 0.999971 -79.93 0.006917 -170.0
8.51400000 0.006934 -169.9 0.999971 -79.93 0.999971 -79.93 0.006934 -170.0
8.51420000 0.006951 -169.9 0.999971 -79.93 0.999971 -79.93 0.006951 -170.0
8.51440000 0.006968 -169.9 0.999971 -79.94 0.999971 -79.94 0.006968 -170.0
8.51460000 0.006985 -169.9 0.999971 -79.94 0.999971 -79.94 0.006985 -170.0
8.51480000 0.007002 -169.9 0.999971 -79.94 0.999971 -79.94 0.007003 -170.0
8.51500000 0.007020 -169.9 0.999971 -79.95 0.999971 -79.95 0.007020 -170.0
8.51520000 0.007037 -169.9 0.999970 -79.95 0.999970 -79.95 0.007037 -170.0
8.51540000 0.007054 -170.0 0.999970 -79.95 0.999970 -79.95 0.007054 -170.0
8.51560000 0.007071 -170.0 0.999970 -79.95 0.999970 -79.95 0.007072 -170.0
8.51580000 0.007089 -170.0 0.999970 -79.96 0.999970 -79.96 0.007089 -170.0
8.51600000 0.007106 -170.0 0.999970 -79.96 0.999970 -79.96 0.007106 -170.0
8.51620000 0.007123 -170.0 0.999970 -79.96 0.999970 -79.96 0.007124 -170.0
8.51640000 0.007141 -170.0 0.999970 -79.97 0.999970 -79.97 0.007141 -170.0
8.51660000 0.007158 -170.0 0.999970 -79.97 0.999970 -79.97 0.007158 -170.0
8.51680000 0.007176 -170.0 0.999969 -79.97 0.999969 -79.97 0.007176 -170.0
8.51700000 0.007193 -170.0 0.999969 -79.97 0.999969 -79.97 0.007193 -170.0
8.51720000 0.007211 -170.0 0.999969 -79.98 0.999969 -79.98 0.007211 -170.0
8.51740000 0.007228 -170.0 0.999969 -79.98 0.999969 -79.98 0.007228 -170.0
8.51760000 0.007246 -170.0 0.999969 -79.98 0.999969 -79.98 0.007246 -170.0
8.51780000 0.007263 -170.0 0.999969 -79.99 0.999969 -79.99 0.007263 -170.0
8.51800000 0.007281 -170.0 0.999969 -79.99 0.999969 -79.99 0.007281 -170.1
8.51820000 0.007298 -170.0 0.999969 -79.99 0.999969 -79.99 0.007299 -170.1
8.51840000 0.007316 -170.0 0.999968 -79.99 0.999968 -79.99 0.007316 -170.1
8.51860000 0.007334 -170.0 0.999968 -80.00 0.999968 -80.00 0.007334 -170.1
8.51880000 0.007351 -170.0 0.999968 -80.00 0.999968 -80.00 0.007352 -170.1
8.51900000 0.007369 -170.0 0.999968 -80.00 0.999968 -80.00 0.007369 -170.1
8.51920000 0.007387 -170.0 0.999968 -80.01 0.999968 -80.01 0.007387 -170.1
8.51940000 0.007405 -170.0 0.999968 -80.01 0.999968 -80.01 0.007405 -170.1
8.51960000 0.007422 -170.0 0.999968 -80.01 0.999968 -80.01 0.007423 -170.1
8.51980000 0.007440 -170.0 0.999968 -80.01 0.999968 -80.01 0.007441 -170.1
8.52000000 0.007458 -170.0 0.999967 -80.02 0.999967 -80.02 0.007458 -170.1
8.52020000 0.007476 -170.0 0.999967 -80.02 0.999967 -80.02 0.007476 -170.1
8.52040000 0.007494 -170.0 0.999967 -80.02 0.999967 -80.02 0.007494 -170.1
8.52060000 0.007512 -170.0 0.999967 -80.03 0.999967 -80.03 0.007512 -170.1
8.52080000 0.007530 -170.0 0.999967 -80.03 0.999967 -80.03 0.007530 -170.1
8.52100000 0.007548 -170.0 0.999967 -80.03 0.999967 -80.03 0.007548 -170.1
8.52120000 0.007566 -170.0 0.999967 -80.03 0.999967 -80.03 0.007566 -170.1
8.52140000 0.007584 -170.0 0.999966 -80.04 0.999966 -80.04 0.007584 -170.1
8.52160000 0.007602 -170.0 0.999966 -80.04 0.999966 -80.04 0.007602 -170.1
8.52180000 0.007620 -170.0 0.999966 -80.04 0.999966 -80.04 0.007620 -170.1
8.52200000 0.007638 -170.0 0.999966 -80.05 0.999966 -80.05 0.007638 -170.1
8.52220000 0.007656 -170.0 0.999966 -80.05 0.999966 -80.05 0.007657 -170.1
8.52240000 0.007674 -170.0 0.999966 -80.05 0.999966 -80.05 0.007675 -170.1
8.52260000 0.007693 -170.0 0.999966 -80.05 0.999966 -80.05 0.007693 -170.1
8.52280000 0.007711 -170.0 0.999965 -80.06 0.999965 -80.06 0.007711 -170.1
8.52300000 0.007729 -170.0 0.999965 -80.06 0.999965 -80.06 0.007730 -170.1
8.52320000 0.007747 -170.1 0.999965 -80.06 0.999965 -80.06 0.007748 -170.1
8.52340000 0.007766 -170.1 0.999965 -80.07 0.999965 -80.07 0.007766 -170.1
8.52360000 0.007784 -170.1 0.999965 -80.07 0.999965 -80.07 0.007785 -170.1
8.52380000 0.007803 -170.1 0.999965 -80.07 0.999965 -80.07 0.007803 -170.1
8.52400000 0.007821 -170.1 0.999965 -80.08 0.999965 -80.08 0.007821 -170.1
8.52420000 0.007839 -170.1 0.999964 -80.08 0.999964 -80.08 0.007840 -170.1
8.52440000 0.007858 -170.1 0.999964 -80.08 0.999964 -80.08 0.007858 -170.2
8.52460000 0.007876 -170.1 0.999964 -80.08 0.999964 -80.08 0.007877 -170.2
8.52480000 0.007895 -170.1 0.999964 -80.09 0.999964 -80.09 0.007895 -170.2
8.52500000 0.007913 -170.1 0.999964 -80.09 0.999964 -80.09 0.007914 -170.2
8.52520000 0.007932 -170.1 0.999964 -80.09 0.999964 -80.09 0.007932 -170.2
8.52540000 0.007950 -170.1 0.999963 -80.10 0.999963 -80.10 0.007951 -170.2
8.52560000 0.007969 -170.1 0.999963 -80.10 0.999963 -80.10 0.007970 -170.2
8.52580000 0.007988 -170.1 0.999963 -80.10 0.999963 -80.10 0.007988 -170.2
8.52600000 0.008006 -170.1 0.999963 -80.10 0.999963 -80.10 0.008007 -170.2
8.52620000 0.008025 -170.1 0.999963 -80.11 0.999963 -80.11 0.008026 -170.2
8.52640000 0.008044 -170.1 0.999963 -80.11 0.999963 -80.11 0.008044 -170.2
8.52660000 0.008063 -170.1 0.999963 -80.11 0.999963 -80.11 0.008063 -170.2
8.52680000 0.008081 -170.1 0.999962 -80.12 0.999962 -80.12 0.008082 -170.2
8.52700000 0.008100 -170.1 0.999962 -80.12 0.999962 -80.12 0.008101 -170.2
8.52720000 0.008119 -170.1 0.999962 -80.12 0.999962 -80.12 0.008120 -170.2
8.52740000 0.008138 -170.1 0.999962 -80.13 0.999962 -80.13 0.008138 -170.2
8.52760000 0.008157 -170.1 0.999962 -80.13 0.999962 -80.13 0.008157 -170.2
8.52780000 0.008176 -170.1 0.999962 -80.13 0.999962 -80.13 0.008176 -170.2
8.52800000 0.008195 -170.1 0.999961 -80.13 0.999961 -80.13 0.008195 -170.2
8.52820000 0.008214 -170.1 0.999961 -80.14 0.999961 -80.14 0.008214 -170.2
8.52840000 0.008233 -170.1 0.999961 -80.14 0.999961 -80.14 0.008233 -170.2
8.52860000 0.008252 -170.1 0.999961 -80.14 0.999961 -80.14 0.008252 -170.2
8.52880000 0.008271 -170.1 0.999961 -80.15 0.999961 -80.15 0.008271 -170.2
8.52900000 0.008290 -170.1 0.999961 -80.15 0.999961 -80.15 0.008291 -170.2
8.52920000 0.008309 -170.1 0.999961 -80.15 0.999961 -80.15 0.008310 -170.2
8.52940000 0.008328 -170.1 0.999960 -80.15 0.999960 -80.15 0.008329 -170.2
8.52960000 0.008348 -170.1 0.999960 -80.16 0.999960 -80.16 0.008348 -170.2
8.52980000 0.008367 -170.1 0.999960 -80.16 0.999960 -80.16 0.008367 -170.2
8.53000000 0.008386 -170.1 0.999960 -80.16 0.999960 -80.16 0.008387 -170.2
8.53020000 0.008405 -170.1 0.999960 -80.17 0.999960 -80.17 0.008406 -170.2
8.53040000 0.008425 -170.1 0.999960 -80.17 0.999960 -80.17 0.008425 -170.2
8.53060000 0.008444 -170.1 0.999959 -80.17 0.999959 -80.17 0.008445 -170.2
8.53080000 0.008463 -170.2 0.999959 -80.18 0.999959 -80.18 0.008464 -170.3
8.53100000 0.008483 -170.2 0.999959 -80.18 0.999959 -80.18 0.008483 -170.3
8.53120000 0.008502 -170.2 0.999959 -80.18 0.999959 -80.18 0.008503 -170.3
8.53140000 0.008522 -170.2 0.999959 -80.18 0.999959 -80.18 0.008522 -170.3
8.53160000 0.008541 -170.2 0.999959 -80.19 0.999959 -80.19 0.008542 -170.3
8.53180000 0.008561 -170.2 0.999958 -80.19 0.999958 -80.19 0.008561 -170.3
8.53200000 0.008580 -170.2 0.999958 -80.19 0.999958 -80.19 0.008581 -170.3
8.53220000 0.008600 -170.2 0.999958 -80.20 0.999958 -80.20 0.008600 -170.3
8.53240000 0.008620 -170.2 0.999958 -80.20 0.999958 -80.20 0.008620 -170.3
8.53260000 0.008639 -170.2 0.999958 -80.20 0.999958 -80.20 0.008640 -170.3
8.53280000 0.008659 -170.2 0.999957 -80.21 0.999957 -80.21 0.008659 -170.3
8.53300000 0.008679 -170.2 0.999957 -80.21 0.999957 -80.21 0.008679 -170.3
8.53320000 0.008698 -170.2 0.999957 -80.21 0.999957 -80.21 0.008699 -170.3
8.53340000 0.008718 -170.2 0.999957 -80.21 0.999957 -80.21 0.008719 -170.3
8.53360000 0.008738 -170.2 0.999957 -80.22 0.999957 -80.22 0.008739 -170.3
8.53380000 0.008758 -170.2 0.999957 -80.22 0.999957 -80.22 0.008758 -170.3
8.53400000 0.008778 -170.2 0.999956 -80.22 0.999956 -80.22 0.008778 -170.3
8.53420000 0.008798 -170.2 0.999956 -80.23 0.999956 -80.23 0.008798 -170.3
8.53440000 0.008818 -170.2 0.999956 -80.23 0.999956 -80.23 0.008818 -170.3
8.53460000 0.008838 -170.2 0.999956 -80.23 0.999956 -80.23 0.008838 -170.3
8.53480000 0.008858 -170.2 0.999956 -80.24 0.999956 -80.24 0.008858 -170.3
8.53500000 0.008878 -170.2 0.999956 -80.24 0.999956 -80.24 0.008878 -170.3
8.53520000 0.008898 -170.2 0.999955 -80.24 0.999955 -80.24 0.008898 -170.3
8.53540000 0.008918 -170.2 0.999955 -80.24 0.999955 -80.24 0.008918 -170.3
8.53560000 0.008938 -170.2 0.999955 -80.25 0.999955 -80.25 0.008938 -170.3
8.53580000 0.008958 -170.2 0.999955 -80.25 0.999955 -80.25 0.008959 -170.3
8.53600000 0.008978 -170.2 0.999955 -80.25 0.999955 -80.25 0.008979 -170.3
8.53620000 0.008998 -170.2 0.999954 -80.26 0.999954 -80.26 0.008999 -170.3
8.53640000 0.009019 -170.2 0.999954 -80.26 0.999954 -80.26 0.009019 -170.3
8.53660000 0.009039 -170.2 0.999954 -80.26 0.999954 -80.26 0.009039 -170.3
8.53680000 0.009059 -170.2 0.999954 -80.27 0.999954 -80.27 0.009060 -170.3
8.53700000 0.009080 -170.2 0.999954 -80.27 0.999954 -80.27 0.009080 -170.4
8.53720000 0.009100 -170.2 0.999954 -80.27 0.999954 -80.27 0.009101 -170.4
8.53740000 0.009120 -170.2 0.999953 -80.27 0.999953 -80.27 0.009121 -170.4
8.53760000 0.009141 -170.2 0.999953 -80.28 0.999953 -80.28 0.009141 -170.4
8.53780000 0.009161 -170.2 0.999953 -80.28 0.999953 -80.28 0.009162 -170.4
8.53800000 0.009182 -170.3 0.999953 -80.28 0.999953 -80.28 0.009182 -170.4
8.53820000 0.009202 -170.3 0.999953 -80.29 0.999953 -80.29 0.009203 -170.4
8.53840000 0.009223 -170.3 0.999952 -80.29 0.999952 -80.29 0.009224 -170.4
8.53860000 0.009244 -170.3 0.999952 -80.29 0.999952 -80.29 0.009244 -170.4
8.53880000 0.009264 -170.3 0.999952 -80.30 0.999952 -80.30 0.009265 -170.4
8.53900000 0.009285 -170.3 0.999952 -80.30 0.999952 -80.30 0.009285 -170.4
8.53920000 0.009306 -170.3 0.999952 -80.30 0.999952 -80.30 0.009306 -170.4
8.53940000 0.009326 -170.3 0.999951 -80.31 0.999951 -80.31 0.009327 -170.4
8.53960000 0.009347 -170.3 0.999951 -80.31 0.999951 -80.31 0.009348 -170.4
8.53980000 0.009368 -170.3 0.999951 -80.31 0.999951 -80.31 0.009368 -170.4
8.54000000 0.009389 -170.3 0.999951 -80.31 0.999951 -80.31 0.009389 -170.4
8.54020000 0.009410 -170.3 0.999951 -80.32 0.999951 -80.32 0.009410 -170.4
8.54040000 0.009431 -170.3 0.999950 -80.32 0.999950 -80.32 0.009431 -170.4
8.54060000 0.009451 -170.3 0.999950 -80.32 0.999950 -80.32 0.009452 -170.4
8.54080000 0.009472 -170.3 0.999950 -80.33 0.999950 -80.33 0.009473 -170.4
8.54100000 0.009493 -170.3 0.999950 -80.33 0.999950 -80.33 0.009494 -170.4
8.54120000 0.009514 -170.3 0.999950 -80.33 0.999950 -80.33 0.009515 -170.4
8.54140000 0.009536 -170.3 0.999949 -80.34 0.999949 -80.34 0.009536 -170.4
8.54160000 0.009557 -170.3 0.999949 -80.34 0.999949 -80.34 0.009557 -170.4
8.54180000 0.009578 -170.3 0.999949 -80.34 0.999949 -80.34 0.009578 -170.4
8.54200000 0.009599 -170.3 0.999949 -80.35 0.999949 -80.35 0.009600 -170.4
8.54220000 0.009620 -170.3 0.999949 -80.35 0.999949 -80.35 0.009621 -170.4
8.54240000 0.009641 -170.3 0.999948 -80.35 0.999948 -80.35 0.009642 -170.4
8.54260000 0.009663 -170.3 0.999948 -80.35 0.999948 -80.35 0.009663 -170.4
8.54280000 0.009684 -170.3 0.999948 -80.36 0.999948 -80.36 0.009685 -170.4
8.54300000 0.009705 -170.3 0.999948 -80.36 0.999948 -80.36 0.009706 -170.4
8.54320000 0.009727 -170.3 0.999947 -80.36 0.999947 -80.36 0.009727 -170.5
8.54340000 0.009748 -170.3 0.999947 -80.37 0.999947 -80.37 0.009749 -170.5
8.54360000 0.009770 -170.3 0.999947 -80.37 0.999947 -80.37 0.009770 -170.5
8.54380000 0.009791 -170.3 0.999947 -80.37 0.999947 -80.37 0.009792 -170.5
8.54400000 0.009813 -170.3 0.999947 -80.38 0.999947 -80.38 0.009813 -170.5
8.54420000 0.009834 -170.3 0.999946 -80.38 0.999946 -80.38 0.009835 -170.5
8.54440000 0.009856 -170.3 0.999946 -80.38 0.999946 -80.38 0.009856 -170.5
8.54460000 0.009877 -170.3 0.999946 -80.39 0.999946 -80.39 0.009878 -170.5
8.54480000 0.009899 -170.3 0.999946 -80.39 0.999946 -80.39 0.009900 -170.5
8.54500000 0.009921 -170.3 0.999946 -80.39 0.999946 -80.39 0.009921 -170.5
8.54520000 0.009943 -170.4 0.999945 -80.39 0.999945 -80.39 0.009943 -170.5
8.54540000 0.009964 -170.4 0.999945 -80.40 0.999945 -80.40 0.009965 -170.5
8.54560000 0.009986 -170.4 0.999945 -80.40 0.999945 -80.40 0.009987 -170.5
8.54580000 0.010008 -170.4 0.999945 -80.40 0.999945 -80.40 0.010009 -170.5
8.54600000 0.010030 -170.4 0.999944 -80.41 0.999944 -80.41 0.010031 -170.5
8.54620000 0.010052 -170.4 0.999944 -80.41 0.999944 -80.41 0.010052 -170.5
8.54640000 0.010074 -170.4 0.999944 -80.41 0.999944 -80.41 0.010074 -170.5
8.54660000 0.010096 -170.4 0.999944 -80.42 0.999944 -80.42 0.010096 -170.5
8.54680000 0.010118 -170.4 0.999944 -80.42 0.999944 -80.42 0.010118 -170.5
8.54700000 0.010140 -170.4 0.999943 -80.42 0.999943 -80.42 0.010140 -170.5
8.54720000 0.010162 -170.4 0.999943 -80.43 0.999943 -80.43 0.010163 -170.5
8.54740000 0.010184 -170.4 0.999943 -80.43 0.999943 -80.43 0.010185 -170.5
8.54760000 0.010206 -170.4 0.999943 -80.43 0.999943 -80.43 0.010207 -170.5
8.54780000 0.010228 -170.4 0.999942 -80.44 0.999942 -80.44 0.010229 -170.5
8.54800000 0.010251 -170.4 0.999942 -80.44 0.999942 -80.44 0.010251 -170.5
8.54820000 0.010273 -170.4 0.999942 -80.44 0.999942 -80.44 0.010274 -170.5
8.54840000 0.010295 -170.4 0.999942 -80.44 0.999942 -80.44 0.010296 -170.5
8.54860000 0.010318 -170.4 0.999941 -80.45 0.999941 -80.45 0.010318 -170.5
8.54880000 0.010340 -170.4 0.999941 -80.45 0.999941 -80.45 0.010341 -170.5
8.54900000 0.010362 -170.4 0.999941 -80.45 0.999941 -80.45 0.010363 -170.5
8.54920000 0.010385 -170.4 0.999941 -80.46 0.999941 -80.46 0.010386 -170.6
8.54940000 0.010407 -170.4 0.999941 -80.46 0.999941 -80.46 0.010408 -170.6
8.54960000 0.010430 -170.4 0.999940 -80.46 0.999940 -80.46 0.010431 -170.6
8.54980000 0.010452 -170.4 0.999940 -80.47 0.999940 -80.47 0.010453 -170.6
8.55000000 0.010475 -170.4 0.999940 -80.47 0.999940 -80.47 0.010476 -170.6
8.55020000 0.010498 -170.4 0.999940 -80.47 0.999940 -80.47 0.010498 -170.6
8.55040000 0.010520 -170.4 0.999939 -80.48 0.999939 -80.48 0.010521 -170.6
8.55060000 0.010543 -170.4 0.999939 -80.48 0.999939 -80.48 0.010544 -170.6
8.55080000 0.010566 -170.4 0.999939 -80.48 0.999939 -80.48 0.010567 -170.6
8.55100000 0.010589 -170.4 0.999939 -80.49 0.999939 -80.49 0.010589 -170.6
8.55120000 0.010612 -170.4 0.999938 -80.49 0.999938 -80.49 0.010612 -170.6
8.55140000 0.010634 -170.4 0.999938 -80.49 0.999938 -80.49 0.010635 -170.6
8.55160000 0.010657 -170.4 0.999938 -80.50 0.999938 -80.50 0.010658 -170.6
