! Sonnet Data File
! From: emgraph Version : 16.52
! From Project: 171114transmon_trace_brg2
! Data is De-embedded 
! Data File Written: 11/14/2017 15:35:21
!< HDATE 11/14/2017 14:44:41
!< MDATE 11/14/2017 14:44:41
!< PARAMS
!< Lj = 15.24
!< Gap = 14.0
!< Width = 10.0
!< Airgap = 6.0
!< Pwidth = 2000.0
!< Dist = 400.0
!< END PARAMS
# GHZ S MA R 51.90000
8.50000000 0.008150 -168.4 0.999963 -78.09 0.999963 -78.09 0.008150 -167.8
!< P1 F=8.5 Eeff=(6.44695349 -2.9785e-5) Z0=(51.7999087 1.19092e-4) R=0.0 C=0.0 
!< P2 F=8.5 Eeff=(6.44695349 -2.9785e-5) Z0=(51.7999087 1.19092e-4) R=0.0 C=0.0 
8.50010000 0.008152 -168.4 0.999963 -78.09 0.999963 -78.09 0.008152 -167.8
8.50020000 0.008153 -168.4 0.999963 -78.09 0.999963 -78.09 0.008153 -167.8
8.50030000 0.008154 -168.4 0.999963 -78.09 0.999963 -78.09 0.008154 -167.8
8.50040000 0.008156 -168.4 0.999963 -78.09 0.999963 -78.09 0.008156 -167.8
8.50050000 0.008157 -168.4 0.999963 -78.09 0.999963 -78.09 0.008157 -167.8
8.50060000 0.008159 -168.4 0.999963 -78.09 0.999963 -78.09 0.008159 -167.8
8.50070000 0.008160 -168.4 0.999963 -78.10 0.999963 -78.10 0.008160 -167.8
8.50080000 0.008162 -168.4 0.999963 -78.10 0.999963 -78.10 0.008162 -167.8
8.50090000 0.008163 -168.4 0.999963 -78.10 0.999963 -78.10 0.008163 -167.8
8.50100000 0.008164 -168.4 0.999963 -78.10 0.999963 -78.10 0.008164 -167.8
8.50110000 0.008166 -168.4 0.999963 -78.10 0.999963 -78.10 0.008166 -167.8
8.50120000 0.008167 -168.4 0.999963 -78.10 0.999963 -78.10 0.008167 -167.8
8.50130000 0.008169 -168.4 0.999963 -78.10 0.999963 -78.10 0.008169 -167.8
8.50140000 0.008170 -168.4 0.999963 -78.10 0.999963 -78.10 0.008170 -167.8
8.50150000 0.008172 -168.4 0.999963 -78.10 0.999963 -78.10 0.008172 -167.8
8.50160000 0.008173 -168.4 0.999963 -78.10 0.999963 -78.10 0.008173 -167.8
8.50170000 0.008175 -168.4 0.999963 -78.11 0.999963 -78.11 0.008175 -167.8
8.50180000 0.008176 -168.4 0.999963 -78.11 0.999963 -78.11 0.008176 -167.8
8.50190000 0.008178 -168.4 0.999963 -78.11 0.999963 -78.11 0.008178 -167.8
8.50200000 0.008179 -168.4 0.999963 -78.11 0.999963 -78.11 0.008179 -167.8
8.50210000 0.008180 -168.4 0.999963 -78.11 0.999963 -78.11 0.008180 -167.8
8.50220000 0.008182 -168.4 0.999963 -78.11 0.999963 -78.11 0.008182 -167.8
8.50230000 0.008183 -168.4 0.999963 -78.11 0.999963 -78.11 0.008183 -167.8
8.50240000 0.008185 -168.4 0.999963 -78.11 0.999963 -78.11 0.008185 -167.8
8.50250000 0.008186 -168.4 0.999963 -78.11 0.999963 -78.11 0.008186 -167.8
8.50260000 0.008188 -168.4 0.999963 -78.11 0.999963 -78.11 0.008188 -167.8
8.50270000 0.008189 -168.4 0.999963 -78.12 0.999963 -78.12 0.008189 -167.8
8.50280000 0.008191 -168.4 0.999963 -78.12 0.999963 -78.12 0.008191 -167.8
8.50290000 0.008192 -168.4 0.999963 -78.12 0.999963 -78.12 0.008192 -167.8
8.50300000 0.008194 -168.4 0.999963 -78.12 0.999963 -78.12 0.008194 -167.8
8.50310000 0.008195 -168.4 0.999963 -78.12 0.999963 -78.12 0.008195 -167.8
8.50320000 0.008197 -168.4 0.999963 -78.12 0.999963 -78.12 0.008197 -167.8
8.50330000 0.008198 -168.4 0.999963 -78.12 0.999963 -78.12 0.008198 -167.8
8.50340000 0.008200 -168.4 0.999963 -78.12 0.999963 -78.12 0.008200 -167.8
8.50350000 0.008201 -168.4 0.999963 -78.12 0.999963 -78.12 0.008201 -167.8
8.50360000 0.008203 -168.4 0.999963 -78.12 0.999963 -78.12 0.008203 -167.8
8.50370000 0.008204 -168.4 0.999963 -78.13 0.999963 -78.13 0.008204 -167.8
8.50380000 0.008206 -168.4 0.999963 -78.13 0.999963 -78.13 0.008206 -167.8
8.50390000 0.008207 -168.4 0.999963 -78.13 0.999963 -78.13 0.008207 -167.8
8.50400000 0.008209 -168.4 0.999963 -78.13 0.999963 -78.13 0.008209 -167.8
8.50410000 0.008210 -168.4 0.999963 -78.13 0.999963 -78.13 0.008210 -167.8
8.50420000 0.008212 -168.4 0.999963 -78.13 0.999963 -78.13 0.008212 -167.8
8.50430000 0.008213 -168.4 0.999963 -78.13 0.999963 -78.13 0.008213 -167.9
8.50440000 0.008215 -168.4 0.999963 -78.13 0.999963 -78.13 0.008215 -167.9
8.50450000 0.008216 -168.4 0.999963 -78.13 0.999963 -78.13 0.008216 -167.9
8.50460000 0.008218 -168.5 0.999963 -78.13 0.999963 -78.13 0.008218 -167.9
8.50470000 0.008219 -168.5 0.999963 -78.14 0.999963 -78.14 0.008219 -167.9
8.50480000 0.008221 -168.5 0.999963 -78.14 0.999963 -78.14 0.008221 -167.9
8.50490000 0.008223 -168.5 0.999963 -78.14 0.999963 -78.14 0.008222 -167.9
8.50500000 0.008224 -168.5 0.999963 -78.14 0.999963 -78.14 0.008224 -167.9
8.50510000 0.008226 -168.5 0.999963 -78.14 0.999963 -78.14 0.008226 -167.9
8.50520000 0.008227 -168.5 0.999963 -78.14 0.999963 -78.14 0.008227 -167.9
8.50530000 0.008229 -168.5 0.999963 -78.14 0.999963 -78.14 0.008229 -167.9
8.50540000 0.008230 -168.5 0.999963 -78.14 0.999963 -78.14 0.008230 -167.9
8.50550000 0.008232 -168.5 0.999963 -78.14 0.999963 -78.14 0.008232 -167.9
8.50560000 0.008233 -168.5 0.999963 -78.14 0.999963 -78.14 0.008233 -167.9
8.50570000 0.008235 -168.5 0.999963 -78.15 0.999963 -78.15 0.008235 -167.9
8.50580000 0.008236 -168.5 0.999963 -78.15 0.999963 -78.15 0.008236 -167.9
8.50590000 0.008238 -168.5 0.999963 -78.15 0.999963 -78.15 0.008238 -167.9
8.50600000 0.008240 -168.5 0.999963 -78.15 0.999963 -78.15 0.008240 -167.9
8.50610000 0.008241 -168.5 0.999963 -78.15 0.999963 -78.15 0.008241 -167.9
8.50620000 0.008243 -168.5 0.999963 -78.15 0.999963 -78.15 0.008243 -167.9
8.50630000 0.008244 -168.5 0.999963 -78.15 0.999963 -78.15 0.008244 -167.9
8.50640000 0.008246 -168.5 0.999963 -78.15 0.999963 -78.15 0.008246 -167.9
8.50650000 0.008247 -168.5 0.999963 -78.15 0.999963 -78.15 0.008247 -167.9
8.50660000 0.008249 -168.5 0.999963 -78.15 0.999963 -78.15 0.008249 -167.9
8.50670000 0.008251 -168.5 0.999963 -78.16 0.999963 -78.16 0.008251 -167.9
8.50680000 0.008252 -168.5 0.999963 -78.16 0.999963 -78.16 0.008252 -167.9
8.50690000 0.008254 -168.5 0.999963 -78.16 0.999963 -78.16 0.008254 -167.9
8.50700000 0.008255 -168.5 0.999963 -78.16 0.999963 -78.16 0.008255 -167.9
8.50710000 0.008257 -168.5 0.999962 -78.16 0.999962 -78.16 0.008257 -167.9
8.50720000 0.008259 -168.5 0.999962 -78.16 0.999962 -78.16 0.008258 -167.9
8.50730000 0.008260 -168.5 0.999962 -78.16 0.999962 -78.16 0.008260 -167.9
8.50740000 0.008262 -168.5 0.999962 -78.16 0.999962 -78.16 0.008262 -167.9
8.50750000 0.008263 -168.5 0.999962 -78.16 0.999962 -78.16 0.008263 -167.9
8.50760000 0.008265 -168.5 0.999962 -78.16 0.999962 -78.16 0.008265 -167.9
8.50770000 0.008267 -168.5 0.999962 -78.17 0.999962 -78.17 0.008266 -167.9
8.50780000 0.008268 -168.5 0.999962 -78.17 0.999962 -78.17 0.008268 -167.9
8.50790000 0.008270 -168.5 0.999962 -78.17 0.999962 -78.17 0.008270 -167.9
8.50800000 0.008271 -168.5 0.999962 -78.17 0.999962 -78.17 0.008271 -167.9
8.50810000 0.008273 -168.5 0.999962 -78.17 0.999962 -78.17 0.008273 -167.9
8.50820000 0.008275 -168.5 0.999962 -78.17 0.999962 -78.17 0.008275 -167.9
8.50830000 0.008276 -168.5 0.999962 -78.17 0.999962 -78.17 0.008276 -167.9
8.50840000 0.008278 -168.5 0.999962 -78.17 0.999962 -78.17 0.008278 -167.9
8.50850000 0.008279 -168.5 0.999962 -78.17 0.999962 -78.17 0.008279 -167.9
8.50860000 0.008281 -168.5 0.999962 -78.17 0.999962 -78.17 0.008281 -167.9
8.50870000 0.008283 -168.5 0.999962 -78.18 0.999962 -78.18 0.008283 -167.9
8.50880000 0.008284 -168.5 0.999962 -78.18 0.999962 -78.18 0.008284 -167.9
8.50890000 0.008286 -168.5 0.999962 -78.18 0.999962 -78.18 0.008286 -167.9
8.50900000 0.008288 -168.5 0.999962 -78.18 0.999962 -78.18 0.008288 -167.9
8.50910000 0.008289 -168.5 0.999962 -78.18 0.999962 -78.18 0.008289 -167.9
8.50920000 0.008291 -168.5 0.999962 -78.18 0.999962 -78.18 0.008291 -167.9
8.50930000 0.008293 -168.5 0.999962 -78.18 0.999962 -78.18 0.008293 -167.9
8.50940000 0.008294 -168.5 0.999962 -78.18 0.999962 -78.18 0.008294 -167.9
8.50950000 0.008296 -168.5 0.999962 -78.18 0.999962 -78.18 0.008296 -167.9
8.50960000 0.008298 -168.5 0.999962 -78.18 0.999962 -78.18 0.008298 -167.9
8.50970000 0.008299 -168.5 0.999962 -78.19 0.999962 -78.19 0.008299 -167.9
8.50980000 0.008301 -168.5 0.999962 -78.19 0.999962 -78.19 0.008301 -167.9
8.50990000 0.008303 -168.5 0.999962 -78.19 0.999962 -78.19 0.008303 -167.9
8.51000000 0.008304 -168.5 0.999962 -78.19 0.999962 -78.19 0.008304 -167.9
8.51010000 0.008306 -168.5 0.999962 -78.19 0.999962 -78.19 0.008306 -167.9
8.51020000 0.008308 -168.5 0.999962 -78.19 0.999962 -78.19 0.008308 -167.9
8.51030000 0.008309 -168.5 0.999962 -78.19 0.999962 -78.19 0.008309 -167.9
8.51040000 0.008311 -168.5 0.999962 -78.19 0.999962 -78.19 0.008311 -167.9
8.51050000 0.008313 -168.5 0.999962 -78.19 0.999962 -78.19 0.008313 -167.9
8.51060000 0.008314 -168.5 0.999962 -78.19 0.999962 -78.19 0.008314 -167.9
8.51070000 0.008316 -168.5 0.999962 -78.20 0.999962 -78.20 0.008316 -167.9
8.51080000 0.008318 -168.5 0.999962 -78.20 0.999962 -78.20 0.008318 -167.9
8.51090000 0.008319 -168.5 0.999962 -78.20 0.999962 -78.20 0.008319 -167.9
8.51100000 0.008321 -168.5 0.999962 -78.20 0.999962 -78.20 0.008321 -167.9
8.51110000 0.008323 -168.5 0.999962 -78.20 0.999962 -78.20 0.008323 -167.9
8.51120000 0.008324 -168.5 0.999962 -78.20 0.999962 -78.20 0.008324 -167.9
8.51130000 0.008326 -168.5 0.999962 -78.20 0.999962 -78.20 0.008326 -167.9
8.51140000 0.008328 -168.5 0.999962 -78.20 0.999962 -78.20 0.008328 -167.9
8.51150000 0.008330 -168.5 0.999962 -78.20 0.999962 -78.20 0.008330 -167.9
8.51160000 0.008331 -168.5 0.999962 -78.21 0.999962 -78.21 0.008331 -167.9
8.51170000 0.008333 -168.5 0.999962 -78.21 0.999962 -78.21 0.008333 -167.9
8.51180000 0.008335 -168.5 0.999962 -78.21 0.999962 -78.21 0.008335 -167.9
8.51190000 0.008337 -168.5 0.999962 -78.21 0.999962 -78.21 0.008336 -167.9
8.51200000 0.008338 -168.5 0.999962 -78.21 0.999962 -78.21 0.008338 -167.9
8.51210000 0.008340 -168.5 0.999962 -78.21 0.999962 -78.21 0.008340 -167.9
8.51220000 0.008342 -168.5 0.999962 -78.21 0.999962 -78.21 0.008342 -167.9
8.51230000 0.008343 -168.5 0.999962 -78.21 0.999962 -78.21 0.008343 -167.9
8.51240000 0.008345 -168.5 0.999962 -78.21 0.999962 -78.21 0.008345 -167.9
8.51250000 0.008347 -168.5 0.999962 -78.21 0.999962 -78.21 0.008347 -167.9
8.51260000 0.008349 -168.5 0.999962 -78.22 0.999962 -78.22 0.008349 -167.9
8.51270000 0.008350 -168.5 0.999962 -78.22 0.999962 -78.22 0.008350 -167.9
8.51280000 0.008352 -168.5 0.999962 -78.22 0.999962 -78.22 0.008352 -167.9
8.51290000 0.008354 -168.5 0.999962 -78.22 0.999962 -78.22 0.008354 -167.9
8.51300000 0.008356 -168.5 0.999962 -78.22 0.999962 -78.22 0.008356 -167.9
8.51310000 0.008357 -168.5 0.999962 -78.22 0.999962 -78.22 0.008357 -167.9
8.51320000 0.008359 -168.5 0.999962 -78.22 0.999962 -78.22 0.008359 -167.9
8.51330000 0.008361 -168.5 0.999962 -78.22 0.999962 -78.22 0.008361 -167.9
8.51340000 0.008363 -168.5 0.999962 -78.22 0.999962 -78.22 0.008363 -167.9
8.51350000 0.008365 -168.5 0.999962 -78.22 0.999962 -78.22 0.008365 -168.0
8.51360000 0.008366 -168.5 0.999962 -78.23 0.999962 -78.23 0.008366 -168.0
8.51370000 0.008368 -168.5 0.999962 -78.23 0.999962 -78.23 0.008368 -168.0
8.51380000 0.008370 -168.5 0.999962 -78.23 0.999962 -78.23 0.008370 -168.0
8.51390000 0.008372 -168.5 0.999961 -78.23 0.999961 -78.23 0.008372 -168.0
8.51400000 0.008373 -168.5 0.999961 -78.23 0.999961 -78.23 0.008373 -168.0
8.51410000 0.008375 -168.5 0.999961 -78.23 0.999961 -78.23 0.008375 -168.0
8.51420000 0.008377 -168.5 0.999961 -78.23 0.999961 -78.23 0.008377 -168.0
8.51430000 0.008379 -168.5 0.999961 -78.23 0.999961 -78.23 0.008379 -168.0
8.51440000 0.008381 -168.5 0.999961 -78.23 0.999961 -78.23 0.008381 -168.0
8.51450000 0.008382 -168.5 0.999961 -78.23 0.999961 -78.23 0.008382 -168.0
8.51460000 0.008384 -168.5 0.999961 -78.24 0.999961 -78.24 0.008384 -168.0
8.51470000 0.008386 -168.5 0.999961 -78.24 0.999961 -78.24 0.008386 -168.0
8.51480000 0.008388 -168.5 0.999961 -78.24 0.999961 -78.24 0.008388 -168.0
8.51490000 0.008390 -168.5 0.999961 -78.24 0.999961 -78.24 0.008390 -168.0
8.51500000 0.008392 -168.5 0.999961 -78.24 0.999961 -78.24 0.008392 -168.0
8.51510000 0.008393 -168.5 0.999961 -78.24 0.999961 -78.24 0.008393 -168.0
8.51520000 0.008395 -168.5 0.999961 -78.24 0.999961 -78.24 0.008395 -168.0
8.51530000 0.008397 -168.5 0.999961 -78.24 0.999961 -78.24 0.008397 -168.0
8.51540000 0.008399 -168.5 0.999961 -78.24 0.999961 -78.24 0.008399 -168.0
8.51550000 0.008401 -168.6 0.999961 -78.24 0.999961 -78.24 0.008401 -168.0
8.51560000 0.008403 -168.6 0.999961 -78.25 0.999961 -78.25 0.008403 -168.0
8.51570000 0.008404 -168.6 0.999961 -78.25 0.999961 -78.25 0.008404 -168.0
8.51580000 0.008406 -168.6 0.999961 -78.25 0.999961 -78.25 0.008406 -168.0
8.51590000 0.008408 -168.6 0.999961 -78.25 0.999961 -78.25 0.008408 -168.0
8.51600000 0.008410 -168.6 0.999961 -78.25 0.999961 -78.25 0.008410 -168.0
8.51610000 0.008412 -168.6 0.999961 -78.25 0.999961 -78.25 0.008412 -168.0
8.51620000 0.008414 -168.6 0.999961 -78.25 0.999961 -78.25 0.008414 -168.0
8.51630000 0.008416 -168.6 0.999961 -78.25 0.999961 -78.25 0.008416 -168.0
8.51640000 0.008417 -168.6 0.999961 -78.25 0.999961 -78.25 0.008417 -168.0
8.51650000 0.008419 -168.6 0.999961 -78.25 0.999961 -78.25 0.008419 -168.0
8.51660000 0.008421 -168.6 0.999961 -78.26 0.999961 -78.26 0.008421 -168.0
8.51670000 0.008423 -168.6 0.999961 -78.26 0.999961 -78.26 0.008423 -168.0
8.51680000 0.008425 -168.6 0.999961 -78.26 0.999961 -78.26 0.008425 -168.0
8.51690000 0.008427 -168.6 0.999961 -78.26 0.999961 -78.26 0.008427 -168.0
8.51700000 0.008429 -168.6 0.999961 -78.26 0.999961 -78.26 0.008429 -168.0
8.51710000 0.008431 -168.6 0.999961 -78.26 0.999961 -78.26 0.008431 -168.0
8.51720000 0.008433 -168.6 0.999961 -78.26 0.999961 -78.26 0.008433 -168.0
8.51730000 0.008434 -168.6 0.999961 -78.26 0.999961 -78.26 0.008434 -168.0
8.51740000 0.008436 -168.6 0.999961 -78.26 0.999961 -78.26 0.008436 -168.0
8.51750000 0.008438 -168.6 0.999961 -78.27 0.999961 -78.27 0.008438 -168.0
8.51760000 0.008440 -168.6 0.999961 -78.27 0.999961 -78.27 0.008440 -168.0
8.51770000 0.008442 -168.6 0.999961 -78.27 0.999961 -78.27 0.008442 -168.0
8.51780000 0.008444 -168.6 0.999961 -78.27 0.999961 -78.27 0.008444 -168.0
8.51790000 0.008446 -168.6 0.999961 -78.27 0.999961 -78.27 0.008446 -168.0
8.51800000 0.008448 -168.6 0.999961 -78.27 0.999961 -78.27 0.008448 -168.0
8.51810000 0.008450 -168.6 0.999961 -78.27 0.999961 -78.27 0.008450 -168.0
8.51820000 0.008452 -168.6 0.999961 -78.27 0.999961 -78.27 0.008452 -168.0
8.51830000 0.008454 -168.6 0.999961 -78.27 0.999961 -78.27 0.008454 -168.0
8.51840000 0.008456 -168.6 0.999961 -78.27 0.999961 -78.27 0.008456 -168.0
8.51850000 0.008458 -168.6 0.999961 -78.28 0.999961 -78.28 0.008458 -168.0
8.51860000 0.008460 -168.6 0.999961 -78.28 0.999961 -78.28 0.008459 -168.0
8.51870000 0.008461 -168.6 0.999961 -78.28 0.999961 -78.28 0.008461 -168.0
8.51880000 0.008463 -168.6 0.999961 -78.28 0.999961 -78.28 0.008463 -168.0
8.51890000 0.008465 -168.6 0.999961 -78.28 0.999961 -78.28 0.008465 -168.0
8.51900000 0.008467 -168.6 0.999961 -78.28 0.999961 -78.28 0.008467 -168.0
8.51910000 0.008469 -168.6 0.999961 -78.28 0.999961 -78.28 0.008469 -168.0
8.51920000 0.008471 -168.6 0.999961 -78.28 0.999961 -78.28 0.008471 -168.0
8.51930000 0.008473 -168.6 0.999961 -78.28 0.999961 -78.28 0.008473 -168.0
8.51940000 0.008475 -168.6 0.999961 -78.28 0.999961 -78.28 0.008475 -168.0
8.51950000 0.008477 -168.6 0.999961 -78.29 0.999961 -78.29 0.008477 -168.0
8.51960000 0.008479 -168.6 0.999961 -78.29 0.999961 -78.29 0.008479 -168.0
8.51970000 0.008481 -168.6 0.999961 -78.29 0.999961 -78.29 0.008481 -168.0
8.51980000 0.008483 -168.6 0.999961 -78.29 0.999961 -78.29 0.008483 -168.0
8.51990000 0.008485 -168.6 0.999960 -78.29 0.999960 -78.29 0.008485 -168.0
8.52000000 0.008487 -168.6 0.999960 -78.29 0.999960 -78.29 0.008487 -168.0
8.52010000 0.008489 -168.6 0.999960 -78.29 0.999960 -78.29 0.008489 -168.0
8.52020000 0.008491 -168.6 0.999960 -78.29 0.999960 -78.29 0.008491 -168.0
8.52030000 0.008493 -168.6 0.999960 -78.29 0.999960 -78.29 0.008493 -168.0
8.52040000 0.008495 -168.6 0.999960 -78.29 0.999960 -78.29 0.008495 -168.0
8.52050000 0.008497 -168.6 0.999960 -78.30 0.999960 -78.30 0.008497 -168.0
8.52060000 0.008499 -168.6 0.999960 -78.30 0.999960 -78.30 0.008499 -168.0
8.52070000 0.008501 -168.6 0.999960 -78.30 0.999960 -78.30 0.008501 -168.0
8.52080000 0.008503 -168.6 0.999960 -78.30 0.999960 -78.30 0.008503 -168.0
8.52090000 0.008505 -168.6 0.999960 -78.30 0.999960 -78.30 0.008505 -168.0
8.52100000 0.008507 -168.6 0.999960 -78.30 0.999960 -78.30 0.008507 -168.0
8.52110000 0.008509 -168.6 0.999960 -78.30 0.999960 -78.30 0.008509 -168.0
8.52120000 0.008511 -168.6 0.999960 -78.30 0.999960 -78.30 0.008511 -168.0
8.52130000 0.008514 -168.6 0.999960 -78.30 0.999960 -78.30 0.008514 -168.0
8.52140000 0.008516 -168.6 0.999960 -78.31 0.999960 -78.31 0.008516 -168.0
8.52150000 0.008518 -168.6 0.999960 -78.31 0.999960 -78.31 0.008518 -168.0
8.52160000 0.008520 -168.6 0.999960 -78.31 0.999960 -78.31 0.008520 -168.0
8.52170000 0.008522 -168.6 0.999960 -78.31 0.999960 -78.31 0.008522 -168.0
8.52180000 0.008524 -168.6 0.999960 -78.31 0.999960 -78.31 0.008524 -168.0
8.52190000 0.008526 -168.6 0.999960 -78.31 0.999960 -78.31 0.008526 -168.0
8.52200000 0.008528 -168.6 0.999960 -78.31 0.999960 -78.31 0.008528 -168.0
8.52210000 0.008530 -168.6 0.999960 -78.31 0.999960 -78.31 0.008530 -168.0
8.52220000 0.008532 -168.6 0.999960 -78.31 0.999960 -78.31 0.008532 -168.0
8.52230000 0.008534 -168.6 0.999960 -78.31 0.999960 -78.31 0.008534 -168.1
8.52240000 0.008536 -168.6 0.999960 -78.32 0.999960 -78.32 0.008536 -168.1
8.52250000 0.008538 -168.6 0.999960 -78.32 0.999960 -78.32 0.008538 -168.1
8.52260000 0.008541 -168.6 0.999960 -78.32 0.999960 -78.32 0.008541 -168.1
8.52270000 0.008543 -168.6 0.999960 -78.32 0.999960 -78.32 0.008543 -168.1
8.52280000 0.008545 -168.6 0.999960 -78.32 0.999960 -78.32 0.008545 -168.1
8.52290000 0.008547 -168.6 0.999960 -78.32 0.999960 -78.32 0.008547 -168.1
8.52300000 0.008549 -168.6 0.999960 -78.32 0.999960 -78.32 0.008549 -168.1
8.52310000 0.008551 -168.6 0.999960 -78.32 0.999960 -78.32 0.008551 -168.1
8.52320000 0.008553 -168.6 0.999960 -78.32 0.999960 -78.32 0.008553 -168.1
8.52330000 0.008555 -168.6 0.999960 -78.32 0.999960 -78.32 0.008555 -168.1
8.52340000 0.008558 -168.6 0.999960 -78.33 0.999960 -78.33 0.008558 -168.1
8.52350000 0.008560 -168.6 0.999960 -78.33 0.999960 -78.33 0.008560 -168.1
8.52360000 0.008562 -168.6 0.999960 -78.33 0.999960 -78.33 0.008562 -168.1
8.52370000 0.008564 -168.6 0.999960 -78.33 0.999960 -78.33 0.008564 -168.1
8.52380000 0.008566 -168.6 0.999960 -78.33 0.999960 -78.33 0.008566 -168.1
8.52390000 0.008568 -168.6 0.999960 -78.33 0.999960 -78.33 0.008568 -168.1
8.52400000 0.008570 -168.6 0.999960 -78.33 0.999960 -78.33 0.008570 -168.1
8.52410000 0.008573 -168.6 0.999960 -78.33 0.999960 -78.33 0.008573 -168.1
8.52420000 0.008575 -168.6 0.999960 -78.33 0.999960 -78.33 0.008575 -168.1
8.52430000 0.008577 -168.6 0.999960 -78.34 0.999960 -78.34 0.008577 -168.1
8.52440000 0.008579 -168.6 0.999960 -78.34 0.999960 -78.34 0.008579 -168.1
8.52450000 0.008581 -168.6 0.999960 -78.34 0.999960 -78.34 0.008581 -168.1
8.52460000 0.008584 -168.6 0.999960 -78.34 0.999960 -78.34 0.008583 -168.1
8.52470000 0.008586 -168.6 0.999960 -78.34 0.999960 -78.34 0.008586 -168.1
8.52480000 0.008588 -168.6 0.999960 -78.34 0.999960 -78.34 0.008588 -168.1
8.52490000 0.008590 -168.6 0.999960 -78.34 0.999960 -78.34 0.008590 -168.1
8.52500000 0.008592 -168.6 0.999960 -78.34 0.999960 -78.34 0.008592 -168.1
8.52510000 0.008595 -168.6 0.999960 -78.34 0.999960 -78.34 0.008594 -168.1
8.52520000 0.008597 -168.6 0.999959 -78.34 0.999959 -78.34 0.008597 -168.1
8.52530000 0.008599 -168.6 0.999959 -78.35 0.999959 -78.35 0.008599 -168.1
8.52540000 0.008601 -168.6 0.999959 -78.35 0.999959 -78.35 0.008601 -168.1
8.52550000 0.008603 -168.6 0.999959 -78.35 0.999959 -78.35 0.008603 -168.1
8.52560000 0.008606 -168.6 0.999959 -78.35 0.999959 -78.35 0.008606 -168.1
8.52570000 0.008608 -168.6 0.999959 -78.35 0.999959 -78.35 0.008608 -168.1
8.52580000 0.008610 -168.6 0.999959 -78.35 0.999959 -78.35 0.008610 -168.1
