! Sonnet Data File
! From: emgraph Version : 16.52
! From Project: transmon_brgOdd
! Data is De-embedded 
! Data File Written: 11/11/2017 22:28:47
!< HDATE 11/11/2017 18:22:48
!< MDATE 11/11/2017 18:22:48
!< PARAMS
!< Lj = 15.24
!< Gap = 6.0
!< Width = 10.0
!< Airgap = 6.0
!< Pwidth = 2000.0
!< Dist = 2000.0
!< END PARAMS
# GHZ S MA R 34.67000
8.72000000 0.998458 141.83 0.055489 51.825 0.055489 51.825 0.998458 141.82
!< P1 F=8.72 Eeff=(5.13609477 -5.6761e-5) Z0=(34.6490765 -9.5162e-5) R=0.0 C=0.0 
!< P2 F=8.72 Eeff=(5.13609477 -5.6761e-5) Z0=(34.6490765 -9.5162e-5) R=0.0 C=0.0 
8.72005000 0.998458 141.83 0.055490 51.825 0.055490 51.825 0.998458 141.82
8.72010000 0.998458 141.83 0.055490 51.824 0.055490 51.824 0.998458 141.82
8.72015000 0.998458 141.83 0.055491 51.824 0.055491 51.824 0.998458 141.82
8.72020000 0.998458 141.83 0.055492 51.824 0.055492 51.824 0.998458 141.82
8.72025000 0.998458 141.83 0.055492 51.824 0.055492 51.824 0.998458 141.82
8.72030000 0.998458 141.83 0.055493 51.823 0.055493 51.823 0.998458 141.82
8.72035000 0.998458 141.82 0.055494 51.823 0.055494 51.823 0.998458 141.82
8.72040000 0.998458 141.82 0.055495 51.823 0.055495 51.823 0.998458 141.82
8.72045000 0.998458 141.82 0.055495 51.823 0.055495 51.823 0.998458 141.82
8.72050000 0.998458 141.82 0.055496 51.823 0.055496 51.823 0.998458 141.82
8.72055000 0.998457 141.82 0.055497 51.822 0.055497 51.822 0.998457 141.82
8.72060000 0.998457 141.82 0.055497 51.822 0.055497 51.822 0.998457 141.82
8.72065000 0.998457 141.82 0.055498 51.822 0.055498 51.822 0.998457 141.82
8.72070000 0.998457 141.82 0.055499 51.822 0.055499 51.822 0.998457 141.82
8.72075000 0.998457 141.82 0.055499 51.821 0.055499 51.821 0.998457 141.82
8.72080000 0.998457 141.82 0.055500 51.821 0.055500 51.821 0.998457 141.82
8.72085000 0.998457 141.82 0.055501 51.821 0.055501 51.821 0.998457 141.82
8.72090000 0.998457 141.82 0.055501 51.821 0.055501 51.821 0.998457 141.82
8.72095000 0.998457 141.82 0.055502 51.820 0.055502 51.820 0.998457 141.82
8.72100000 0.998457 141.82 0.055503 51.820 0.055503 51.820 0.998457 141.82
8.72105000 0.998457 141.82 0.055503 51.820 0.055503 51.820 0.998457 141.82
8.72110000 0.998457 141.82 0.055504 51.820 0.055504 51.820 0.998457 141.82
8.72115000 0.998457 141.82 0.055505 51.819 0.055505 51.819 0.998457 141.82
8.72120000 0.998457 141.82 0.055505 51.819 0.055505 51.819 0.998457 141.82
8.72125000 0.998457 141.82 0.055506 51.819 0.055506 51.819 0.998457 141.82
8.72130000 0.998457 141.82 0.055507 51.819 0.055507 51.819 0.998457 141.81
8.72135000 0.998457 141.82 0.055508 51.818 0.055508 51.818 0.998457 141.81
8.72140000 0.998457 141.82 0.055508 51.818 0.055508 51.818 0.998457 141.81
8.72145000 0.998457 141.82 0.055509 51.818 0.055509 51.818 0.998457 141.81
8.72150000 0.998457 141.82 0.055510 51.818 0.055510 51.818 0.998457 141.81
8.72155000 0.998457 141.82 0.055510 51.817 0.055510 51.817 0.998457 141.81
8.72160000 0.998457 141.82 0.055511 51.817 0.055511 51.817 0.998457 141.81
8.72165000 0.998457 141.82 0.055512 51.817 0.055512 51.817 0.998457 141.81
8.72170000 0.998457 141.82 0.055512 51.817 0.055512 51.817 0.998457 141.81
8.72175000 0.998457 141.82 0.055513 51.817 0.055513 51.817 0.998457 141.81
8.72180000 0.998457 141.82 0.055514 51.816 0.055514 51.816 0.998457 141.81
8.72185000 0.998456 141.82 0.055514 51.816 0.055514 51.816 0.998456 141.81
8.72190000 0.998456 141.82 0.055515 51.816 0.055515 51.816 0.998456 141.81
8.72195000 0.998456 141.82 0.055516 51.816 0.055516 51.816 0.998456 141.81
8.72200000 0.998456 141.82 0.055517 51.815 0.055517 51.815 0.998456 141.81
8.72205000 0.998456 141.82 0.055517 51.815 0.055517 51.815 0.998456 141.81
8.72210000 0.998456 141.82 0.055518 51.815 0.055518 51.815 0.998456 141.81
8.72215000 0.998456 141.82 0.055519 51.815 0.055519 51.815 0.998456 141.81
8.72220000 0.998456 141.82 0.055519 51.814 0.055519 51.814 0.998456 141.81
8.72225000 0.998456 141.82 0.055520 51.814 0.055520 51.814 0.998456 141.81
8.72230000 0.998456 141.82 0.055521 51.814 0.055521 51.814 0.998456 141.81
8.72235000 0.998456 141.82 0.055521 51.814 0.055521 51.814 0.998456 141.81
8.72240000 0.998456 141.82 0.055522 51.813 0.055522 51.813 0.998456 141.81
8.72245000 0.998456 141.81 0.055523 51.813 0.055523 51.813 0.998456 141.81
8.72250000 0.998456 141.81 0.055524 51.813 0.055524 51.813 0.998456 141.81
8.72255000 0.998456 141.81 0.055524 51.813 0.055524 51.813 0.998456 141.81
8.72260000 0.998456 141.81 0.055525 51.812 0.055525 51.812 0.998456 141.81
8.72265000 0.998456 141.81 0.055526 51.812 0.055526 51.812 0.998456 141.81
8.72270000 0.998456 141.81 0.055526 51.812 0.055526 51.812 0.998456 141.81
8.72275000 0.998456 141.81 0.055527 51.812 0.055527 51.812 0.998456 141.81
8.72280000 0.998456 141.81 0.055528 51.811 0.055528 51.811 0.998456 141.81
8.72285000 0.998456 141.81 0.055528 51.811 0.055528 51.811 0.998456 141.81
8.72290000 0.998456 141.81 0.055529 51.811 0.055529 51.811 0.998456 141.81
8.72295000 0.998456 141.81 0.055530 51.811 0.055530 51.811 0.998456 141.81
8.72300000 0.998456 141.81 0.055531 51.810 0.055531 51.810 0.998456 141.81
8.72305000 0.998456 141.81 0.055531 51.810 0.055531 51.810 0.998456 141.81
8.72310000 0.998455 141.81 0.055532 51.810 0.055532 51.810 0.998455 141.81
8.72315000 0.998455 141.81 0.055533 51.810 0.055533 51.810 0.998455 141.81
8.72320000 0.998455 141.81 0.055533 51.810 0.055533 51.810 0.998455 141.81
8.72325000 0.998455 141.81 0.055534 51.809 0.055534 51.809 0.998455 141.81
8.72330000 0.998455 141.81 0.055535 51.809 0.055535 51.809 0.998455 141.81
8.72335000 0.998455 141.81 0.055535 51.809 0.055535 51.809 0.998455 141.81
8.72340000 0.998455 141.81 0.055536 51.809 0.055536 51.809 0.998455 141.80
8.72345000 0.998455 141.81 0.055537 51.808 0.055537 51.808 0.998455 141.80
8.72350000 0.998455 141.81 0.055538 51.808 0.055538 51.808 0.998455 141.80
8.72355000 0.998455 141.81 0.055538 51.808 0.055538 51.808 0.998455 141.80
8.72360000 0.998455 141.81 0.055539 51.808 0.055539 51.808 0.998455 141.80
8.72365000 0.998455 141.81 0.055540 51.807 0.055540 51.807 0.998455 141.80
8.72370000 0.998455 141.81 0.055540 51.807 0.055540 51.807 0.998455 141.80
8.72375000 0.998455 141.81 0.055541 51.807 0.055541 51.807 0.998455 141.80
8.72380000 0.998455 141.81 0.055542 51.807 0.055542 51.807 0.998455 141.80
8.72385000 0.998455 141.81 0.055543 51.806 0.055543 51.806 0.998455 141.80
8.72390000 0.998455 141.81 0.055543 51.806 0.055543 51.806 0.998455 141.80
8.72395000 0.998455 141.81 0.055544 51.806 0.055544 51.806 0.998455 141.80
8.72400000 0.998455 141.81 0.055545 51.806 0.055545 51.806 0.998455 141.80
8.72405000 0.998455 141.81 0.055545 51.805 0.055545 51.805 0.998455 141.80
8.72410000 0.998455 141.81 0.055546 51.805 0.055546 51.805 0.998455 141.80
8.72415000 0.998455 141.81 0.055547 51.805 0.055547 51.805 0.998455 141.80
8.72420000 0.998455 141.81 0.055548 51.805 0.055548 51.805 0.998455 141.80
8.72425000 0.998455 141.81 0.055548 51.804 0.055548 51.804 0.998455 141.80
8.72430000 0.998455 141.81 0.055549 51.804 0.055549 51.804 0.998455 141.80
8.72435000 0.998455 141.81 0.055550 51.804 0.055550 51.804 0.998454 141.80
8.72440000 0.998454 141.81 0.055550 51.804 0.055550 51.804 0.998454 141.80
8.72445000 0.998454 141.81 0.055551 51.803 0.055551 51.803 0.998454 141.80
8.72450000 0.998454 141.80 0.055552 51.803 0.055552 51.803 0.998454 141.80
8.72455000 0.998454 141.80 0.055553 51.803 0.055553 51.803 0.998454 141.80
8.72460000 0.998454 141.80 0.055553 51.803 0.055553 51.803 0.998454 141.80
8.72465000 0.998454 141.80 0.055554 51.802 0.055554 51.802 0.998454 141.80
8.72470000 0.998454 141.80 0.055555 51.802 0.055555 51.802 0.998454 141.80
8.72475000 0.998454 141.80 0.055555 51.802 0.055555 51.802 0.998454 141.80
8.72480000 0.998454 141.80 0.055556 51.802 0.055556 51.802 0.998454 141.80
8.72485000 0.998454 141.80 0.055557 51.802 0.055557 51.802 0.998454 141.80
8.72490000 0.998454 141.80 0.055558 51.801 0.055558 51.801 0.998454 141.80
8.72495000 0.998454 141.80 0.055558 51.801 0.055558 51.801 0.998454 141.80
8.72500000 0.998454 141.80 0.055559 51.801 0.055559 51.801 0.998454 141.80
8.72505000 0.998454 141.80 0.055560 51.801 0.055560 51.801 0.998454 141.80
8.72510000 0.998454 141.80 0.055560 51.800 0.055560 51.800 0.998454 141.80
8.72515000 0.998454 141.80 0.055561 51.800 0.055561 51.800 0.998454 141.80
8.72520000 0.998454 141.80 0.055562 51.800 0.055562 51.800 0.998454 141.80
8.72525000 0.998454 141.80 0.055563 51.800 0.055563 51.800 0.998454 141.80
8.72530000 0.998454 141.80 0.055563 51.799 0.055563 51.799 0.998454 141.80
8.72535000 0.998454 141.80 0.055564 51.799 0.055564 51.799 0.998454 141.80
8.72540000 0.998454 141.80 0.055565 51.799 0.055565 51.799 0.998454 141.80
8.72545000 0.998454 141.80 0.055566 51.799 0.055566 51.799 0.998454 141.79
8.72550000 0.998454 141.80 0.055566 51.798 0.055566 51.798 0.998454 141.79
8.72555000 0.998454 141.80 0.055567 51.798 0.055567 51.798 0.998454 141.79
8.72560000 0.998453 141.80 0.055568 51.798 0.055568 51.798 0.998453 141.79
8.72565000 0.998453 141.80 0.055568 51.798 0.055568 51.798 0.998453 141.79
8.72570000 0.998453 141.80 0.055569 51.797 0.055569 51.797 0.998453 141.79
8.72575000 0.998453 141.80 0.055570 51.797 0.055570 51.797 0.998453 141.79
8.72580000 0.998453 141.80 0.055571 51.797 0.055571 51.797 0.998453 141.79
8.72585000 0.998453 141.80 0.055571 51.797 0.055571 51.797 0.998453 141.79
8.72590000 0.998453 141.80 0.055572 51.796 0.055572 51.796 0.998453 141.79
8.72595000 0.998453 141.80 0.055573 51.796 0.055573 51.796 0.998453 141.79
8.72600000 0.998453 141.80 0.055574 51.796 0.055574 51.796 0.998453 141.79
8.72605000 0.998453 141.80 0.055574 51.796 0.055574 51.796 0.998453 141.79
8.72610000 0.998453 141.80 0.055575 51.795 0.055575 51.795 0.998453 141.79
8.72615000 0.998453 141.80 0.055576 51.795 0.055576 51.795 0.998453 141.79
8.72620000 0.998453 141.80 0.055576 51.795 0.055576 51.795 0.998453 141.79
8.72625000 0.998453 141.80 0.055577 51.795 0.055577 51.795 0.998453 141.79
8.72630000 0.998453 141.80 0.055578 51.794 0.055578 51.794 0.998453 141.79
8.72635000 0.998453 141.80 0.055579 51.794 0.055579 51.794 0.998453 141.79
8.72640000 0.998453 141.80 0.055579 51.794 0.055579 51.794 0.998453 141.79
8.72645000 0.998453 141.80 0.055580 51.794 0.055580 51.794 0.998453 141.79
8.72650000 0.998453 141.80 0.055581 51.794 0.055581 51.794 0.998453 141.79
8.72655000 0.998453 141.79 0.055582 51.793 0.055582 51.793 0.998453 141.79
8.72660000 0.998453 141.79 0.055582 51.793 0.055582 51.793 0.998453 141.79
8.72665000 0.998453 141.79 0.055583 51.793 0.055583 51.793 0.998453 141.79
8.72670000 0.998453 141.79 0.055584 51.793 0.055584 51.793 0.998453 141.79
8.72675000 0.998453 141.79 0.055585 51.792 0.055585 51.792 0.998453 141.79
8.72680000 0.998453 141.79 0.055585 51.792 0.055585 51.792 0.998453 141.79
8.72685000 0.998452 141.79 0.055586 51.792 0.055586 51.792 0.998452 141.79
8.72690000 0.998452 141.79 0.055587 51.792 0.055587 51.792 0.998452 141.79
8.72695000 0.998452 141.79 0.055587 51.791 0.055587 51.791 0.998452 141.79
8.72700000 0.998452 141.79 0.055588 51.791 0.055588 51.791 0.998452 141.79
8.72705000 0.998452 141.79 0.055589 51.791 0.055589 51.791 0.998452 141.79
8.72710000 0.998452 141.79 0.055590 51.791 0.055590 51.791 0.998452 141.79
8.72715000 0.998452 141.79 0.055590 51.790 0.055590 51.790 0.998452 141.79
8.72720000 0.998452 141.79 0.055591 51.790 0.055591 51.790 0.998452 141.79
8.72725000 0.998452 141.79 0.055592 51.790 0.055592 51.790 0.998452 141.79
8.72730000 0.998452 141.79 0.055593 51.790 0.055593 51.790 0.998452 141.79
8.72735000 0.998452 141.79 0.055593 51.789 0.055593 51.789 0.998452 141.79
8.72740000 0.998452 141.79 0.055594 51.789 0.055594 51.789 0.998452 141.79
8.72745000 0.998452 141.79 0.055595 51.789 0.055595 51.789 0.998452 141.79
8.72750000 0.998452 141.79 0.055596 51.789 0.055596 51.789 0.998452 141.78
8.72755000 0.998452 141.79 0.055596 51.788 0.055596 51.788 0.998452 141.78
8.72760000 0.998452 141.79 0.055597 51.788 0.055597 51.788 0.998452 141.78
8.72765000 0.998452 141.79 0.055598 51.788 0.055598 51.788 0.998452 141.78
8.72770000 0.998452 141.79 0.055599 51.788 0.055599 51.788 0.998452 141.78
8.72775000 0.998452 141.79 0.055599 51.787 0.055599 51.787 0.998452 141.78
8.72780000 0.998452 141.79 0.055600 51.787 0.055600 51.787 0.998452 141.78
8.72785000 0.998452 141.79 0.055601 51.787 0.055601 51.787 0.998452 141.78
8.72790000 0.998452 141.79 0.055602 51.787 0.055602 51.787 0.998452 141.78
8.72795000 0.998452 141.79 0.055602 51.786 0.055602 51.786 0.998452 141.78
8.72800000 0.998452 141.79 0.055603 51.786 0.055603 51.786 0.998452 141.78
8.72805000 0.998451 141.79 0.055604 51.786 0.055604 51.786 0.998451 141.78
8.72810000 0.998451 141.79 0.055605 51.786 0.055605 51.786 0.998451 141.78
8.72815000 0.998451 141.79 0.055605 51.785 0.055605 51.785 0.998451 141.78
8.72820000 0.998451 141.79 0.055606 51.785 0.055606 51.785 0.998451 141.78
8.72825000 0.998451 141.79 0.055607 51.785 0.055607 51.785 0.998451 141.78
8.72830000 0.998451 141.79 0.055608 51.785 0.055608 51.785 0.998451 141.78
8.72835000 0.998451 141.79 0.055608 51.784 0.055608 51.784 0.998451 141.78
8.72840000 0.998451 141.79 0.055609 51.784 0.055609 51.784 0.998451 141.78
8.72845000 0.998451 141.79 0.055610 51.784 0.055610 51.784 0.998451 141.78
8.72850000 0.998451 141.79 0.055611 51.784 0.055611 51.784 0.998451 141.78
8.72855000 0.998451 141.79 0.055611 51.784 0.055611 51.784 0.998451 141.78
8.72860000 0.998451 141.78 0.055612 51.783 0.055612 51.783 0.998451 141.78
8.72865000 0.998451 141.78 0.055613 51.783 0.055613 51.783 0.998451 141.78
8.72870000 0.998451 141.78 0.055614 51.783 0.055614 51.783 0.998451 141.78
8.72875000 0.998451 141.78 0.055614 51.783 0.055614 51.783 0.998451 141.78
8.72880000 0.998451 141.78 0.055615 51.782 0.055615 51.782 0.998451 141.78
8.72885000 0.998451 141.78 0.055616 51.782 0.055616 51.782 0.998451 141.78
8.72890000 0.998451 141.78 0.055617 51.782 0.055617 51.782 0.998451 141.78
8.72895000 0.998451 141.78 0.055617 51.782 0.055617 51.782 0.998451 141.78
8.72900000 0.998451 141.78 0.055618 51.781 0.055618 51.781 0.998451 141.78
8.72905000 0.998451 141.78 0.055619 51.781 0.055619 51.781 0.998451 141.78
8.72910000 0.998451 141.78 0.055620 51.781 0.055620 51.781 0.998451 141.78
8.72915000 0.998451 141.78 0.055620 51.781 0.055620 51.781 0.998451 141.78
8.72920000 0.998450 141.78 0.055621 51.780 0.055621 51.780 0.998450 141.78
8.72925000 0.998450 141.78 0.055622 51.780 0.055622 51.780 0.998450 141.78
8.72930000 0.998450 141.78 0.055623 51.780 0.055623 51.780 0.998450 141.78
8.72935000 0.998450 141.78 0.055624 51.780 0.055624 51.780 0.998450 141.78
8.72940000 0.998450 141.78 0.055624 51.779 0.055624 51.779 0.998450 141.78
8.72945000 0.998450 141.78 0.055625 51.779 0.055625 51.779 0.998450 141.78
8.72950000 0.998450 141.78 0.055626 51.779 0.055626 51.779 0.998450 141.78
8.72955000 0.998450 141.78 0.055627 51.779 0.055627 51.779 0.998450 141.77
8.72960000 0.998450 141.78 0.055627 51.778 0.055627 51.778 0.998450 141.77
8.72965000 0.998450 141.78 0.055628 51.778 0.055628 51.778 0.998450 141.77
8.72970000 0.998450 141.78 0.055629 51.778 0.055629 51.778 0.998450 141.77
8.72975000 0.998450 141.78 0.055630 51.778 0.055630 51.778 0.998450 141.77
8.72980000 0.998450 141.78 0.055630 51.777 0.055630 51.777 0.998450 141.77
8.72985000 0.998450 141.78 0.055631 51.777 0.055631 51.777 0.998450 141.77
8.72990000 0.998450 141.78 0.055632 51.777 0.055632 51.777 0.998450 141.77
8.72995000 0.998450 141.78 0.055633 51.777 0.055633 51.777 0.998450 141.77
8.73000000 0.998450 141.78 0.055633 51.776 0.055633 51.776 0.998450 141.77
8.73005000 0.998450 141.78 0.055634 51.776 0.055634 51.776 0.998450 141.77
8.73010000 0.998450 141.78 0.055635 51.776 0.055635 51.776 0.998450 141.77
8.73015000 0.998450 141.78 0.055636 51.776 0.055636 51.776 0.998450 141.77
8.73020000 0.998450 141.78 0.055637 51.775 0.055637 51.775 0.998450 141.77
8.73025000 0.998450 141.78 0.055637 51.775 0.055637 51.775 0.998450 141.77
8.73030000 0.998450 141.78 0.055638 51.775 0.055638 51.775 0.998450 141.77
8.73035000 0.998450 141.78 0.055639 51.775 0.055639 51.775 0.998450 141.77
8.73040000 0.998449 141.78 0.055640 51.774 0.055640 51.774 0.998449 141.77
8.73045000 0.998449 141.78 0.055640 51.774 0.055640 51.774 0.998449 141.77
8.73050000 0.998449 141.78 0.055641 51.774 0.055641 51.774 0.998449 141.77
8.73055000 0.998449 141.78 0.055642 51.774 0.055642 51.774 0.998449 141.77
8.73060000 0.998449 141.78 0.055643 51.773 0.055643 51.773 0.998449 141.77
8.73065000 0.998449 141.77 0.055644 51.773 0.055644 51.773 0.998449 141.77
8.73070000 0.998449 141.77 0.055644 51.773 0.055644 51.773 0.998449 141.77
8.73075000 0.998449 141.77 0.055645 51.773 0.055645 51.773 0.998449 141.77
8.73080000 0.998449 141.77 0.055646 51.772 0.055646 51.772 0.998449 141.77
8.73085000 0.998449 141.77 0.055647 51.772 0.055647 51.772 0.998449 141.77
8.73090000 0.998449 141.77 0.055647 51.772 0.055647 51.772 0.998449 141.77
8.73095000 0.998449 141.77 0.055648 51.772 0.055648 51.772 0.998449 141.77
8.73100000 0.998449 141.77 0.055649 51.771 0.055649 51.771 0.998449 141.77
8.73105000 0.998449 141.77 0.055650 51.771 0.055650 51.771 0.998449 141.77
8.73110000 0.998449 141.77 0.055651 51.771 0.055651 51.771 0.998449 141.77
8.73115000 0.998449 141.77 0.055651 51.771 0.055651 51.771 0.998449 141.77
8.73120000 0.998449 141.77 0.055652 51.771 0.055652 51.771 0.998449 141.77
8.73125000 0.998449 141.77 0.055653 51.770 0.055653 51.770 0.998449 141.77
8.73130000 0.998449 141.77 0.055654 51.770 0.055654 51.770 0.998449 141.77
8.73135000 0.998449 141.77 0.055655 51.770 0.055655 51.770 0.998449 141.77
8.73140000 0.998449 141.77 0.055655 51.770 0.055655 51.770 0.998449 141.77
8.73145000 0.998449 141.77 0.055656 51.769 0.055656 51.769 0.998449 141.77
8.73150000 0.998449 141.77 0.055657 51.769 0.055657 51.769 0.998448 141.77
8.73155000 0.998448 141.77 0.055658 51.769 0.055658 51.769 0.998448 141.77
8.73160000 0.998448 141.77 0.055658 51.769 0.055658 51.769 0.998448 141.76
8.73165000 0.998448 141.77 0.055659 51.768 0.055659 51.768 0.998448 141.76
8.73170000 0.998448 141.77 0.055660 51.768 0.055660 51.768 0.998448 141.76
8.73175000 0.998448 141.77 0.055661 51.768 0.055661 51.768 0.998448 141.76
8.73180000 0.998448 141.77 0.055662 51.768 0.055662 51.768 0.998448 141.76
8.73185000 0.998448 141.77 0.055662 51.767 0.055662 51.767 0.998448 141.76
8.73190000 0.998448 141.77 0.055663 51.767 0.055663 51.767 0.998448 141.76
8.73195000 0.998448 141.77 0.055664 51.767 0.055664 51.767 0.998448 141.76
8.73200000 0.998448 141.77 0.055665 51.767 0.055665 51.767 0.998448 141.76
8.73205000 0.998448 141.77 0.055666 51.766 0.055666 51.766 0.998448 141.76
8.73210000 0.998448 141.77 0.055666 51.766 0.055666 51.766 0.998448 141.76
8.73215000 0.998448 141.77 0.055667 51.766 0.055667 51.766 0.998448 141.76
8.73220000 0.998448 141.77 0.055668 51.766 0.055668 51.766 0.998448 141.76
8.73225000 0.998448 141.77 0.055669 51.765 0.055669 51.765 0.998448 141.76
8.73230000 0.998448 141.77 0.055670 51.765 0.055670 51.765 0.998448 141.76
8.73235000 0.998448 141.77 0.055670 51.765 0.055670 51.765 0.998448 141.76
8.73240000 0.998448 141.77 0.055671 51.765 0.055671 51.765 0.998448 141.76
8.73245000 0.998448 141.77 0.055672 51.764 0.055672 51.764 0.998448 141.76
8.73250000 0.998448 141.77 0.055673 51.764 0.055673 51.764 0.998448 141.76
8.73255000 0.998448 141.77 0.055674 51.764 0.055674 51.764 0.998448 141.76
8.73260000 0.998448 141.77 0.055674 51.764 0.055674 51.764 0.998448 141.76
8.73265000 0.998447 141.77 0.055675 51.763 0.055675 51.763 0.998447 141.76
8.73270000 0.998447 141.76 0.055676 51.763 0.055676 51.763 0.998447 141.76
8.73275000 0.998447 141.76 0.055677 51.763 0.055677 51.763 0.998447 141.76
8.73280000 0.998447 141.76 0.055678 51.763 0.055678 51.763 0.998447 141.76
8.73285000 0.998447 141.76 0.055678 51.762 0.055678 51.762 0.998447 141.76
8.73290000 0.998447 141.76 0.055679 51.762 0.055679 51.762 0.998447 141.76
