! Sonnet Data File
! From: emgraph Version : 16.52
! From Project: transmon_brgOdd
! Data is De-embedded 
! Data File Written: 11/12/2017 17:05:33
!< HDATE 11/11/2017 22:57:51
!< MDATE 11/11/2017 22:57:51
!< PARAMS
!< Lj = 15.24
!< Gap = 6.0
!< Width = 10.0
!< Airgap = 6.0
!< Pwidth = 2000.0
!< Dist = 2200.0
!< END PARAMS
# GHZ S MA R 34.67000
8.78000000 0.999035 147.43 0.043861 57.434 0.043861 57.434 0.999035 147.43
!< P1 F=8.78 Eeff=(5.13743391 -5.7017e-5) Z0=(34.6430374 -9.7216e-5) R=0.0 C=0.0 
!< P2 F=8.78 Eeff=(5.13743391 -5.7017e-5) Z0=(34.6430374 -9.7216e-5) R=0.0 C=0.0 
8.78001000 0.999035 147.43 0.043862 57.434 0.043862 57.434 0.999035 147.43
8.78002000 0.999035 147.43 0.043863 57.434 0.043863 57.434 0.999035 147.43
8.78003000 0.999035 147.43 0.043864 57.434 0.043864 57.434 0.999035 147.43
8.78004000 0.999035 147.43 0.043865 57.434 0.043865 57.434 0.999035 147.43
8.78005000 0.999035 147.43 0.043865 57.434 0.043865 57.434 0.999035 147.43
8.78006000 0.999035 147.43 0.043866 57.434 0.043866 57.434 0.999035 147.43
8.78007000 0.999035 147.43 0.043867 57.434 0.043867 57.434 0.999035 147.43
8.78008000 0.999035 147.43 0.043868 57.434 0.043868 57.434 0.999035 147.43
8.78009000 0.999035 147.43 0.043869 57.434 0.043869 57.434 0.999035 147.43
8.78010000 0.999035 147.43 0.043870 57.433 0.043870 57.433 0.999035 147.43
8.78011000 0.999035 147.43 0.043870 57.433 0.043870 57.433 0.999035 147.43
8.78012000 0.999035 147.43 0.043871 57.433 0.043871 57.433 0.999035 147.43
8.78013000 0.999035 147.43 0.043872 57.433 0.043872 57.433 0.999035 147.43
8.78014000 0.999035 147.43 0.043873 57.433 0.043873 57.433 0.999035 147.43
8.78015000 0.999035 147.43 0.043874 57.433 0.043874 57.433 0.999035 147.43
8.78016000 0.999035 147.43 0.043875 57.433 0.043875 57.433 0.999035 147.43
8.78017000 0.999035 147.43 0.043875 57.433 0.043875 57.433 0.999035 147.43
8.78018000 0.999035 147.43 0.043876 57.433 0.043876 57.433 0.999035 147.43
8.78019000 0.999035 147.43 0.043877 57.433 0.043877 57.433 0.999035 147.43
8.78020000 0.999035 147.43 0.043878 57.433 0.043878 57.433 0.999035 147.43
8.78021000 0.999035 147.43 0.043879 57.433 0.043879 57.433 0.999035 147.43
8.78022000 0.999035 147.43 0.043880 57.432 0.043880 57.432 0.999035 147.43
8.78023000 0.999035 147.43 0.043881 57.432 0.043881 57.432 0.999035 147.43
8.78024000 0.999034 147.43 0.043881 57.432 0.043881 57.432 0.999034 147.43
8.78025000 0.999034 147.43 0.043882 57.432 0.043882 57.432 0.999034 147.43
8.78026000 0.999034 147.43 0.043883 57.432 0.043883 57.432 0.999034 147.43
8.78027000 0.999034 147.43 0.043884 57.432 0.043884 57.432 0.999034 147.43
8.78028000 0.999034 147.43 0.043885 57.432 0.043885 57.432 0.999034 147.43
8.78029000 0.999034 147.43 0.043886 57.432 0.043886 57.432 0.999034 147.43
8.78030000 0.999034 147.43 0.043886 57.432 0.043886 57.432 0.999034 147.43
8.78031000 0.999034 147.43 0.043887 57.432 0.043887 57.432 0.999034 147.43
8.78032000 0.999034 147.43 0.043888 57.432 0.043888 57.432 0.999034 147.43
8.78033000 0.999034 147.43 0.043889 57.431 0.043889 57.431 0.999034 147.43
8.78034000 0.999034 147.43 0.043890 57.431 0.043890 57.431 0.999034 147.43
8.78035000 0.999034 147.43 0.043891 57.431 0.043891 57.431 0.999034 147.43
8.78036000 0.999034 147.43 0.043892 57.431 0.043892 57.431 0.999034 147.43
8.78037000 0.999034 147.43 0.043892 57.431 0.043892 57.431 0.999034 147.43
8.78038000 0.999034 147.43 0.043893 57.431 0.043893 57.431 0.999034 147.43
8.78039000 0.999034 147.43 0.043894 57.431 0.043894 57.431 0.999034 147.43
8.78040000 0.999034 147.43 0.043895 57.431 0.043895 57.431 0.999034 147.43
8.78041000 0.999034 147.43 0.043896 57.431 0.043896 57.431 0.999034 147.43
8.78042000 0.999034 147.43 0.043897 57.431 0.043897 57.431 0.999034 147.43
8.78043000 0.999034 147.43 0.043898 57.431 0.043898 57.431 0.999034 147.43
8.78044000 0.999034 147.43 0.043899 57.431 0.043899 57.431 0.999034 147.43
8.78045000 0.999034 147.43 0.043899 57.430 0.043899 57.430 0.999034 147.43
8.78046000 0.999034 147.43 0.043900 57.430 0.043900 57.430 0.999034 147.43
8.78047000 0.999034 147.43 0.043901 57.430 0.043901 57.430 0.999034 147.43
8.78048000 0.999034 147.43 0.043902 57.430 0.043902 57.430 0.999034 147.43
8.78049000 0.999034 147.43 0.043903 57.430 0.043903 57.430 0.999034 147.43
8.78050000 0.999033 147.43 0.043904 57.430 0.043904 57.430 0.999033 147.43
8.78051000 0.999033 147.43 0.043905 57.430 0.043905 57.430 0.999033 147.43
8.78052000 0.999033 147.43 0.043906 57.430 0.043906 57.430 0.999033 147.43
8.78053000 0.999033 147.43 0.043906 57.430 0.043906 57.430 0.999033 147.43
8.78054000 0.999033 147.43 0.043907 57.430 0.043907 57.430 0.999033 147.43
8.78055000 0.999033 147.43 0.043908 57.430 0.043908 57.430 0.999033 147.43
8.78056000 0.999033 147.43 0.043909 57.430 0.043909 57.430 0.999033 147.43
8.78057000 0.999033 147.43 0.043910 57.429 0.043910 57.429 0.999033 147.43
8.78058000 0.999033 147.43 0.043911 57.429 0.043911 57.429 0.999033 147.43
8.78059000 0.999033 147.43 0.043912 57.429 0.043912 57.429 0.999033 147.43
8.78060000 0.999033 147.43 0.043913 57.429 0.043913 57.429 0.999033 147.43
8.78061000 0.999033 147.43 0.043913 57.429 0.043913 57.429 0.999033 147.43
8.78062000 0.999033 147.43 0.043914 57.429 0.043914 57.429 0.999033 147.43
8.78063000 0.999033 147.43 0.043915 57.429 0.043915 57.429 0.999033 147.43
8.78064000 0.999033 147.43 0.043916 57.429 0.043916 57.429 0.999033 147.43
8.78065000 0.999033 147.43 0.043917 57.429 0.043917 57.429 0.999033 147.43
8.78066000 0.999033 147.43 0.043918 57.429 0.043918 57.429 0.999033 147.43
8.78067000 0.999033 147.43 0.043919 57.429 0.043919 57.429 0.999033 147.43
8.78068000 0.999033 147.43 0.043920 57.428 0.043920 57.428 0.999033 147.43
8.78069000 0.999033 147.43 0.043921 57.428 0.043921 57.428 0.999033 147.43
8.78070000 0.999033 147.43 0.043921 57.428 0.043921 57.428 0.999033 147.43
8.78071000 0.999033 147.43 0.043922 57.428 0.043922 57.428 0.999033 147.43
8.78072000 0.999033 147.43 0.043923 57.428 0.043923 57.428 0.999033 147.43
8.78073000 0.999033 147.43 0.043924 57.428 0.043924 57.428 0.999033 147.43
8.78074000 0.999033 147.43 0.043925 57.428 0.043925 57.428 0.999033 147.43
8.78075000 0.999032 147.43 0.043926 57.428 0.043926 57.428 0.999032 147.43
8.78076000 0.999032 147.43 0.043927 57.428 0.043927 57.428 0.999032 147.43
8.78077000 0.999032 147.43 0.043928 57.428 0.043928 57.428 0.999032 147.43
8.78078000 0.999032 147.43 0.043929 57.428 0.043929 57.428 0.999032 147.43
8.78079000 0.999032 147.43 0.043929 57.428 0.043929 57.428 0.999032 147.43
8.78080000 0.999032 147.43 0.043930 57.427 0.043930 57.427 0.999032 147.43
8.78081000 0.999032 147.43 0.043931 57.427 0.043931 57.427 0.999032 147.43
8.78082000 0.999032 147.43 0.043932 57.427 0.043932 57.427 0.999032 147.43
8.78083000 0.999032 147.43 0.043933 57.427 0.043933 57.427 0.999032 147.43
8.78084000 0.999032 147.43 0.043934 57.427 0.043934 57.427 0.999032 147.43
8.78085000 0.999032 147.43 0.043935 57.427 0.043935 57.427 0.999032 147.43
8.78086000 0.999032 147.43 0.043936 57.427 0.043936 57.427 0.999032 147.43
8.78087000 0.999032 147.43 0.043937 57.427 0.043937 57.427 0.999032 147.43
8.78088000 0.999032 147.43 0.043938 57.427 0.043938 57.427 0.999032 147.43
8.78089000 0.999032 147.43 0.043938 57.427 0.043938 57.427 0.999032 147.43
8.78090000 0.999032 147.43 0.043939 57.427 0.043939 57.427 0.999032 147.43
8.78091000 0.999032 147.43 0.043940 57.426 0.043940 57.426 0.999032 147.43
8.78092000 0.999032 147.43 0.043941 57.426 0.043941 57.426 0.999032 147.43
8.78093000 0.999032 147.43 0.043942 57.426 0.043942 57.426 0.999032 147.43
8.78094000 0.999032 147.43 0.043943 57.426 0.043943 57.426 0.999032 147.43
8.78095000 0.999032 147.43 0.043944 57.426 0.043944 57.426 0.999032 147.43
8.78096000 0.999032 147.43 0.043945 57.426 0.043945 57.426 0.999032 147.43
8.78097000 0.999032 147.43 0.043946 57.426 0.043946 57.426 0.999032 147.43
8.78098000 0.999032 147.43 0.043947 57.426 0.043947 57.426 0.999032 147.43
8.78099000 0.999031 147.43 0.043948 57.426 0.043948 57.426 0.999031 147.43
8.78100000 0.999031 147.43 0.043948 57.426 0.043948 57.426 0.999031 147.43
8.78101000 0.999031 147.43 0.043949 57.426 0.043949 57.426 0.999031 147.43
8.78102000 0.999031 147.43 0.043950 57.425 0.043950 57.425 0.999031 147.43
8.78103000 0.999031 147.43 0.043951 57.425 0.043951 57.425 0.999031 147.43
8.78104000 0.999031 147.43 0.043952 57.425 0.043952 57.425 0.999031 147.43
8.78105000 0.999031 147.43 0.043953 57.425 0.043953 57.425 0.999031 147.43
8.78106000 0.999031 147.43 0.043954 57.425 0.043954 57.425 0.999031 147.43
8.78107000 0.999031 147.43 0.043955 57.425 0.043955 57.425 0.999031 147.43
8.78108000 0.999031 147.43 0.043956 57.425 0.043956 57.425 0.999031 147.43
8.78109000 0.999031 147.43 0.043957 57.425 0.043957 57.425 0.999031 147.43
8.78110000 0.999031 147.43 0.043958 57.425 0.043958 57.425 0.999031 147.43
8.78111000 0.999031 147.43 0.043959 57.425 0.043959 57.425 0.999031 147.43
8.78112000 0.999031 147.43 0.043960 57.425 0.043960 57.425 0.999031 147.43
8.78113000 0.999031 147.43 0.043960 57.424 0.043960 57.424 0.999031 147.43
8.78114000 0.999031 147.42 0.043961 57.424 0.043961 57.424 0.999031 147.43
8.78115000 0.999031 147.42 0.043962 57.424 0.043962 57.424 0.999031 147.43
8.78116000 0.999031 147.42 0.043963 57.424 0.043963 57.424 0.999031 147.43
8.78117000 0.999031 147.42 0.043964 57.424 0.043964 57.424 0.999031 147.43
8.78118000 0.999031 147.42 0.043965 57.424 0.043965 57.424 0.999031 147.42
8.78119000 0.999031 147.42 0.043966 57.424 0.043966 57.424 0.999031 147.42
8.78120000 0.999031 147.42 0.043967 57.424 0.043967 57.424 0.999031 147.42
8.78121000 0.999031 147.42 0.043968 57.424 0.043968 57.424 0.999031 147.42
8.78122000 0.999030 147.42 0.043969 57.424 0.043969 57.424 0.999031 147.42
8.78123000 0.999030 147.42 0.043970 57.424 0.043970 57.424 0.999030 147.42
8.78124000 0.999030 147.42 0.043971 57.423 0.043971 57.423 0.999030 147.42
8.78125000 0.999030 147.42 0.043972 57.423 0.043972 57.423 0.999030 147.42
8.78126000 0.999030 147.42 0.043973 57.423 0.043973 57.423 0.999030 147.42
8.78127000 0.999030 147.42 0.043974 57.423 0.043974 57.423 0.999030 147.42
8.78128000 0.999030 147.42 0.043975 57.423 0.043975 57.423 0.999030 147.42
8.78129000 0.999030 147.42 0.043975 57.423 0.043975 57.423 0.999030 147.42
8.78130000 0.999030 147.42 0.043976 57.423 0.043976 57.423 0.999030 147.42
8.78131000 0.999030 147.42 0.043977 57.423 0.043977 57.423 0.999030 147.42
8.78132000 0.999030 147.42 0.043978 57.423 0.043978 57.423 0.999030 147.42
8.78133000 0.999030 147.42 0.043979 57.423 0.043979 57.423 0.999030 147.42
8.78134000 0.999030 147.42 0.043980 57.423 0.043980 57.423 0.999030 147.42
8.78135000 0.999030 147.42 0.043981 57.422 0.043981 57.422 0.999030 147.42
8.78136000 0.999030 147.42 0.043982 57.422 0.043982 57.422 0.999030 147.42
8.78137000 0.999030 147.42 0.043983 57.422 0.043983 57.422 0.999030 147.42
8.78138000 0.999030 147.42 0.043984 57.422 0.043984 57.422 0.999030 147.42
8.78139000 0.999030 147.42 0.043985 57.422 0.043985 57.422 0.999030 147.42
8.78140000 0.999030 147.42 0.043986 57.422 0.043986 57.422 0.999030 147.42
8.78141000 0.999030 147.42 0.043987 57.422 0.043987 57.422 0.999030 147.42
8.78142000 0.999030 147.42 0.043988 57.422 0.043988 57.422 0.999030 147.42
8.78143000 0.999030 147.42 0.043989 57.422 0.043989 57.422 0.999030 147.42
8.78144000 0.999030 147.42 0.043990 57.422 0.043990 57.422 0.999030 147.42
8.78145000 0.999029 147.42 0.043991 57.422 0.043991 57.422 0.999030 147.42
8.78146000 0.999029 147.42 0.043992 57.421 0.043992 57.421 0.999029 147.42
8.78147000 0.999029 147.42 0.043993 57.421 0.043993 57.421 0.999029 147.42
8.78148000 0.999029 147.42 0.043994 57.421 0.043994 57.421 0.999029 147.42
8.78149000 0.999029 147.42 0.043995 57.421 0.043995 57.421 0.999029 147.42
8.78150000 0.999029 147.42 0.043996 57.421 0.043996 57.421 0.999029 147.42
8.78151000 0.999029 147.42 0.043997 57.421 0.043997 57.421 0.999029 147.42
8.78152000 0.999029 147.42 0.043997 57.421 0.043997 57.421 0.999029 147.42
8.78153000 0.999029 147.42 0.043998 57.421 0.043998 57.421 0.999029 147.42
8.78154000 0.999029 147.42 0.043999 57.421 0.043999 57.421 0.999029 147.42
8.78155000 0.999029 147.42 0.044000 57.421 0.044000 57.421 0.999029 147.42
8.78156000 0.999029 147.42 0.044001 57.421 0.044001 57.421 0.999029 147.42
8.78157000 0.999029 147.42 0.044002 57.420 0.044002 57.420 0.999029 147.42
8.78158000 0.999029 147.42 0.044003 57.420 0.044003 57.420 0.999029 147.42
8.78159000 0.999029 147.42 0.044004 57.420 0.044004 57.420 0.999029 147.42
8.78160000 0.999029 147.42 0.044005 57.420 0.044005 57.420 0.999029 147.42
8.78161000 0.999029 147.42 0.044006 57.420 0.044006 57.420 0.999029 147.42
8.78162000 0.999029 147.42 0.044007 57.420 0.044007 57.420 0.999029 147.42
8.78163000 0.999029 147.42 0.044008 57.420 0.044008 57.420 0.999029 147.42
8.78164000 0.999029 147.42 0.044009 57.420 0.044009 57.420 0.999029 147.42
8.78165000 0.999029 147.42 0.044010 57.420 0.044010 57.420 0.999029 147.42
8.78166000 0.999029 147.42 0.044011 57.420 0.044011 57.420 0.999029 147.42
8.78167000 0.999029 147.42 0.044012 57.420 0.044012 57.420 0.999029 147.42
8.78168000 0.999028 147.42 0.044013 57.419 0.044013 57.419 0.999028 147.42
8.78169000 0.999028 147.42 0.044014 57.419 0.044014 57.419 0.999028 147.42
8.78170000 0.999028 147.42 0.044015 57.419 0.044015 57.419 0.999028 147.42
8.78171000 0.999028 147.42 0.044016 57.419 0.044016 57.419 0.999028 147.42
8.78172000 0.999028 147.42 0.044017 57.419 0.044017 57.419 0.999028 147.42
8.78173000 0.999028 147.42 0.044018 57.419 0.044018 57.419 0.999028 147.42
8.78174000 0.999028 147.42 0.044019 57.419 0.044019 57.419 0.999028 147.42
8.78175000 0.999028 147.42 0.044020 57.419 0.044020 57.419 0.999028 147.42
8.78176000 0.999028 147.42 0.044021 57.419 0.044021 57.419 0.999028 147.42
8.78177000 0.999028 147.42 0.044022 57.419 0.044022 57.419 0.999028 147.42
8.78178000 0.999028 147.42 0.044023 57.419 0.044023 57.419 0.999028 147.42
8.78179000 0.999028 147.42 0.044024 57.418 0.044024 57.418 0.999028 147.42
8.78180000 0.999028 147.42 0.044025 57.418 0.044025 57.418 0.999028 147.42
8.78181000 0.999028 147.42 0.044026 57.418 0.044026 57.418 0.999028 147.42
8.78182000 0.999028 147.42 0.044027 57.418 0.044027 57.418 0.999028 147.42
8.78183000 0.999028 147.42 0.044028 57.418 0.044028 57.418 0.999028 147.42
8.78184000 0.999028 147.42 0.044029 57.418 0.044029 57.418 0.999028 147.42
8.78185000 0.999028 147.42 0.044030 57.418 0.044030 57.418 0.999028 147.42
8.78186000 0.999028 147.42 0.044031 57.418 0.044031 57.418 0.999028 147.42
8.78187000 0.999028 147.42 0.044032 57.418 0.044032 57.418 0.999028 147.42
8.78188000 0.999028 147.42 0.044033 57.418 0.044033 57.418 0.999028 147.42
8.78189000 0.999028 147.42 0.044034 57.417 0.044034 57.417 0.999028 147.42
8.78190000 0.999027 147.42 0.044035 57.417 0.044035 57.417 0.999027 147.42
8.78191000 0.999027 147.42 0.044036 57.417 0.044036 57.417 0.999027 147.42
8.78192000 0.999027 147.42 0.044037 57.417 0.044037 57.417 0.999027 147.42
8.78193000 0.999027 147.42 0.044038 57.417 0.044038 57.417 0.999027 147.42
8.78194000 0.999027 147.42 0.044039 57.417 0.044039 57.417 0.999027 147.42
8.78195000 0.999027 147.42 0.044040 57.417 0.044040 57.417 0.999027 147.42
8.78196000 0.999027 147.42 0.044041 57.417 0.044041 57.417 0.999027 147.42
8.78197000 0.999027 147.42 0.044042 57.417 0.044042 57.417 0.999027 147.42
8.78198000 0.999027 147.42 0.044043 57.417 0.044043 57.417 0.999027 147.42
8.78199000 0.999027 147.42 0.044044 57.417 0.044044 57.417 0.999027 147.42
8.78200000 0.999027 147.42 0.044045 57.416 0.044045 57.416 0.999027 147.42
8.78201000 0.999027 147.42 0.044046 57.416 0.044046 57.416 0.999027 147.42
8.78202000 0.999027 147.42 0.044047 57.416 0.044047 57.416 0.999027 147.42
8.78203000 0.999027 147.42 0.044048 57.416 0.044048 57.416 0.999027 147.42
8.78204000 0.999027 147.42 0.044049 57.416 0.044049 57.416 0.999027 147.42
8.78205000 0.999027 147.42 0.044050 57.416 0.044050 57.416 0.999027 147.42
8.78206000 0.999027 147.42 0.044051 57.416 0.044051 57.416 0.999027 147.42
8.78207000 0.999027 147.42 0.044052 57.416 0.044052 57.416 0.999027 147.42
8.78208000 0.999027 147.42 0.044053 57.416 0.044053 57.416 0.999027 147.42
8.78209000 0.999027 147.42 0.044054 57.416 0.044054 57.416 0.999027 147.42
8.78210000 0.999027 147.42 0.044055 57.415 0.044055 57.415 0.999027 147.42
8.78211000 0.999026 147.42 0.044056 57.415 0.044056 57.415 0.999027 147.42
8.78212000 0.999026 147.42 0.044057 57.415 0.044057 57.415 0.999026 147.42
8.78213000 0.999026 147.42 0.044058 57.415 0.044058 57.415 0.999026 147.42
8.78214000 0.999026 147.42 0.044059 57.415 0.044059 57.415 0.999026 147.42
8.78215000 0.999026 147.42 0.044061 57.415 0.044061 57.415 0.999026 147.42
8.78216000 0.999026 147.42 0.044062 57.415 0.044062 57.415 0.999026 147.42
8.78217000 0.999026 147.42 0.044063 57.415 0.044063 57.415 0.999026 147.42
8.78218000 0.999026 147.42 0.044064 57.415 0.044064 57.415 0.999026 147.42
8.78219000 0.999026 147.42 0.044065 57.415 0.044065 57.415 0.999026 147.42
8.78220000 0.999026 147.42 0.044066 57.415 0.044066 57.415 0.999026 147.42
8.78221000 0.999026 147.42 0.044067 57.414 0.044067 57.414 0.999026 147.42
8.78222000 0.999026 147.42 0.044068 57.414 0.044068 57.414 0.999026 147.42
8.78223000 0.999026 147.41 0.044069 57.414 0.044069 57.414 0.999026 147.42
8.78224000 0.999026 147.41 0.044070 57.414 0.044070 57.414 0.999026 147.42
8.78225000 0.999026 147.41 0.044071 57.414 0.044071 57.414 0.999026 147.42
8.78226000 0.999026 147.41 0.044072 57.414 0.044072 57.414 0.999026 147.42
8.78227000 0.999026 147.41 0.044073 57.414 0.044073 57.414 0.999026 147.42
8.78228000 0.999026 147.41 0.044074 57.414 0.044074 57.414 0.999026 147.41
8.78229000 0.999026 147.41 0.044075 57.414 0.044075 57.414 0.999026 147.41
8.78230000 0.999026 147.41 0.044076 57.414 0.044076 57.414 0.999026 147.41
8.78231000 0.999026 147.41 0.044077 57.413 0.044077 57.413 0.999026 147.41
8.78232000 0.999025 147.41 0.044078 57.413 0.044078 57.413 0.999026 147.41
8.78233000 0.999025 147.41 0.044079 57.413 0.044079 57.413 0.999025 147.41
8.78234000 0.999025 147.41 0.044080 57.413 0.044080 57.413 0.999025 147.41
8.78235000 0.999025 147.41 0.044081 57.413 0.044081 57.413 0.999025 147.41
8.78236000 0.999025 147.41 0.044083 57.413 0.044083 57.413 0.999025 147.41
8.78237000 0.999025 147.41 0.044084 57.413 0.044084 57.413 0.999025 147.41
8.78238000 0.999025 147.41 0.044085 57.413 0.044085 57.413 0.999025 147.41
8.78239000 0.999025 147.41 0.044086 57.413 0.044086 57.413 0.999025 147.41
8.78240000 0.999025 147.41 0.044087 57.413 0.044087 57.413 0.999025 147.41
8.78241000 0.999025 147.41 0.044088 57.412 0.044088 57.412 0.999025 147.41
8.78242000 0.999025 147.41 0.044089 57.412 0.044089 57.412 0.999025 147.41
8.78243000 0.999025 147.41 0.044090 57.412 0.044090 57.412 0.999025 147.41
8.78244000 0.999025 147.41 0.044091 57.412 0.044091 57.412 0.999025 147.41
8.78245000 0.999025 147.41 0.044092 57.412 0.044092 57.412 0.999025 147.41
8.78246000 0.999025 147.41 0.044093 57.412 0.044093 57.412 0.999025 147.41
8.78247000 0.999025 147.41 0.044094 57.412 0.044094 57.412 0.999025 147.41
8.78248000 0.999025 147.41 0.044095 57.412 0.044095 57.412 0.999025 147.41
8.78249000 0.999025 147.41 0.044096 57.412 0.044096 57.412 0.999025 147.41
8.78250000 0.999025 147.41 0.044097 57.412 0.044097 57.412 0.999025 147.41
8.78251000 0.999025 147.41 0.044099 57.412 0.044099 57.412 0.999025 147.41
8.78252000 0.999025 147.41 0.044100 57.411 0.044100 57.411 0.999025 147.41
8.78253000 0.999024 147.41 0.044101 57.411 0.044101 57.411 0.999024 147.41
8.78254000 0.999024 147.41 0.044102 57.411 0.044102 57.411 0.999024 147.41
8.78255000 0.999024 147.41 0.044103 57.411 0.044103 57.411 0.999024 147.41
8.78256000 0.999024 147.41 0.044104 57.411 0.044104 57.411 0.999024 147.41
8.78257000 0.999024 147.41 0.044105 57.411 0.044105 57.411 0.999024 147.41
8.78258000 0.999024 147.41 0.044106 57.411 0.044106 57.411 0.999024 147.41
