! Sonnet Data File
! From: emgraph Version : 16.52
! From Project: transmon_brgOdd
! Data is De-embedded 
! Data File Written: 11/12/2017 17:05:32
!< HDATE 11/11/2017 22:57:51
!< MDATE 11/11/2017 22:57:51
!< PARAMS
!< Lj = 15.24
!< Gap = 6.0
!< Width = 10.0
!< Airgap = 6.0
!< Pwidth = 2000.0
!< Dist = 800.0
!< END PARAMS
# GHZ S MA R 34.67000
8.78000000 0.986798 110.33 0.161834 20.234 0.161834 20.234 0.986797 110.14
!< P1 F=8.78 Eeff=(5.13743391 -5.7017e-5) Z0=(34.6430374 -9.7216e-5) R=0.0 C=0.0 
!< P2 F=8.78 Eeff=(5.13743391 -5.7017e-5) Z0=(34.6430374 -9.7216e-5) R=0.0 C=0.0 
8.78001000 0.986796 110.33 0.161845 20.234 0.161845 20.234 0.986795 110.14
8.78002000 0.986794 110.33 0.161855 20.233 0.161855 20.233 0.986793 110.14
8.78003000 0.986792 110.33 0.161865 20.232 0.161865 20.232 0.986792 110.14
8.78004000 0.986790 110.33 0.161876 20.232 0.161876 20.232 0.986790 110.14
8.78005000 0.986789 110.33 0.161886 20.231 0.161886 20.231 0.986788 110.14
8.78006000 0.986787 110.33 0.161897 20.230 0.161897 20.230 0.986786 110.14
8.78007000 0.986785 110.33 0.161907 20.229 0.161907 20.229 0.986784 110.14
8.78008000 0.986783 110.33 0.161918 20.229 0.161918 20.229 0.986782 110.14
8.78009000 0.986781 110.33 0.161928 20.228 0.161928 20.228 0.986781 110.14
8.78010000 0.986779 110.33 0.161939 20.227 0.161939 20.227 0.986779 110.14
8.78011000 0.986778 110.33 0.161950 20.227 0.161950 20.227 0.986777 110.14
8.78012000 0.986776 110.33 0.161961 20.226 0.161961 20.226 0.986775 110.14
8.78013000 0.986774 110.33 0.161972 20.225 0.161972 20.225 0.986773 110.13
8.78014000 0.986772 110.33 0.161983 20.224 0.161983 20.224 0.986771 110.13
8.78015000 0.986770 110.32 0.161994 20.224 0.161994 20.224 0.986769 110.13
8.78016000 0.986768 110.32 0.162005 20.223 0.162005 20.223 0.986767 110.13
8.78017000 0.986766 110.32 0.162016 20.222 0.162016 20.222 0.986765 110.13
8.78018000 0.986764 110.32 0.162027 20.221 0.162027 20.221 0.986763 110.13
8.78019000 0.986762 110.32 0.162039 20.221 0.162039 20.221 0.986761 110.13
8.78020000 0.986760 110.32 0.162050 20.220 0.162050 20.220 0.986759 110.13
8.78021000 0.986758 110.32 0.162062 20.219 0.162062 20.219 0.986757 110.13
8.78022000 0.986756 110.32 0.162073 20.218 0.162073 20.218 0.986755 110.13
8.78023000 0.986754 110.32 0.162085 20.217 0.162085 20.217 0.986753 110.13
8.78024000 0.986752 110.32 0.162096 20.217 0.162096 20.217 0.986751 110.13
8.78025000 0.986750 110.32 0.162108 20.216 0.162108 20.216 0.986749 110.13
8.78026000 0.986748 110.32 0.162120 20.215 0.162120 20.215 0.986747 110.13
8.78027000 0.986746 110.32 0.162132 20.214 0.162132 20.214 0.986745 110.12
8.78028000 0.986744 110.31 0.162144 20.213 0.162144 20.213 0.986743 110.12
8.78029000 0.986742 110.31 0.162156 20.213 0.162156 20.213 0.986741 110.12
8.78030000 0.986740 110.31 0.162168 20.212 0.162168 20.212 0.986739 110.12
8.78031000 0.986738 110.31 0.162180 20.211 0.162180 20.211 0.986737 110.12
8.78032000 0.986735 110.31 0.162192 20.210 0.162192 20.210 0.986735 110.12
8.78033000 0.986733 110.31 0.162204 20.209 0.162204 20.209 0.986732 110.12
8.78034000 0.986731 110.31 0.162217 20.209 0.162217 20.209 0.986730 110.12
8.78035000 0.986729 110.31 0.162229 20.208 0.162229 20.208 0.986728 110.12
8.78036000 0.986727 110.31 0.162242 20.207 0.162242 20.207 0.986726 110.12
8.78037000 0.986724 110.31 0.162254 20.206 0.162254 20.206 0.986724 110.12
8.78038000 0.986722 110.31 0.162267 20.205 0.162267 20.205 0.986721 110.12
8.78039000 0.986720 110.31 0.162280 20.204 0.162280 20.204 0.986719 110.11
8.78040000 0.986718 110.31 0.162293 20.203 0.162293 20.203 0.986717 110.11
8.78041000 0.986716 110.30 0.162305 20.203 0.162305 20.203 0.986715 110.11
8.78042000 0.986713 110.30 0.162318 20.202 0.162318 20.202 0.986712 110.11
8.78043000 0.986711 110.30 0.162332 20.201 0.162332 20.201 0.986710 110.11
8.78044000 0.986709 110.30 0.162345 20.200 0.162345 20.200 0.986708 110.11
8.78045000 0.986706 110.30 0.162358 20.199 0.162358 20.199 0.986706 110.11
8.78046000 0.986704 110.30 0.162371 20.198 0.162371 20.198 0.986703 110.11
8.78047000 0.986702 110.30 0.162385 20.197 0.162385 20.197 0.986701 110.11
8.78048000 0.986699 110.30 0.162398 20.196 0.162398 20.196 0.986698 110.11
8.78049000 0.986697 110.30 0.162412 20.195 0.162412 20.195 0.986696 110.11
8.78050000 0.986695 110.30 0.162426 20.195 0.162426 20.195 0.986694 110.11
8.78051000 0.986692 110.30 0.162439 20.194 0.162439 20.194 0.986691 110.10
8.78052000 0.986690 110.30 0.162453 20.193 0.162453 20.193 0.986689 110.10
8.78053000 0.986687 110.29 0.162467 20.192 0.162467 20.192 0.986686 110.10
8.78054000 0.986685 110.29 0.162481 20.191 0.162481 20.191 0.986684 110.10
8.78055000 0.986682 110.29 0.162495 20.190 0.162495 20.190 0.986681 110.10
8.78056000 0.986680 110.29 0.162510 20.189 0.162510 20.189 0.986679 110.10
8.78057000 0.986677 110.29 0.162524 20.188 0.162524 20.188 0.986676 110.10
8.78058000 0.986675 110.29 0.162538 20.187 0.162538 20.187 0.986674 110.10
8.78059000 0.986672 110.29 0.162553 20.186 0.162553 20.186 0.986671 110.10
8.78060000 0.986670 110.29 0.162567 20.185 0.162567 20.185 0.986669 110.10
8.78061000 0.986667 110.29 0.162582 20.184 0.162582 20.184 0.986666 110.10
8.78062000 0.986664 110.29 0.162597 20.183 0.162597 20.183 0.986663 110.09
8.78063000 0.986662 110.29 0.162612 20.182 0.162612 20.182 0.986661 110.09
8.78064000 0.986659 110.28 0.162627 20.181 0.162627 20.181 0.986658 110.09
8.78065000 0.986656 110.28 0.162642 20.180 0.162642 20.180 0.986656 110.09
8.78066000 0.986654 110.28 0.162657 20.179 0.162657 20.179 0.986653 110.09
8.78067000 0.986651 110.28 0.162673 20.178 0.162673 20.178 0.986650 110.09
8.78068000 0.986648 110.28 0.162688 20.177 0.162688 20.177 0.986647 110.09
8.78069000 0.986646 110.28 0.162703 20.176 0.162703 20.176 0.986645 110.09
8.78070000 0.986643 110.28 0.162719 20.175 0.162719 20.175 0.986642 110.09
8.78071000 0.986640 110.28 0.162735 20.174 0.162735 20.174 0.986639 110.09
8.78072000 0.986637 110.28 0.162751 20.173 0.162751 20.173 0.986636 110.08
8.78073000 0.986634 110.28 0.162767 20.172 0.162767 20.172 0.986633 110.08
8.78074000 0.986632 110.28 0.162783 20.171 0.162783 20.171 0.986631 110.08
8.78075000 0.986629 110.27 0.162799 20.170 0.162799 20.170 0.986628 110.08
8.78076000 0.986626 110.27 0.162815 20.169 0.162815 20.169 0.986625 110.08
8.78077000 0.986623 110.27 0.162832 20.167 0.162832 20.167 0.986622 110.08
8.78078000 0.986620 110.27 0.162848 20.166 0.162848 20.166 0.986619 110.08
8.78079000 0.986617 110.27 0.162865 20.165 0.162865 20.165 0.986616 110.08
8.78080000 0.986614 110.27 0.162882 20.164 0.162882 20.164 0.986613 110.08
8.78081000 0.986611 110.27 0.162899 20.163 0.162899 20.163 0.986610 110.08
8.78082000 0.986608 110.27 0.162916 20.162 0.162916 20.162 0.986607 110.07
8.78083000 0.986605 110.27 0.162933 20.161 0.162933 20.161 0.986604 110.07
8.78084000 0.986602 110.27 0.162950 20.160 0.162950 20.160 0.986601 110.07
8.78085000 0.986599 110.26 0.162967 20.158 0.162967 20.158 0.986598 110.07
8.78086000 0.986596 110.26 0.162985 20.157 0.162985 20.157 0.986595 110.07
8.78087000 0.986593 110.26 0.163003 20.156 0.163003 20.156 0.986592 110.07
8.78088000 0.986590 110.26 0.163020 20.155 0.163020 20.155 0.986588 110.07
8.78089000 0.986586 110.26 0.163038 20.154 0.163038 20.154 0.986585 110.07
8.78090000 0.986583 110.26 0.163056 20.153 0.163056 20.153 0.986582 110.07
8.78091000 0.986580 110.26 0.163075 20.151 0.163075 20.151 0.986579 110.06
8.78092000 0.986577 110.26 0.163093 20.150 0.163093 20.150 0.986576 110.06
8.78093000 0.986573 110.26 0.163111 20.149 0.163111 20.149 0.986572 110.06
8.78094000 0.986570 110.25 0.163130 20.148 0.163130 20.148 0.986569 110.06
8.78095000 0.986567 110.25 0.163149 20.146 0.163149 20.146 0.986566 110.06
8.78096000 0.986563 110.25 0.163168 20.145 0.163168 20.145 0.986562 110.06
8.78097000 0.986560 110.25 0.163187 20.144 0.163187 20.144 0.986559 110.06
8.78098000 0.986557 110.25 0.163206 20.143 0.163206 20.143 0.986555 110.06
8.78099000 0.986553 110.25 0.163225 20.141 0.163225 20.141 0.986552 110.05
8.78100000 0.986550 110.25 0.163245 20.140 0.163245 20.140 0.986548 110.05
8.78101000 0.986546 110.25 0.163264 20.139 0.163264 20.139 0.986545 110.05
8.78102000 0.986543 110.24 0.163284 20.138 0.163284 20.138 0.986541 110.05
8.78103000 0.986539 110.24 0.163304 20.136 0.163304 20.136 0.986538 110.05
8.78104000 0.986535 110.24 0.163324 20.135 0.163324 20.135 0.986534 110.05
8.78105000 0.986532 110.24 0.163344 20.134 0.163344 20.134 0.986531 110.05
8.78106000 0.986528 110.24 0.163365 20.132 0.163365 20.132 0.986527 110.05
8.78107000 0.986524 110.24 0.163385 20.131 0.163385 20.131 0.986523 110.04
8.78108000 0.986521 110.24 0.163406 20.129 0.163406 20.129 0.986519 110.04
8.78109000 0.986517 110.24 0.163427 20.128 0.163427 20.128 0.986516 110.04
8.78110000 0.986513 110.24 0.163448 20.127 0.163448 20.127 0.986512 110.04
8.78111000 0.986509 110.23 0.163470 20.125 0.163470 20.125 0.986508 110.04
8.78112000 0.986506 110.23 0.163491 20.124 0.163491 20.124 0.986504 110.04
8.78113000 0.986502 110.23 0.163513 20.122 0.163513 20.122 0.986500 110.04
8.78114000 0.986498 110.23 0.163534 20.121 0.163534 20.121 0.986496 110.04
8.78115000 0.986494 110.23 0.163556 20.120 0.163556 20.120 0.986493 110.03
8.78116000 0.986490 110.23 0.163578 20.118 0.163578 20.118 0.986489 110.03
8.78117000 0.986486 110.23 0.163601 20.117 0.163601 20.117 0.986484 110.03
8.78118000 0.986482 110.22 0.163623 20.115 0.163623 20.115 0.986480 110.03
8.78119000 0.986478 110.22 0.163646 20.114 0.163646 20.114 0.986476 110.03
8.78120000 0.986474 110.22 0.163669 20.112 0.163669 20.112 0.986472 110.03
8.78121000 0.986469 110.22 0.163692 20.111 0.163692 20.111 0.986468 110.03
8.78122000 0.986465 110.22 0.163715 20.109 0.163715 20.109 0.986464 110.02
8.78123000 0.986461 110.22 0.163739 20.107 0.163739 20.107 0.986460 110.02
8.78124000 0.986457 110.22 0.163762 20.106 0.163762 20.106 0.986455 110.02
8.78125000 0.986452 110.21 0.163786 20.104 0.163786 20.104 0.986451 110.02
8.78126000 0.986448 110.21 0.163810 20.103 0.163810 20.103 0.986447 110.02
8.78127000 0.986444 110.21 0.163835 20.101 0.163835 20.101 0.986442 110.02
8.78128000 0.986439 110.21 0.163859 20.100 0.163859 20.100 0.986438 110.02
8.78129000 0.986435 110.21 0.163884 20.098 0.163884 20.098 0.986433 110.01
8.78130000 0.986430 110.21 0.163909 20.096 0.163909 20.096 0.986429 110.01
8.78131000 0.986426 110.21 0.163934 20.095 0.163934 20.095 0.986424 110.01
8.78132000 0.986421 110.20 0.163960 20.093 0.163960 20.093 0.986420 110.01
8.78133000 0.986417 110.20 0.163985 20.091 0.163985 20.091 0.986415 110.01
8.78134000 0.986412 110.20 0.164011 20.090 0.164011 20.090 0.986410 110.01
8.78135000 0.986407 110.20 0.164037 20.088 0.164037 20.088 0.986405 110.00
8.78136000 0.986402 110.20 0.164064 20.086 0.164064 20.086 0.986401 110.00
8.78137000 0.986398 110.20 0.164090 20.084 0.164090 20.084 0.986396 110.00
8.78138000 0.986393 110.19 0.164117 20.083 0.164117 20.083 0.986391 110.00
8.78139000 0.986388 110.19 0.164144 20.081 0.164144 20.081 0.986386 110.00
8.78140000 0.986383 110.19 0.164171 20.079 0.164171 20.079 0.986381 110.00
8.78141000 0.986378 110.19 0.164199 20.077 0.164199 20.077 0.986376 109.99
8.78142000 0.986373 110.19 0.164227 20.075 0.164227 20.075 0.986371 109.99
8.78143000 0.986368 110.19 0.164255 20.073 0.164255 20.073 0.986366 109.99
8.78144000 0.986362 110.19 0.164283 20.072 0.164283 20.072 0.986361 109.99
8.78145000 0.986357 110.18 0.164312 20.070 0.164312 20.070 0.986355 109.99
8.78146000 0.986352 110.18 0.164341 20.068 0.164341 20.068 0.986350 109.99
8.78147000 0.986347 110.18 0.164370 20.066 0.164370 20.066 0.986345 109.98
8.78148000 0.986341 110.18 0.164399 20.064 0.164399 20.064 0.986339 109.98
8.78149000 0.986336 110.18 0.164429 20.062 0.164429 20.062 0.986334 109.98
8.78150000 0.986330 110.17 0.164459 20.060 0.164459 20.060 0.986328 109.98
8.78151000 0.986325 110.17 0.164489 20.058 0.164489 20.058 0.986323 109.98
8.78152000 0.986319 110.17 0.164520 20.056 0.164520 20.056 0.986317 109.97
8.78153000 0.986314 110.17 0.164551 20.054 0.164551 20.054 0.986312 109.97
8.78154000 0.986308 110.17 0.164582 20.052 0.164582 20.052 0.986306 109.97
8.78155000 0.986302 110.17 0.164614 20.050 0.164614 20.050 0.986300 109.97
8.78156000 0.986296 110.16 0.164645 20.048 0.164645 20.048 0.986294 109.97
8.78157000 0.986290 110.16 0.164678 20.046 0.164678 20.046 0.986288 109.96
8.78158000 0.986284 110.16 0.164710 20.043 0.164710 20.043 0.986282 109.96
8.78159000 0.986278 110.16 0.164743 20.041 0.164743 20.041 0.986276 109.96
8.78160000 0.986272 110.16 0.164776 20.039 0.164776 20.039 0.986270 109.96
8.78161000 0.986266 110.15 0.164810 20.037 0.164810 20.037 0.986264 109.96
8.78162000 0.986260 110.15 0.164843 20.035 0.164843 20.035 0.986258 109.95
8.78163000 0.986254 110.15 0.164878 20.032 0.164878 20.032 0.986251 109.95
8.78164000 0.986247 110.15 0.164912 20.030 0.164912 20.030 0.986245 109.95
8.78165000 0.986241 110.15 0.164947 20.028 0.164947 20.028 0.986239 109.95
8.78166000 0.986234 110.14 0.164982 20.025 0.164982 20.025 0.986232 109.95
8.78167000 0.986228 110.14 0.165018 20.023 0.165018 20.023 0.986225 109.94
8.78168000 0.986221 110.14 0.165054 20.021 0.165054 20.021 0.986219 109.94
8.78169000 0.986214 110.14 0.165090 20.018 0.165090 20.018 0.986212 109.94
8.78170000 0.986207 110.14 0.165127 20.016 0.165127 20.016 0.986205 109.94
8.78171000 0.986200 110.13 0.165164 20.013 0.165164 20.013 0.986198 109.94
8.78172000 0.986194 110.13 0.165202 20.011 0.165202 20.011 0.986191 109.93
8.78173000 0.986186 110.13 0.165240 20.008 0.165240 20.008 0.986184 109.93
8.78174000 0.986179 110.13 0.165278 20.006 0.165278 20.006 0.986177 109.93
8.78175000 0.986172 110.12 0.165317 20.003 0.165317 20.003 0.986170 109.93
8.78176000 0.986165 110.12 0.165357 20.001 0.165357 20.001 0.986162 109.92
8.78177000 0.986157 110.12 0.165396 19.998 0.165396 19.998 0.986155 109.92
8.78178000 0.986150 110.12 0.165436 19.995 0.165436 19.995 0.986147 109.92
8.78179000 0.986142 110.11 0.165477 19.993 0.165477 19.993 0.986140 109.92
8.78180000 0.986135 110.11 0.165518 19.990 0.165518 19.990 0.986132 109.91
8.78181000 0.986127 110.11 0.165560 19.987 0.165560 19.987 0.986124 109.91
8.78182000 0.986119 110.11 0.165602 19.984 0.165602 19.984 0.986116 109.91
8.78183000 0.986111 110.10 0.165644 19.982 0.165644 19.982 0.986108 109.91
8.78184000 0.986103 110.10 0.165687 19.979 0.165687 19.979 0.986100 109.90
8.78185000 0.986095 110.10 0.165731 19.976 0.165731 19.976 0.986092 109.90
8.78186000 0.986087 110.10 0.165775 19.973 0.165775 19.973 0.986084 109.90
8.78187000 0.986078 110.09 0.165819 19.970 0.165819 19.970 0.986075 109.90
8.78188000 0.986070 110.09 0.165865 19.967 0.165865 19.967 0.986067 109.89
8.78189000 0.986061 110.09 0.165910 19.964 0.165910 19.964 0.986058 109.89
8.78190000 0.986052 110.09 0.165956 19.961 0.165956 19.961 0.986050 109.89
8.78191000 0.986044 110.08 0.166003 19.958 0.166003 19.958 0.986041 109.88
8.78192000 0.986035 110.08 0.166050 19.955 0.166050 19.955 0.986032 109.88
8.78193000 0.986026 110.08 0.166098 19.951 0.166098 19.951 0.986023 109.88
8.78194000 0.986017 110.08 0.166147 19.948 0.166147 19.948 0.986013 109.88
8.78195000 0.986007 110.07 0.166196 19.945 0.166196 19.945 0.986004 109.87
8.78196000 0.985998 110.07 0.166246 19.942 0.166246 19.942 0.985995 109.87
8.78197000 0.985988 110.07 0.166296 19.938 0.166296 19.938 0.985985 109.87
8.78198000 0.985979 110.06 0.166347 19.935 0.166347 19.935 0.985975 109.86
8.78199000 0.985969 110.06 0.166399 19.931 0.166399 19.931 0.985966 109.86
8.78200000 0.985959 110.06 0.166451 19.928 0.166451 19.928 0.985956 109.86
8.78201000 0.985949 110.05 0.166504 19.924 0.166504 19.924 0.985945 109.85
8.78202000 0.985939 110.05 0.166558 19.921 0.166558 19.921 0.985935 109.85
8.78203000 0.985928 110.05 0.166612 19.917 0.166612 19.917 0.985925 109.85
8.78204000 0.985918 110.05 0.166667 19.914 0.166667 19.914 0.985914 109.84
8.78205000 0.985907 110.04 0.166723 19.910 0.166723 19.910 0.985904 109.84
8.78206000 0.985896 110.04 0.166779 19.906 0.166779 19.906 0.985893 109.84
8.78207000 0.985885 110.04 0.166837 19.902 0.166837 19.902 0.985882 109.83
8.78208000 0.985874 110.03 0.166895 19.898 0.166895 19.898 0.985870 109.83
8.78209000 0.985863 110.03 0.166954 19.894 0.166954 19.894 0.985859 109.83
8.78210000 0.985851 110.02 0.167013 19.890 0.167013 19.890 0.985848 109.82
8.78211000 0.985840 110.02 0.167074 19.886 0.167074 19.886 0.985836 109.82
8.78212000 0.985828 110.02 0.167135 19.882 0.167135 19.882 0.985824 109.82
8.78213000 0.985816 110.01 0.167197 19.878 0.167197 19.878 0.985812 109.81
8.78214000 0.985804 110.01 0.167261 19.874 0.167261 19.874 0.985800 109.81
8.78215000 0.985791 110.01 0.167325 19.869 0.167325 19.869 0.985787 109.80
8.78216000 0.985779 110.00 0.167390 19.865 0.167390 19.865 0.985775 109.80
8.78217000 0.985766 110.00 0.167455 19.861 0.167455 19.861 0.985762 109.80
8.78218000 0.985753 110.00 0.167522 19.856 0.167522 19.856 0.985749 109.79
8.78219000 0.985740 109.99 0.167590 19.852 0.167590 19.852 0.985736 109.79
8.78220000 0.985726 109.99 0.167659 19.847 0.167659 19.847 0.985722 109.78
8.78221000 0.985713 109.98 0.167729 19.842 0.167729 19.842 0.985708 109.78
8.78222000 0.985699 109.98 0.167800 19.837 0.167800 19.837 0.985695 109.78
8.78223000 0.985685 109.98 0.167872 19.833 0.167872 19.833 0.985680 109.77
8.78224000 0.985671 109.97 0.167945 19.828 0.167945 19.828 0.985666 109.77
8.78225000 0.985656 109.97 0.168019 19.823 0.168019 19.823 0.985651 109.76
8.78226000 0.985641 109.96 0.168094 19.818 0.168094 19.818 0.985637 109.76
8.78227000 0.985626 109.96 0.168171 19.812 0.168171 19.812 0.985622 109.75
8.78228000 0.985611 109.95 0.168248 19.807 0.168248 19.807 0.985606 109.75
8.78229000 0.985596 109.95 0.168327 19.802 0.168327 19.802 0.985591 109.74
8.78230000 0.985580 109.94 0.168407 19.796 0.168407 19.796 0.985575 109.74
8.78231000 0.985564 109.94 0.168489 19.791 0.168489 19.791 0.985558 109.73
8.78232000 0.985547 109.93 0.168572 19.785 0.168572 19.785 0.985542 109.73
8.78233000 0.985531 109.93 0.168656 19.779 0.168656 19.779 0.985525 109.72
8.78234000 0.985514 109.92 0.168741 19.774 0.168741 19.774 0.985508 109.72
8.78235000 0.985496 109.92 0.168828 19.768 0.168828 19.768 0.985491 109.71
8.78236000 0.985479 109.91 0.168917 19.762 0.168917 19.762 0.985473 109.71
8.78237000 0.985461 109.91 0.169007 19.755 0.169007 19.755 0.985455 109.70
8.78238000 0.985442 109.90 0.169098 19.749 0.169098 19.749 0.985437 109.70
8.78239000 0.985424 109.90 0.169191 19.743 0.169191 19.743 0.985418 109.69
8.78240000 0.985405 109.89 0.169286 19.736 0.169286 19.736 0.985399 109.69
8.78241000 0.985385 109.89 0.169382 19.730 0.169382 19.730 0.985379 109.68
8.78242000 0.985366 109.88 0.169480 19.723 0.169480 19.723 0.985360 109.67
8.78243000 0.985346 109.88 0.169580 19.716 0.169580 19.716 0.985339 109.67
8.78244000 0.985325 109.87 0.169681 19.709 0.169681 19.709 0.985319 109.66
8.78245000 0.985304 109.86 0.169785 19.702 0.169785 19.702 0.985298 109.66
8.78246000 0.985283 109.86 0.169890 19.695 0.169890 19.695 0.985276 109.65
8.78247000 0.985261 109.85 0.169997 19.687 0.169997 19.687 0.985254 109.64
8.78248000 0.985239 109.85 0.170107 19.680 0.170107 19.680 0.985232 109.64
8.78249000 0.985216 109.84 0.170218 19.672 0.170218 19.672 0.985209 109.63
8.78250000 0.985193 109.83 0.170331 19.664 0.170331 19.664 0.985186 109.62
8.78251000 0.985169 109.83 0.170447 19.656 0.170447 19.656 0.985162 109.62
8.78252000 0.985145 109.82 0.170565 19.648 0.170565 19.648 0.985138 109.61
8.78253000 0.985120 109.81 0.170685 19.640 0.170685 19.640 0.985113 109.60
8.78254000 0.985095 109.81 0.170807 19.631 0.170807 19.631 0.985087 109.60
8.78255000 0.985069 109.80 0.170932 19.623 0.170932 19.623 0.985061 109.59
8.78256000 0.985043 109.79 0.171060 19.614 0.171060 19.614 0.985035 109.58
8.78257000 0.985016 109.78 0.171190 19.605 0.171190 19.605 0.985008 109.57
8.78258000 0.984988 109.78 0.171322 19.595 0.171322 19.595 0.984980 109.56
