! Sonnet Data File
! From: emgraph Version : 16.52
! From Emgraph Data: transmon_brgOdd
! Data File Written: 11/11/2017 22:54:51
!< HDATE 11/11/2017 22:31:46
!< MDATE 11/11/2017 22:32:14
!< PARAMS
!< Lj = 15.24
!< Gap = 6.0
!< Width = 10.0
!< Pwidth = 2000.0
!< Dist = 400.0
!< END PARAMS
# GHZ S MA R 34.67000
8.72000000 0.978105 101.53 0.208090 11.527 0.208090 11.527 0.978105 101.52
!< P1 F=8.72 Eeff=(5.13609477 -5.6761e-5) Z0=(34.6490765 -9.5162e-5) R=0.0 C=0.0 
!< P2 F=8.72 Eeff=(5.13609477 -5.6761e-5) Z0=(34.6490765 -9.5162e-5) R=0.0 C=0.0 
8.72005000 0.978105 101.53 0.208091 11.527 0.208091 11.527 0.978105 101.52
8.72010000 0.978104 101.53 0.208092 11.526 0.208092 11.526 0.978104 101.52
8.72015000 0.978104 101.53 0.208094 11.526 0.208094 11.526 0.978104 101.52
8.72020000 0.978104 101.53 0.208095 11.526 0.208095 11.526 0.978104 101.52
8.72025000 0.978103 101.53 0.208096 11.525 0.208096 11.525 0.978103 101.52
8.72030000 0.978103 101.53 0.208098 11.525 0.208098 11.525 0.978103 101.52
8.72035000 0.978103 101.53 0.208099 11.524 0.208099 11.524 0.978103 101.52
8.72040000 0.978103 101.53 0.208100 11.524 0.208100 11.524 0.978103 101.52
8.72045000 0.978102 101.53 0.208101 11.523 0.208101 11.523 0.978102 101.52
8.72050000 0.978102 101.53 0.208103 11.523 0.208103 11.523 0.978102 101.51
8.72055000 0.978102 101.53 0.208104 11.522 0.208104 11.522 0.978102 101.51
8.72060000 0.978102 101.53 0.208105 11.522 0.208105 11.522 0.978102 101.51
8.72065000 0.978101 101.53 0.208107 11.521 0.208107 11.521 0.978101 101.51
8.72070000 0.978101 101.53 0.208108 11.521 0.208108 11.521 0.978101 101.51
8.72075000 0.978101 101.53 0.208109 11.521 0.208109 11.521 0.978101 101.51
8.72080000 0.978100 101.53 0.208111 11.520 0.208111 11.520 0.978100 101.51
8.72085000 0.978100 101.53 0.208112 11.520 0.208112 11.520 0.978100 101.51
8.72090000 0.978100 101.53 0.208113 11.519 0.208113 11.519 0.978100 101.51
8.72095000 0.978100 101.52 0.208114 11.519 0.208114 11.519 0.978100 101.51
8.72100000 0.978099 101.52 0.208116 11.518 0.208116 11.518 0.978099 101.51
8.72105000 0.978099 101.52 0.208117 11.518 0.208117 11.518 0.978099 101.51
8.72110000 0.978099 101.52 0.208118 11.517 0.208118 11.517 0.978099 101.51
8.72115000 0.978098 101.52 0.208120 11.517 0.208120 11.517 0.978098 101.51
8.72120000 0.978098 101.52 0.208121 11.516 0.208121 11.516 0.978098 101.51
8.72125000 0.978098 101.52 0.208122 11.516 0.208122 11.516 0.978098 101.51
8.72130000 0.978098 101.52 0.208123 11.515 0.208123 11.515 0.978098 101.51
8.72135000 0.978097 101.52 0.208125 11.515 0.208125 11.515 0.978097 101.51
8.72140000 0.978097 101.52 0.208126 11.515 0.208126 11.515 0.978097 101.51
8.72145000 0.978097 101.52 0.208127 11.514 0.208127 11.514 0.978097 101.51
8.72150000 0.978097 101.52 0.208129 11.514 0.208129 11.514 0.978097 101.51
8.72155000 0.978096 101.52 0.208130 11.513 0.208130 11.513 0.978096 101.51
8.72160000 0.978096 101.52 0.208131 11.513 0.208131 11.513 0.978096 101.50
8.72165000 0.978096 101.52 0.208133 11.512 0.208133 11.512 0.978096 101.50
8.72170000 0.978095 101.52 0.208134 11.512 0.208134 11.512 0.978095 101.50
8.72175000 0.978095 101.52 0.208135 11.511 0.208135 11.511 0.978095 101.50
8.72180000 0.978095 101.52 0.208136 11.511 0.208136 11.511 0.978095 101.50
8.72185000 0.978095 101.52 0.208138 11.510 0.208138 11.510 0.978095 101.50
8.72190000 0.978094 101.52 0.208139 11.510 0.208139 11.510 0.978094 101.50
8.72195000 0.978094 101.52 0.208140 11.510 0.208140 11.510 0.978094 101.50
8.72200000 0.978094 101.52 0.208142 11.509 0.208142 11.509 0.978094 101.50
8.72205000 0.978094 101.51 0.208143 11.509 0.208143 11.509 0.978094 101.50
8.72210000 0.978093 101.51 0.208144 11.508 0.208144 11.508 0.978093 101.50
8.72215000 0.978093 101.51 0.208146 11.508 0.208146 11.508 0.978093 101.50
8.72220000 0.978093 101.51 0.208147 11.507 0.208147 11.507 0.978093 101.50
8.72225000 0.978092 101.51 0.208148 11.507 0.208148 11.507 0.978092 101.50
8.72230000 0.978092 101.51 0.208149 11.506 0.208149 11.506 0.978092 101.50
8.72235000 0.978092 101.51 0.208151 11.506 0.208151 11.506 0.978092 101.50
8.72240000 0.978092 101.51 0.208152 11.505 0.208152 11.505 0.978092 101.50
8.72245000 0.978091 101.51 0.208153 11.505 0.208153 11.505 0.978091 101.50
8.72250000 0.978091 101.51 0.208155 11.505 0.208155 11.505 0.978091 101.50
8.72255000 0.978091 101.51 0.208156 11.504 0.208156 11.504 0.978091 101.50
8.72260000 0.978090 101.51 0.208157 11.504 0.208157 11.504 0.978090 101.50
8.72265000 0.978090 101.51 0.208159 11.503 0.208159 11.503 0.978090 101.49
8.72270000 0.978090 101.51 0.208160 11.503 0.208160 11.503 0.978090 101.49
8.72275000 0.978090 101.51 0.208161 11.502 0.208161 11.502 0.978090 101.49
8.72280000 0.978089 101.51 0.208162 11.502 0.208162 11.502 0.978089 101.49
8.72285000 0.978089 101.51 0.208164 11.501 0.208164 11.501 0.978089 101.49
8.72290000 0.978089 101.51 0.208165 11.501 0.208165 11.501 0.978089 101.49
8.72295000 0.978089 101.51 0.208166 11.500 0.208166 11.500 0.978089 101.49
8.72300000 0.978088 101.51 0.208168 11.500 0.208168 11.500 0.978088 101.49
8.72305000 0.978088 101.51 0.208169 11.500 0.208169 11.500 0.978088 101.49
8.72310000 0.978088 101.51 0.208170 11.499 0.208170 11.499 0.978088 101.49
8.72315000 0.978087 101.50 0.208172 11.499 0.208172 11.499 0.978087 101.49
8.72320000 0.978087 101.50 0.208173 11.498 0.208173 11.498 0.978087 101.49
8.72325000 0.978087 101.50 0.208174 11.498 0.208174 11.498 0.978087 101.49
8.72330000 0.978087 101.50 0.208175 11.497 0.208175 11.497 0.978087 101.49
8.72335000 0.978086 101.50 0.208177 11.497 0.208177 11.497 0.978086 101.49
8.72340000 0.978086 101.50 0.208178 11.496 0.208178 11.496 0.978086 101.49
8.72345000 0.978086 101.50 0.208179 11.496 0.208179 11.496 0.978086 101.49
8.72350000 0.978085 101.50 0.208181 11.495 0.208181 11.495 0.978085 101.49
8.72355000 0.978085 101.50 0.208182 11.495 0.208182 11.495 0.978085 101.49
8.72360000 0.978085 101.50 0.208183 11.495 0.208183 11.495 0.978085 101.49
8.72365000 0.978085 101.50 0.208185 11.494 0.208185 11.494 0.978085 101.49
8.72370000 0.978084 101.50 0.208186 11.494 0.208186 11.494 0.978084 101.49
8.72375000 0.978084 101.50 0.208187 11.493 0.208187 11.493 0.978084 101.48
8.72380000 0.978084 101.50 0.208189 11.493 0.208189 11.493 0.978084 101.48
8.72385000 0.978084 101.50 0.208190 11.492 0.208190 11.492 0.978084 101.48
8.72390000 0.978083 101.50 0.208191 11.492 0.208191 11.492 0.978083 101.48
8.72395000 0.978083 101.50 0.208192 11.491 0.208192 11.491 0.978083 101.48
8.72400000 0.978083 101.50 0.208194 11.491 0.208194 11.491 0.978083 101.48
8.72405000 0.978082 101.50 0.208195 11.490 0.208195 11.490 0.978082 101.48
8.72410000 0.978082 101.50 0.208196 11.490 0.208196 11.490 0.978082 101.48
8.72415000 0.978082 101.50 0.208198 11.489 0.208198 11.489 0.978082 101.48
8.72420000 0.978082 101.50 0.208199 11.489 0.208199 11.489 0.978082 101.48
8.72425000 0.978081 101.49 0.208200 11.489 0.208200 11.489 0.978081 101.48
8.72430000 0.978081 101.49 0.208202 11.488 0.208202 11.488 0.978081 101.48
8.72435000 0.978081 101.49 0.208203 11.488 0.208203 11.488 0.978081 101.48
8.72440000 0.978080 101.49 0.208204 11.487 0.208204 11.487 0.978080 101.48
8.72445000 0.978080 101.49 0.208206 11.487 0.208206 11.487 0.978080 101.48
8.72450000 0.978080 101.49 0.208207 11.486 0.208207 11.486 0.978080 101.48
8.72455000 0.978080 101.49 0.208208 11.486 0.208208 11.486 0.978080 101.48
8.72460000 0.978079 101.49 0.208209 11.485 0.208209 11.485 0.978079 101.48
8.72465000 0.978079 101.49 0.208211 11.485 0.208211 11.485 0.978079 101.48
8.72470000 0.978079 101.49 0.208212 11.484 0.208212 11.484 0.978079 101.48
8.72475000 0.978078 101.49 0.208213 11.484 0.208213 11.484 0.978078 101.48
8.72480000 0.978078 101.49 0.208215 11.484 0.208215 11.484 0.978078 101.48
8.72485000 0.978078 101.49 0.208216 11.483 0.208216 11.483 0.978078 101.47
8.72490000 0.978078 101.49 0.208217 11.483 0.208217 11.483 0.978078 101.47
8.72495000 0.978077 101.49 0.208219 11.482 0.208219 11.482 0.978077 101.47
8.72500000 0.978077 101.49 0.208220 11.482 0.208220 11.482 0.978077 101.47
8.72505000 0.978077 101.49 0.208221 11.481 0.208221 11.481 0.978077 101.47
8.72510000 0.978077 101.49 0.208223 11.481 0.208223 11.481 0.978077 101.47
8.72515000 0.978076 101.49 0.208224 11.480 0.208224 11.480 0.978076 101.47
8.72520000 0.978076 101.49 0.208225 11.480 0.208225 11.480 0.978076 101.47
8.72525000 0.978076 101.49 0.208227 11.479 0.208227 11.479 0.978076 101.47
8.72530000 0.978075 101.49 0.208228 11.479 0.208228 11.479 0.978075 101.47
8.72535000 0.978075 101.48 0.208229 11.479 0.208229 11.479 0.978075 101.47
8.72540000 0.978075 101.48 0.208231 11.478 0.208231 11.478 0.978075 101.47
8.72545000 0.978075 101.48 0.208232 11.478 0.208232 11.478 0.978075 101.47
8.72550000 0.978074 101.48 0.208233 11.477 0.208233 11.477 0.978074 101.47
8.72555000 0.978074 101.48 0.208234 11.477 0.208234 11.477 0.978074 101.47
8.72560000 0.978074 101.48 0.208236 11.476 0.208236 11.476 0.978074 101.47
8.72565000 0.978073 101.48 0.208237 11.476 0.208237 11.476 0.978073 101.47
8.72570000 0.978073 101.48 0.208238 11.475 0.208238 11.475 0.978073 101.47
8.72575000 0.978073 101.48 0.208240 11.475 0.208240 11.475 0.978073 101.47
8.72580000 0.978073 101.48 0.208241 11.474 0.208241 11.474 0.978073 101.47
8.72585000 0.978072 101.48 0.208242 11.474 0.208242 11.474 0.978072 101.47
8.72590000 0.978072 101.48 0.208244 11.473 0.208244 11.473 0.978072 101.47
8.72595000 0.978072 101.48 0.208245 11.473 0.208245 11.473 0.978072 101.46
8.72600000 0.978071 101.48 0.208246 11.473 0.208246 11.473 0.978071 101.46
8.72605000 0.978071 101.48 0.208248 11.472 0.208248 11.472 0.978071 101.46
8.72610000 0.978071 101.48 0.208249 11.472 0.208249 11.472 0.978071 101.46
8.72615000 0.978071 101.48 0.208250 11.471 0.208250 11.471 0.978071 101.46
8.72620000 0.978070 101.48 0.208252 11.471 0.208252 11.471 0.978070 101.46
8.72625000 0.978070 101.48 0.208253 11.470 0.208253 11.470 0.978070 101.46
8.72630000 0.978070 101.48 0.208254 11.470 0.208254 11.470 0.978070 101.46
8.72635000 0.978069 101.48 0.208256 11.469 0.208256 11.469 0.978069 101.46
8.72640000 0.978069 101.48 0.208257 11.469 0.208257 11.469 0.978069 101.46
8.72645000 0.978069 101.47 0.208258 11.468 0.208258 11.468 0.978069 101.46
8.72650000 0.978069 101.47 0.208260 11.468 0.208260 11.468 0.978069 101.46
8.72655000 0.978068 101.47 0.208261 11.468 0.208261 11.468 0.978068 101.46
8.72660000 0.978068 101.47 0.208262 11.467 0.208262 11.467 0.978068 101.46
8.72665000 0.978068 101.47 0.208264 11.467 0.208264 11.467 0.978068 101.46
8.72670000 0.978068 101.47 0.208265 11.466 0.208265 11.466 0.978068 101.46
8.72675000 0.978067 101.47 0.208266 11.466 0.208266 11.466 0.978067 101.46
8.72680000 0.978067 101.47 0.208268 11.465 0.208268 11.465 0.978067 101.46
8.72685000 0.978067 101.47 0.208269 11.465 0.208269 11.465 0.978067 101.46
8.72690000 0.978066 101.47 0.208270 11.464 0.208270 11.464 0.978066 101.46
8.72695000 0.978066 101.47 0.208271 11.464 0.208271 11.464 0.978066 101.46
8.72700000 0.978066 101.47 0.208273 11.463 0.208273 11.463 0.978066 101.46
8.72705000 0.978066 101.47 0.208274 11.463 0.208274 11.463 0.978066 101.45
8.72710000 0.978065 101.47 0.208275 11.463 0.208275 11.463 0.978065 101.45
8.72715000 0.978065 101.47 0.208277 11.462 0.208277 11.462 0.978065 101.45
8.72720000 0.978065 101.47 0.208278 11.462 0.208278 11.462 0.978065 101.45
8.72725000 0.978064 101.47 0.208279 11.461 0.208279 11.461 0.978064 101.45
8.72730000 0.978064 101.47 0.208281 11.461 0.208281 11.461 0.978064 101.45
8.72735000 0.978064 101.47 0.208282 11.460 0.208282 11.460 0.978064 101.45
8.72740000 0.978064 101.47 0.208283 11.460 0.208283 11.460 0.978064 101.45
8.72745000 0.978063 101.47 0.208285 11.459 0.208285 11.459 0.978063 101.45
8.72750000 0.978063 101.47 0.208286 11.459 0.208286 11.459 0.978063 101.45
8.72755000 0.978063 101.46 0.208287 11.458 0.208287 11.458 0.978063 101.45
8.72760000 0.978062 101.46 0.208289 11.458 0.208289 11.458 0.978062 101.45
8.72765000 0.978062 101.46 0.208290 11.457 0.208290 11.457 0.978062 101.45
8.72770000 0.978062 101.46 0.208291 11.457 0.208291 11.457 0.978062 101.45
8.72775000 0.978062 101.46 0.208293 11.457 0.208293 11.457 0.978062 101.45
8.72780000 0.978061 101.46 0.208294 11.456 0.208294 11.456 0.978061 101.45
8.72785000 0.978061 101.46 0.208295 11.456 0.208295 11.456 0.978061 101.45
8.72790000 0.978061 101.46 0.208297 11.455 0.208297 11.455 0.978061 101.45
8.72795000 0.978060 101.46 0.208298 11.455 0.208298 11.455 0.978060 101.45
8.72800000 0.978060 101.46 0.208299 11.454 0.208299 11.454 0.978060 101.45
8.72805000 0.978060 101.46 0.208301 11.454 0.208301 11.454 0.978060 101.45
8.72810000 0.978060 101.46 0.208302 11.453 0.208302 11.453 0.978060 101.45
8.72815000 0.978059 101.46 0.208303 11.453 0.208303 11.453 0.978059 101.44
8.72820000 0.978059 101.46 0.208305 11.452 0.208305 11.452 0.978059 101.44
8.72825000 0.978059 101.46 0.208306 11.452 0.208306 11.452 0.978059 101.44
8.72830000 0.978058 101.46 0.208307 11.452 0.208307 11.452 0.978058 101.44
8.72835000 0.978058 101.46 0.208309 11.451 0.208309 11.451 0.978058 101.44
8.72840000 0.978058 101.46 0.208310 11.451 0.208310 11.451 0.978058 101.44
8.72845000 0.978058 101.46 0.208311 11.450 0.208311 11.450 0.978058 101.44
8.72850000 0.978057 101.46 0.208313 11.450 0.208313 11.450 0.978057 101.44
8.72855000 0.978057 101.46 0.208314 11.449 0.208314 11.449 0.978057 101.44
8.72860000 0.978057 101.45 0.208315 11.449 0.208315 11.449 0.978057 101.44
8.72865000 0.978056 101.45 0.208317 11.448 0.208317 11.448 0.978056 101.44
8.72870000 0.978056 101.45 0.208318 11.448 0.208318 11.448 0.978056 101.44
8.72875000 0.978056 101.45 0.208319 11.447 0.208319 11.447 0.978056 101.44
8.72880000 0.978056 101.45 0.208321 11.447 0.208321 11.447 0.978056 101.44
8.72885000 0.978055 101.45 0.208322 11.446 0.208322 11.446 0.978055 101.44
8.72890000 0.978055 101.45 0.208323 11.446 0.208323 11.446 0.978055 101.44
8.72895000 0.978055 101.45 0.208325 11.446 0.208325 11.446 0.978055 101.44
8.72900000 0.978054 101.45 0.208326 11.445 0.208326 11.445 0.978054 101.44
8.72905000 0.978054 101.45 0.208328 11.445 0.208328 11.445 0.978054 101.44
8.72910000 0.978054 101.45 0.208329 11.444 0.208329 11.444 0.978054 101.44
8.72915000 0.978054 101.45 0.208330 11.444 0.208330 11.444 0.978054 101.44
8.72920000 0.978053 101.45 0.208332 11.443 0.208332 11.443 0.978053 101.44
8.72925000 0.978053 101.45 0.208333 11.443 0.208333 11.443 0.978053 101.43
8.72930000 0.978053 101.45 0.208334 11.442 0.208334 11.442 0.978053 101.43
8.72935000 0.978052 101.45 0.208336 11.442 0.208336 11.442 0.978052 101.43
8.72940000 0.978052 101.45 0.208337 11.441 0.208337 11.441 0.978052 101.43
8.72945000 0.978052 101.45 0.208338 11.441 0.208338 11.441 0.978052 101.43
8.72950000 0.978052 101.45 0.208340 11.441 0.208340 11.441 0.978052 101.43
8.72955000 0.978051 101.45 0.208341 11.440 0.208341 11.440 0.978051 101.43
8.72960000 0.978051 101.45 0.208342 11.440 0.208342 11.440 0.978051 101.43
8.72965000 0.978051 101.45 0.208344 11.439 0.208344 11.439 0.978051 101.43
8.72970000 0.978050 101.44 0.208345 11.439 0.208345 11.439 0.978050 101.43
8.72975000 0.978050 101.44 0.208346 11.438 0.208346 11.438 0.978050 101.43
8.72980000 0.978050 101.44 0.208348 11.438 0.208348 11.438 0.978050 101.43
8.72985000 0.978050 101.44 0.208349 11.437 0.208349 11.437 0.978050 101.43
8.72990000 0.978049 101.44 0.208350 11.437 0.208350 11.437 0.978049 101.43
8.72995000 0.978049 101.44 0.208352 11.436 0.208352 11.436 0.978049 101.43
8.73000000 0.978049 101.44 0.208353 11.436 0.208353 11.436 0.978049 101.43
8.73005000 0.978048 101.44 0.208354 11.435 0.208354 11.435 0.978048 101.43
8.73010000 0.978048 101.44 0.208356 11.435 0.208356 11.435 0.978048 101.43
8.73015000 0.978048 101.44 0.208357 11.435 0.208357 11.435 0.978048 101.43
8.73020000 0.978048 101.44 0.208358 11.434 0.208358 11.434 0.978048 101.43
8.73025000 0.978047 101.44 0.208360 11.434 0.208360 11.434 0.978047 101.43
8.73030000 0.978047 101.44 0.208361 11.433 0.208361 11.433 0.978047 101.42
8.73035000 0.978047 101.44 0.208363 11.433 0.208363 11.433 0.978047 101.42
8.73040000 0.978046 101.44 0.208364 11.432 0.208364 11.432 0.978046 101.42
8.73045000 0.978046 101.44 0.208365 11.432 0.208365 11.432 0.978046 101.42
8.73050000 0.978046 101.44 0.208367 11.431 0.208367 11.431 0.978046 101.42
8.73055000 0.978046 101.44 0.208368 11.431 0.208368 11.431 0.978046 101.42
8.73060000 0.978045 101.44 0.208369 11.430 0.208369 11.430 0.978045 101.42
8.73065000 0.978045 101.44 0.208371 11.430 0.208371 11.430 0.978045 101.42
8.73070000 0.978045 101.44 0.208372 11.429 0.208372 11.429 0.978045 101.42
8.73075000 0.978044 101.44 0.208373 11.429 0.208373 11.429 0.978044 101.42
8.73080000 0.978044 101.43 0.208375 11.429 0.208375 11.429 0.978044 101.42
8.73085000 0.978044 101.43 0.208376 11.428 0.208376 11.428 0.978044 101.42
8.73090000 0.978044 101.43 0.208377 11.428 0.208377 11.428 0.978044 101.42
8.73095000 0.978043 101.43 0.208379 11.427 0.208379 11.427 0.978043 101.42
8.73100000 0.978043 101.43 0.208380 11.427 0.208380 11.427 0.978043 101.42
8.73105000 0.978043 101.43 0.208381 11.426 0.208381 11.426 0.978043 101.42
8.73110000 0.978042 101.43 0.208383 11.426 0.208383 11.426 0.978042 101.42
8.73115000 0.978042 101.43 0.208384 11.425 0.208384 11.425 0.978042 101.42
8.73120000 0.978042 101.43 0.208386 11.425 0.208386 11.425 0.978042 101.42
8.73125000 0.978041 101.43 0.208387 11.424 0.208387 11.424 0.978041 101.42
8.73130000 0.978041 101.43 0.208388 11.424 0.208388 11.424 0.978041 101.42
8.73135000 0.978041 101.43 0.208390 11.424 0.208390 11.424 0.978041 101.42
8.73140000 0.978041 101.43 0.208391 11.423 0.208391 11.423 0.978041 101.41
8.73145000 0.978040 101.43 0.208392 11.423 0.208392 11.423 0.978040 101.41
8.73150000 0.978040 101.43 0.208394 11.422 0.208394 11.422 0.978040 101.41
8.73155000 0.978040 101.43 0.208395 11.422 0.208395 11.422 0.978040 101.41
8.73160000 0.978039 101.43 0.208396 11.421 0.208396 11.421 0.978039 101.41
8.73165000 0.978039 101.43 0.208398 11.421 0.208398 11.421 0.978039 101.41
8.73170000 0.978039 101.43 0.208399 11.420 0.208399 11.420 0.978039 101.41
8.73175000 0.978039 101.43 0.208401 11.420 0.208401 11.420 0.978039 101.41
8.73180000 0.978038 101.43 0.208402 11.419 0.208402 11.419 0.978038 101.41
8.73185000 0.978038 101.43 0.208403 11.419 0.208403 11.419 0.978038 101.41
8.73190000 0.978038 101.42 0.208405 11.418 0.208405 11.418 0.978038 101.41
8.73195000 0.978037 101.42 0.208406 11.418 0.208406 11.418 0.978037 101.41
8.73200000 0.978037 101.42 0.208407 11.418 0.208407 11.418 0.978037 101.41
8.73205000 0.978037 101.42 0.208409 11.417 0.208409 11.417 0.978037 101.41
8.73210000 0.978037 101.42 0.208410 11.417 0.208410 11.417 0.978037 101.41
8.73215000 0.978036 101.42 0.208411 11.416 0.208411 11.416 0.978036 101.41
8.73220000 0.978036 101.42 0.208413 11.416 0.208413 11.416 0.978036 101.41
8.73225000 0.978036 101.42 0.208414 11.415 0.208414 11.415 0.978036 101.41
8.73230000 0.978035 101.42 0.208416 11.415 0.208416 11.415 0.978035 101.41
8.73235000 0.978035 101.42 0.208417 11.414 0.208417 11.414 0.978035 101.41
8.73240000 0.978035 101.42 0.208418 11.414 0.208418 11.414 0.978035 101.41
8.73245000 0.978034 101.42 0.208420 11.413 0.208420 11.413 0.978034 101.41
8.73250000 0.978034 101.42 0.208421 11.413 0.208421 11.413 0.978034 101.40
8.73255000 0.978034 101.42 0.208422 11.412 0.208422 11.412 0.978034 101.40
8.73260000 0.978034 101.42 0.208424 11.412 0.208424 11.412 0.978034 101.40
8.73265000 0.978033 101.42 0.208425 11.412 0.208425 11.412 0.978033 101.40
8.73270000 0.978033 101.42 0.208426 11.411 0.208426 11.411 0.978033 101.40
8.73275000 0.978033 101.42 0.208428 11.411 0.208428 11.411 0.978033 101.40
8.73280000 0.978032 101.42 0.208429 11.410 0.208429 11.410 0.978032 101.40
8.73285000 0.978032 101.42 0.208431 11.410 0.208431 11.410 0.978032 101.40
8.73290000 0.978032 101.42 0.208432 11.409 0.208432 11.409 0.978032 101.40
8.73295000 0.978032 101.41 0.208433 11.409 0.208433 11.409 0.978032 101.40
