! Sonnet Data File
! From: emgraph Version : 16.52
! From Project: Qubit_Xmon2_brg_para
! Data is De-embedded 
! Data File Written: 10/25/2017 20:11:04
!< HDATE 10/25/2017 15:55:44
!< MDATE 10/25/2017 15:55:44
!< PARAMS
!< Lj = 11.0
!< Gap = 6.0
!< Pwid = 2000.0
!< Airgap = 6.0
!< Width = 10.0
!< Bwid = 60.0
!< Dis1 = 350.0
!< Dis2 = 356.0
!< END PARAMS
# GHZ S MA R 51.80000
8.68500000 0.038703 -169.8 0.999232 -79.85 0.999232 -79.85 0.038703 -170.0
!< P1 F=8.685 Eeff=(6.44683879 -2.9786e-5) Z0=(51.7993663 1.19075e-4) R=0.0 C=0.0 
!< P2 F=8.685 Eeff=(6.44683879 -2.9786e-5) Z0=(51.7993663 1.19075e-4) R=0.0 C=0.0 
8.68500500 0.038707 -169.8 0.999232 -79.85 0.999232 -79.85 0.038707 -170.0
8.68501000 0.038711 -169.8 0.999232 -79.85 0.999232 -79.85 0.038711 -170.0
8.68501500 0.038716 -169.8 0.999232 -79.85 0.999232 -79.85 0.038716 -170.0
8.68502000 0.038720 -169.8 0.999232 -79.85 0.999232 -79.85 0.038720 -170.0
8.68502500 0.038724 -169.8 0.999232 -79.85 0.999232 -79.85 0.038724 -170.0
8.68503000 0.038728 -169.8 0.999231 -79.86 0.999231 -79.86 0.038728 -170.0
8.68503500 0.038732 -169.8 0.999231 -79.86 0.999231 -79.86 0.038732 -170.0
8.68504000 0.038736 -169.8 0.999231 -79.86 0.999231 -79.86 0.038736 -170.0
8.68504500 0.038741 -169.8 0.999231 -79.86 0.999231 -79.86 0.038740 -170.0
8.68505000 0.038745 -169.8 0.999231 -79.86 0.999231 -79.86 0.038745 -170.0
8.68505500 0.038749 -169.8 0.999230 -79.86 0.999230 -79.86 0.038749 -170.0
8.68506000 0.038753 -169.8 0.999230 -79.86 0.999230 -79.86 0.038753 -170.0
8.68506500 0.038757 -169.8 0.999230 -79.86 0.999230 -79.86 0.038757 -170.0
8.68507000 0.038761 -169.8 0.999230 -79.86 0.999230 -79.86 0.038761 -170.0
8.68507500 0.038766 -169.8 0.999230 -79.86 0.999230 -79.86 0.038765 -170.0
8.68508000 0.038770 -169.8 0.999230 -79.86 0.999230 -79.86 0.038770 -170.0
8.68508500 0.038774 -169.8 0.999229 -79.86 0.999229 -79.86 0.038774 -170.0
8.68509000 0.038778 -169.8 0.999229 -79.86 0.999229 -79.86 0.038778 -170.0
8.68509500 0.038782 -169.8 0.999229 -79.86 0.999229 -79.86 0.038782 -170.0
8.68510000 0.038787 -169.8 0.999229 -79.86 0.999229 -79.86 0.038787 -170.0
8.68510500 0.038791 -169.8 0.999229 -79.86 0.999229 -79.86 0.038791 -170.0
8.68511000 0.038795 -169.8 0.999229 -79.86 0.999229 -79.86 0.038795 -170.0
8.68511500 0.038799 -169.8 0.999228 -79.86 0.999228 -79.86 0.038799 -170.0
8.68512000 0.038804 -169.8 0.999228 -79.86 0.999228 -79.86 0.038803 -170.0
8.68512500 0.038808 -169.8 0.999228 -79.86 0.999228 -79.86 0.038808 -170.0
8.68513000 0.038812 -169.8 0.999228 -79.86 0.999228 -79.86 0.038812 -170.0
8.68513500 0.038816 -169.8 0.999228 -79.86 0.999228 -79.86 0.038816 -170.0
8.68514000 0.038821 -169.8 0.999227 -79.86 0.999227 -79.86 0.038820 -170.0
8.68514500 0.038825 -169.8 0.999227 -79.86 0.999227 -79.86 0.038825 -170.0
8.68515000 0.038829 -169.8 0.999227 -79.86 0.999227 -79.86 0.038829 -170.0
8.68515500 0.038833 -169.8 0.999227 -79.86 0.999227 -79.86 0.038833 -170.0
8.68516000 0.038838 -169.8 0.999227 -79.86 0.999227 -79.86 0.038838 -170.0
8.68516500 0.038842 -169.8 0.999226 -79.86 0.999226 -79.86 0.038842 -170.0
8.68517000 0.038846 -169.8 0.999226 -79.86 0.999226 -79.86 0.038846 -170.0
8.68517500 0.038850 -169.8 0.999226 -79.86 0.999226 -79.86 0.038850 -170.0
8.68518000 0.038855 -169.8 0.999226 -79.86 0.999226 -79.86 0.038855 -170.0
8.68518500 0.038859 -169.8 0.999226 -79.86 0.999226 -79.86 0.038859 -170.0
8.68519000 0.038863 -169.8 0.999226 -79.86 0.999226 -79.86 0.038863 -170.0
8.68519500 0.038868 -169.8 0.999225 -79.86 0.999225 -79.86 0.038868 -170.0
8.68520000 0.038872 -169.8 0.999225 -79.86 0.999225 -79.86 0.038872 -170.0
8.68520500 0.038876 -169.8 0.999225 -79.87 0.999225 -79.87 0.038876 -170.0
8.68521000 0.038881 -169.8 0.999225 -79.87 0.999225 -79.87 0.038881 -170.0
8.68521500 0.038885 -169.8 0.999225 -79.87 0.999225 -79.87 0.038885 -170.0
8.68522000 0.038889 -169.8 0.999224 -79.87 0.999224 -79.87 0.038889 -170.0
8.68522500 0.038894 -169.8 0.999224 -79.87 0.999224 -79.87 0.038894 -170.0
8.68523000 0.038898 -169.8 0.999224 -79.87 0.999224 -79.87 0.038898 -170.0
8.68523500 0.038902 -169.8 0.999224 -79.87 0.999224 -79.87 0.038902 -170.0
8.68524000 0.038907 -169.8 0.999224 -79.87 0.999224 -79.87 0.038907 -170.0
8.68524500 0.038911 -169.8 0.999224 -79.87 0.999224 -79.87 0.038911 -170.0
8.68525000 0.038915 -169.8 0.999223 -79.87 0.999223 -79.87 0.038915 -170.0
8.68525500 0.038920 -169.8 0.999223 -79.87 0.999223 -79.87 0.038920 -170.0
8.68526000 0.038924 -169.8 0.999223 -79.87 0.999223 -79.87 0.038924 -170.0
8.68526500 0.038929 -169.8 0.999223 -79.87 0.999223 -79.87 0.038928 -170.0
8.68527000 0.038933 -169.8 0.999223 -79.87 0.999223 -79.87 0.038933 -170.0
8.68527500 0.038937 -169.8 0.999222 -79.87 0.999222 -79.87 0.038937 -170.0
8.68528000 0.038942 -169.8 0.999222 -79.87 0.999222 -79.87 0.038942 -170.0
8.68528500 0.038946 -169.8 0.999222 -79.87 0.999222 -79.87 0.038946 -170.0
8.68529000 0.038951 -169.8 0.999222 -79.87 0.999222 -79.87 0.038950 -170.0
8.68529500 0.038955 -169.8 0.999222 -79.87 0.999222 -79.87 0.038955 -170.0
8.68530000 0.038959 -169.8 0.999221 -79.87 0.999221 -79.87 0.038959 -170.0
8.68530500 0.038964 -169.8 0.999221 -79.87 0.999221 -79.87 0.038964 -170.0
8.68531000 0.038968 -169.8 0.999221 -79.87 0.999221 -79.87 0.038968 -170.0
8.68531500 0.038973 -169.8 0.999221 -79.87 0.999221 -79.87 0.038973 -170.0
8.68532000 0.038977 -169.8 0.999221 -79.87 0.999221 -79.87 0.038977 -170.0
8.68532500 0.038982 -169.8 0.999220 -79.87 0.999220 -79.87 0.038981 -170.0
8.68533000 0.038986 -169.8 0.999220 -79.87 0.999220 -79.87 0.038986 -170.0
8.68533500 0.038990 -169.8 0.999220 -79.87 0.999220 -79.87 0.038990 -170.0
8.68534000 0.038995 -169.8 0.999220 -79.87 0.999220 -79.87 0.038995 -170.0
8.68534500 0.038999 -169.8 0.999220 -79.87 0.999220 -79.87 0.038999 -170.0
8.68535000 0.039004 -169.8 0.999219 -79.87 0.999219 -79.87 0.039004 -170.0
8.68535500 0.039008 -169.8 0.999219 -79.87 0.999219 -79.87 0.039008 -170.0
8.68536000 0.039013 -169.8 0.999219 -79.87 0.999219 -79.87 0.039013 -170.0
8.68536500 0.039017 -169.8 0.999219 -79.87 0.999219 -79.87 0.039017 -170.0
8.68537000 0.039022 -169.8 0.999219 -79.87 0.999219 -79.87 0.039022 -170.0
8.68537500 0.039026 -169.8 0.999219 -79.88 0.999219 -79.88 0.039026 -170.0
8.68538000 0.039031 -169.8 0.999218 -79.88 0.999218 -79.88 0.039031 -170.0
8.68538500 0.039035 -169.8 0.999218 -79.88 0.999218 -79.88 0.039035 -170.0
8.68539000 0.039040 -169.8 0.999218 -79.88 0.999218 -79.88 0.039040 -170.0
8.68539500 0.039044 -169.8 0.999218 -79.88 0.999218 -79.88 0.039044 -170.0
8.68540000 0.039049 -169.8 0.999218 -79.88 0.999218 -79.88 0.039049 -170.0
8.68540500 0.039053 -169.8 0.999217 -79.88 0.999217 -79.88 0.039053 -170.0
8.68541000 0.039058 -169.8 0.999217 -79.88 0.999217 -79.88 0.039058 -170.0
8.68541500 0.039062 -169.8 0.999217 -79.88 0.999217 -79.88 0.039062 -170.0
8.68542000 0.039067 -169.8 0.999217 -79.88 0.999217 -79.88 0.039067 -170.0
8.68542500 0.039071 -169.8 0.999217 -79.88 0.999217 -79.88 0.039071 -170.0
8.68543000 0.039076 -169.8 0.999216 -79.88 0.999216 -79.88 0.039076 -170.0
8.68543500 0.039081 -169.8 0.999216 -79.88 0.999216 -79.88 0.039080 -170.0
8.68544000 0.039085 -169.8 0.999216 -79.88 0.999216 -79.88 0.039085 -170.0
8.68544500 0.039090 -169.8 0.999216 -79.88 0.999216 -79.88 0.039090 -170.0
8.68545000 0.039094 -169.8 0.999216 -79.88 0.999216 -79.88 0.039094 -170.0
8.68545500 0.039099 -169.8 0.999215 -79.88 0.999215 -79.88 0.039099 -170.0
8.68546000 0.039103 -169.8 0.999215 -79.88 0.999215 -79.88 0.039103 -170.0
8.68546500 0.039108 -169.8 0.999215 -79.88 0.999215 -79.88 0.039108 -170.0
8.68547000 0.039113 -169.8 0.999215 -79.88 0.999215 -79.88 0.039113 -170.0
8.68547500 0.039117 -169.8 0.999215 -79.88 0.999215 -79.88 0.039117 -170.0
8.68548000 0.039122 -169.8 0.999214 -79.88 0.999214 -79.88 0.039122 -170.0
8.68548500 0.039126 -169.8 0.999214 -79.88 0.999214 -79.88 0.039126 -170.0
8.68549000 0.039131 -169.8 0.999214 -79.88 0.999214 -79.88 0.039131 -170.0
8.68549500 0.039136 -169.8 0.999214 -79.88 0.999214 -79.88 0.039136 -170.0
8.68550000 0.039140 -169.8 0.999214 -79.88 0.999214 -79.88 0.039140 -170.0
8.68550500 0.039145 -169.8 0.999213 -79.88 0.999213 -79.88 0.039145 -170.0
8.68551000 0.039150 -169.8 0.999213 -79.88 0.999213 -79.88 0.039150 -170.0
8.68551500 0.039154 -169.8 0.999213 -79.88 0.999213 -79.88 0.039154 -170.0
8.68552000 0.039159 -169.8 0.999213 -79.88 0.999213 -79.88 0.039159 -170.0
8.68552500 0.039164 -169.8 0.999213 -79.88 0.999213 -79.88 0.039164 -170.0
8.68553000 0.039168 -169.8 0.999212 -79.88 0.999212 -79.88 0.039168 -170.0
8.68553500 0.039173 -169.8 0.999212 -79.89 0.999212 -79.89 0.039173 -170.0
8.68554000 0.039178 -169.8 0.999212 -79.89 0.999212 -79.89 0.039178 -170.0
8.68554500 0.039182 -169.8 0.999212 -79.89 0.999212 -79.89 0.039182 -170.0
8.68555000 0.039187 -169.8 0.999212 -79.89 0.999212 -79.89 0.039187 -170.0
8.68555500 0.039192 -169.8 0.999211 -79.89 0.999211 -79.89 0.039192 -170.0
8.68556000 0.039196 -169.8 0.999211 -79.89 0.999211 -79.89 0.039196 -170.0
8.68556500 0.039201 -169.8 0.999211 -79.89 0.999211 -79.89 0.039201 -170.0
8.68557000 0.039206 -169.8 0.999211 -79.89 0.999211 -79.89 0.039206 -170.0
8.68557500 0.039211 -169.8 0.999210 -79.89 0.999210 -79.89 0.039210 -170.0
8.68558000 0.039215 -169.8 0.999210 -79.89 0.999210 -79.89 0.039215 -170.0
8.68558500 0.039220 -169.8 0.999210 -79.89 0.999210 -79.89 0.039220 -170.0
8.68559000 0.039225 -169.8 0.999210 -79.89 0.999210 -79.89 0.039225 -170.0
8.68559500 0.039229 -169.8 0.999210 -79.89 0.999210 -79.89 0.039229 -170.0
8.68560000 0.039234 -169.8 0.999209 -79.89 0.999209 -79.89 0.039234 -170.0
8.68560500 0.039239 -169.8 0.999209 -79.89 0.999209 -79.89 0.039239 -170.0
8.68561000 0.039244 -169.8 0.999209 -79.89 0.999209 -79.89 0.039244 -170.0
8.68561500 0.039248 -169.8 0.999209 -79.89 0.999209 -79.89 0.039248 -170.0
8.68562000 0.039253 -169.8 0.999209 -79.89 0.999209 -79.89 0.039253 -170.0
8.68562500 0.039258 -169.8 0.999208 -79.89 0.999208 -79.89 0.039258 -170.0
8.68563000 0.039263 -169.8 0.999208 -79.89 0.999208 -79.89 0.039263 -170.0
8.68563500 0.039268 -169.8 0.999208 -79.89 0.999208 -79.89 0.039267 -170.0
8.68564000 0.039272 -169.8 0.999208 -79.89 0.999208 -79.89 0.039272 -170.0
8.68564500 0.039277 -169.8 0.999208 -79.89 0.999208 -79.89 0.039277 -170.0
8.68565000 0.039282 -169.8 0.999207 -79.89 0.999207 -79.89 0.039282 -170.0
8.68565500 0.039287 -169.8 0.999207 -79.89 0.999207 -79.89 0.039287 -170.0
8.68566000 0.039292 -169.8 0.999207 -79.89 0.999207 -79.89 0.039291 -170.0
8.68566500 0.039296 -169.8 0.999207 -79.89 0.999207 -79.89 0.039296 -170.0
8.68567000 0.039301 -169.8 0.999207 -79.89 0.999207 -79.89 0.039301 -170.0
8.68567500 0.039306 -169.8 0.999206 -79.89 0.999206 -79.89 0.039306 -170.1
8.68568000 0.039311 -169.8 0.999206 -79.89 0.999206 -79.89 0.039311 -170.1
8.68568500 0.039316 -169.8 0.999206 -79.89 0.999206 -79.89 0.039316 -170.1
8.68569000 0.039321 -169.8 0.999206 -79.89 0.999206 -79.89 0.039320 -170.1
8.68569500 0.039325 -169.8 0.999205 -79.90 0.999205 -79.90 0.039325 -170.1
8.68570000 0.039330 -169.8 0.999205 -79.90 0.999205 -79.90 0.039330 -170.1
8.68570500 0.039335 -169.8 0.999205 -79.90 0.999205 -79.90 0.039335 -170.1
8.68571000 0.039340 -169.8 0.999205 -79.90 0.999205 -79.90 0.039340 -170.1
8.68571500 0.039345 -169.8 0.999205 -79.90 0.999205 -79.90 0.039345 -170.1
8.68572000 0.039350 -169.8 0.999204 -79.90 0.999204 -79.90 0.039350 -170.1
8.68572500 0.039355 -169.8 0.999204 -79.90 0.999204 -79.90 0.039355 -170.1
8.68573000 0.039360 -169.8 0.999204 -79.90 0.999204 -79.90 0.039359 -170.1
8.68573500 0.039364 -169.8 0.999204 -79.90 0.999204 -79.90 0.039364 -170.1
8.68574000 0.039369 -169.8 0.999204 -79.90 0.999204 -79.90 0.039369 -170.1
8.68574500 0.039374 -169.8 0.999203 -79.90 0.999203 -79.90 0.039374 -170.1
8.68575000 0.039379 -169.8 0.999203 -79.90 0.999203 -79.90 0.039379 -170.1
8.68575500 0.039384 -169.8 0.999203 -79.90 0.999203 -79.90 0.039384 -170.1
8.68576000 0.039389 -169.8 0.999203 -79.90 0.999203 -79.90 0.039389 -170.1
8.68576500 0.039394 -169.8 0.999202 -79.90 0.999202 -79.90 0.039394 -170.1
8.68577000 0.039399 -169.8 0.999202 -79.90 0.999202 -79.90 0.039399 -170.1
8.68577500 0.039404 -169.8 0.999202 -79.90 0.999202 -79.90 0.039404 -170.1
8.68578000 0.039409 -169.8 0.999202 -79.90 0.999202 -79.90 0.039409 -170.1
8.68578500 0.039414 -169.8 0.999202 -79.90 0.999202 -79.90 0.039414 -170.1
8.68579000 0.039419 -169.8 0.999201 -79.90 0.999201 -79.90 0.039419 -170.1
8.68579500 0.039424 -169.8 0.999201 -79.90 0.999201 -79.90 0.039424 -170.1
8.68580000 0.039429 -169.8 0.999201 -79.90 0.999201 -79.90 0.039429 -170.1
8.68580500 0.039434 -169.8 0.999201 -79.90 0.999201 -79.90 0.039434 -170.1
8.68581000 0.039439 -169.8 0.999200 -79.90 0.999200 -79.90 0.039439 -170.1
8.68581500 0.039444 -169.8 0.999200 -79.90 0.999200 -79.90 0.039444 -170.1
8.68582000 0.039449 -169.8 0.999200 -79.90 0.999200 -79.90 0.039449 -170.1
8.68582500 0.039454 -169.8 0.999200 -79.90 0.999200 -79.90 0.039454 -170.1
8.68583000 0.039459 -169.8 0.999200 -79.90 0.999200 -79.90 0.039459 -170.1
8.68583500 0.039464 -169.8 0.999199 -79.90 0.999199 -79.90 0.039464 -170.1
8.68584000 0.039469 -169.8 0.999199 -79.90 0.999199 -79.90 0.039469 -170.1
8.68584500 0.039474 -169.8 0.999199 -79.91 0.999199 -79.91 0.039474 -170.1
8.68585000 0.039479 -169.8 0.999199 -79.91 0.999199 -79.91 0.039479 -170.1
8.68585500 0.039484 -169.8 0.999198 -79.91 0.999198 -79.91 0.039484 -170.1
8.68586000 0.039489 -169.8 0.999198 -79.91 0.999198 -79.91 0.039489 -170.1
8.68586500 0.039494 -169.8 0.999198 -79.91 0.999198 -79.91 0.039494 -170.1
8.68587000 0.039499 -169.8 0.999198 -79.91 0.999198 -79.91 0.039499 -170.1
8.68587500 0.039504 -169.8 0.999198 -79.91 0.999198 -79.91 0.039504 -170.1
8.68588000 0.039509 -169.8 0.999197 -79.91 0.999197 -79.91 0.039509 -170.1
8.68588500 0.039514 -169.8 0.999197 -79.91 0.999197 -79.91 0.039514 -170.1
8.68589000 0.039520 -169.8 0.999197 -79.91 0.999197 -79.91 0.039519 -170.1
8.68589500 0.039525 -169.8 0.999197 -79.91 0.999197 -79.91 0.039525 -170.1
8.68590000 0.039530 -169.8 0.999196 -79.91 0.999196 -79.91 0.039530 -170.1
8.68590500 0.039535 -169.8 0.999196 -79.91 0.999196 -79.91 0.039535 -170.1
8.68591000 0.039540 -169.8 0.999196 -79.91 0.999196 -79.91 0.039540 -170.1
8.68591500 0.039545 -169.8 0.999196 -79.91 0.999196 -79.91 0.039545 -170.1
8.68592000 0.039550 -169.8 0.999196 -79.91 0.999196 -79.91 0.039550 -170.1
8.68592500 0.039555 -169.8 0.999195 -79.91 0.999195 -79.91 0.039555 -170.1
8.68593000 0.039561 -169.8 0.999195 -79.91 0.999195 -79.91 0.039560 -170.1
8.68593500 0.039566 -169.8 0.999195 -79.91 0.999195 -79.91 0.039566 -170.1
8.68594000 0.039571 -169.8 0.999195 -79.91 0.999195 -79.91 0.039571 -170.1
8.68594500 0.039576 -169.8 0.999194 -79.91 0.999194 -79.91 0.039576 -170.1
8.68595000 0.039581 -169.8 0.999194 -79.91 0.999194 -79.91 0.039581 -170.1
8.68595500 0.039586 -169.8 0.999194 -79.91 0.999194 -79.91 0.039586 -170.1
8.68596000 0.039592 -169.8 0.999194 -79.91 0.999194 -79.91 0.039592 -170.1
8.68596500 0.039597 -169.8 0.999193 -79.91 0.999193 -79.91 0.039597 -170.1
8.68597000 0.039602 -169.8 0.999193 -79.91 0.999193 -79.91 0.039602 -170.1
8.68597500 0.039607 -169.8 0.999193 -79.91 0.999193 -79.91 0.039607 -170.1
8.68598000 0.039612 -169.8 0.999193 -79.91 0.999193 -79.91 0.039612 -170.1
8.68598500 0.039618 -169.8 0.999193 -79.91 0.999193 -79.91 0.039618 -170.1
8.68599000 0.039623 -169.8 0.999192 -79.91 0.999192 -79.91 0.039623 -170.1
8.68599500 0.039628 -169.8 0.999192 -79.92 0.999192 -79.92 0.039628 -170.1
8.68600000 0.039633 -169.8 0.999192 -79.92 0.999192 -79.92 0.039633 -170.1
8.68600500 0.039639 -169.8 0.999192 -79.92 0.999192 -79.92 0.039639 -170.1
8.68601000 0.039644 -169.8 0.999191 -79.92 0.999191 -79.92 0.039644 -170.1
8.68601500 0.039649 -169.8 0.999191 -79.92 0.999191 -79.92 0.039649 -170.1
8.68602000 0.039654 -169.8 0.999191 -79.92 0.999191 -79.92 0.039654 -170.1
8.68602500 0.039660 -169.8 0.999191 -79.92 0.999191 -79.92 0.039660 -170.1
8.68603000 0.039665 -169.8 0.999190 -79.92 0.999190 -79.92 0.039665 -170.1
8.68603500 0.039670 -169.8 0.999190 -79.92 0.999190 -79.92 0.039670 -170.1
8.68604000 0.039676 -169.8 0.999190 -79.92 0.999190 -79.92 0.039675 -170.1
8.68604500 0.039681 -169.8 0.999190 -79.92 0.999190 -79.92 0.039681 -170.1
8.68605000 0.039686 -169.8 0.999190 -79.92 0.999190 -79.92 0.039686 -170.1
8.68605500 0.039691 -169.8 0.999189 -79.92 0.999189 -79.92 0.039691 -170.1
8.68606000 0.039697 -169.8 0.999189 -79.92 0.999189 -79.92 0.039697 -170.1
8.68606500 0.039702 -169.8 0.999189 -79.92 0.999189 -79.92 0.039702 -170.1
8.68607000 0.039707 -169.8 0.999189 -79.92 0.999189 -79.92 0.039707 -170.1
8.68607500 0.039713 -169.8 0.999188 -79.92 0.999188 -79.92 0.039713 -170.1
8.68608000 0.039718 -169.8 0.999188 -79.92 0.999188 -79.92 0.039718 -170.1
8.68608500 0.039724 -169.8 0.999188 -79.92 0.999188 -79.92 0.039723 -170.1
8.68609000 0.039729 -169.8 0.999188 -79.92 0.999188 -79.92 0.039729 -170.1
8.68609500 0.039734 -169.8 0.999187 -79.92 0.999187 -79.92 0.039734 -170.1
8.68610000 0.039740 -169.8 0.999187 -79.92 0.999187 -79.92 0.039740 -170.1
8.68610500 0.039745 -169.8 0.999187 -79.92 0.999187 -79.92 0.039745 -170.1
8.68611000 0.039750 -169.8 0.999187 -79.92 0.999187 -79.92 0.039750 -170.1
8.68611500 0.039756 -169.8 0.999186 -79.92 0.999186 -79.92 0.039756 -170.1
8.68612000 0.039761 -169.8 0.999186 -79.92 0.999186 -79.92 0.039761 -170.1
8.68612500 0.039767 -169.8 0.999186 -79.92 0.999186 -79.92 0.039767 -170.1
8.68613000 0.039772 -169.8 0.999186 -79.92 0.999186 -79.92 0.039772 -170.1
8.68613500 0.039777 -169.8 0.999185 -79.93 0.999185 -79.93 0.039777 -170.1
8.68614000 0.039783 -169.8 0.999185 -79.93 0.999185 -79.93 0.039783 -170.1
8.68614500 0.039788 -169.8 0.999185 -79.93 0.999185 -79.93 0.039788 -170.1
8.68615000 0.039794 -169.8 0.999185 -79.93 0.999185 -79.93 0.039794 -170.1
8.68615500 0.039799 -169.8 0.999184 -79.93 0.999184 -79.93 0.039799 -170.1
8.68616000 0.039805 -169.8 0.999184 -79.93 0.999184 -79.93 0.039805 -170.1
8.68616500 0.039810 -169.8 0.999184 -79.93 0.999184 -79.93 0.039810 -170.1
8.68617000 0.039816 -169.8 0.999184 -79.93 0.999184 -79.93 0.039816 -170.1
8.68617500 0.039821 -169.8 0.999184 -79.93 0.999184 -79.93 0.039821 -170.1
8.68618000 0.039827 -169.8 0.999183 -79.93 0.999183 -79.93 0.039827 -170.1
8.68618500 0.039832 -169.8 0.999183 -79.93 0.999183 -79.93 0.039832 -170.1
8.68619000 0.039838 -169.8 0.999183 -79.93 0.999183 -79.93 0.039838 -170.1
8.68619500 0.039843 -169.8 0.999183 -79.93 0.999183 -79.93 0.039843 -170.1
8.68620000 0.039849 -169.8 0.999182 -79.93 0.999182 -79.93 0.039849 -170.1
8.68620500 0.039854 -169.8 0.999182 -79.93 0.999182 -79.93 0.039854 -170.1
8.68621000 0.039860 -169.8 0.999182 -79.93 0.999182 -79.93 0.039860 -170.1
8.68621500 0.039865 -169.8 0.999182 -79.93 0.999182 -79.93 0.039865 -170.1
8.68622000 0.039871 -169.8 0.999181 -79.93 0.999181 -79.93 0.039871 -170.1
8.68622500 0.039876 -169.8 0.999181 -79.93 0.999181 -79.93 0.039876 -170.1
8.68623000 0.039882 -169.8 0.999181 -79.93 0.999181 -79.93 0.039882 -170.1
8.68623500 0.039888 -169.8 0.999181 -79.93 0.999181 -79.93 0.039887 -170.1
8.68624000 0.039893 -169.8 0.999180 -79.93 0.999180 -79.93 0.039893 -170.1
8.68624500 0.039899 -169.8 0.999180 -79.93 0.999180 -79.93 0.039899 -170.1
8.68625000 0.039904 -169.8 0.999180 -79.93 0.999180 -79.93 0.039904 -170.1
8.68625500 0.039910 -169.8 0.999180 -79.93 0.999180 -79.93 0.039910 -170.1
8.68626000 0.039915 -169.8 0.999179 -79.93 0.999179 -79.93 0.039915 -170.1
8.68626500 0.039921 -169.8 0.999179 -79.93 0.999179 -79.93 0.039921 -170.1
8.68627000 0.039927 -169.8 0.999179 -79.93 0.999179 -79.93 0.039927 -170.1
8.68627500 0.039932 -169.8 0.999179 -79.94 0.999179 -79.94 0.039932 -170.1
8.68628000 0.039938 -169.8 0.999178 -79.94 0.999178 -79.94 0.039938 -170.1
8.68628500 0.039944 -169.8 0.999178 -79.94 0.999178 -79.94 0.039944 -170.1
8.68629000 0.039949 -169.8 0.999178 -79.94 0.999178 -79.94 0.039949 -170.1
