! Sonnet Data File
! From: emgraph Version : 16.52
! From Project: Qubit_Xmon2_brg_para
! Data is De-embedded 
! Data File Written: 10/25/2017 15:52:26
!< HDATE 10/25/2017 13:56:11
!< MDATE 10/25/2017 13:56:11
!< PARAMS
!< Lj = 11.0
!< Gap = 6.0
!< Pwid = 2000.0
!< Airgap = 6.0
!< Width = 10.0
!< Bwid = 8.0
!< Dis1 = 650.0
!< Dis2 = 656.0
!< END PARAMS
# GHZ S MA R 51.80000
8.76000000 0.003880 -169.8 0.999988 -80.40 0.999988 -80.40 0.003880 -171.0
!< P1 F=8.76 Eeff=(6.44679147 -2.9786e-5) Z0=(51.7991429 1.19067e-4) R=0.0 C=0.0 
!< P2 F=8.76 Eeff=(6.44679147 -2.9786e-5) Z0=(51.7991429 1.19067e-4) R=0.0 C=0.0 
8.76002000 0.003881 -169.8 0.999988 -80.40 0.999988 -80.40 0.003881 -171.0
8.76004000 0.003882 -169.8 0.999988 -80.40 0.999988 -80.40 0.003882 -171.0
8.76006000 0.003884 -169.8 0.999988 -80.40 0.999988 -80.40 0.003884 -171.0
8.76008000 0.003885 -169.8 0.999988 -80.40 0.999988 -80.40 0.003885 -171.0
8.76010000 0.003886 -169.8 0.999988 -80.40 0.999988 -80.40 0.003886 -171.0
8.76012000 0.003887 -169.8 0.999988 -80.40 0.999988 -80.40 0.003887 -171.0
8.76014000 0.003888 -169.8 0.999988 -80.40 0.999988 -80.40 0.003888 -171.0
8.76016000 0.003889 -169.8 0.999988 -80.40 0.999988 -80.40 0.003889 -171.0
8.76018000 0.003890 -169.8 0.999988 -80.40 0.999988 -80.40 0.003890 -171.0
8.76020000 0.003892 -169.8 0.999988 -80.40 0.999988 -80.40 0.003892 -171.0
8.76022000 0.003893 -169.8 0.999988 -80.40 0.999988 -80.40 0.003893 -171.0
8.76024000 0.003894 -169.8 0.999988 -80.40 0.999988 -80.40 0.003894 -171.0
8.76026000 0.003895 -169.8 0.999988 -80.40 0.999988 -80.40 0.003895 -171.0
8.76028000 0.003896 -169.8 0.999988 -80.40 0.999988 -80.40 0.003896 -171.0
8.76030000 0.003897 -169.8 0.999988 -80.40 0.999988 -80.40 0.003897 -171.0
8.76032000 0.003898 -169.8 0.999988 -80.40 0.999988 -80.40 0.003898 -171.0
8.76034000 0.003900 -169.8 0.999988 -80.40 0.999988 -80.40 0.003900 -171.0
8.76036000 0.003901 -169.8 0.999988 -80.40 0.999988 -80.40 0.003901 -171.1
8.76038000 0.003902 -169.8 0.999988 -80.40 0.999988 -80.40 0.003902 -171.1
8.76040000 0.003903 -169.8 0.999988 -80.40 0.999988 -80.40 0.003903 -171.1
8.76042000 0.003904 -169.8 0.999988 -80.40 0.999988 -80.40 0.003904 -171.1
8.76044000 0.003905 -169.8 0.999988 -80.40 0.999988 -80.40 0.003905 -171.1
8.76046000 0.003906 -169.8 0.999988 -80.40 0.999988 -80.40 0.003907 -171.1
8.76048000 0.003908 -169.8 0.999988 -80.40 0.999988 -80.40 0.003908 -171.1
8.76050000 0.003909 -169.8 0.999988 -80.40 0.999988 -80.40 0.003909 -171.1
8.76052000 0.003910 -169.8 0.999988 -80.40 0.999988 -80.40 0.003910 -171.1
8.76054000 0.003911 -169.8 0.999988 -80.40 0.999988 -80.40 0.003911 -171.1
8.76056000 0.003912 -169.8 0.999988 -80.40 0.999988 -80.40 0.003912 -171.1
8.76058000 0.003913 -169.8 0.999988 -80.40 0.999988 -80.40 0.003913 -171.1
8.76060000 0.003915 -169.8 0.999988 -80.40 0.999988 -80.40 0.003915 -171.1
8.76062000 0.003916 -169.8 0.999988 -80.40 0.999988 -80.40 0.003916 -171.1
8.76064000 0.003917 -169.9 0.999988 -80.40 0.999988 -80.40 0.003917 -171.1
8.76066000 0.003918 -169.9 0.999988 -80.40 0.999988 -80.40 0.003918 -171.1
8.76068000 0.003919 -169.9 0.999988 -80.40 0.999988 -80.40 0.003919 -171.1
8.76070000 0.003920 -169.9 0.999988 -80.40 0.999988 -80.40 0.003921 -171.1
8.76072000 0.003922 -169.9 0.999988 -80.40 0.999988 -80.40 0.003922 -171.1
8.76074000 0.003923 -169.9 0.999988 -80.40 0.999988 -80.40 0.003923 -171.1
8.76076000 0.003924 -169.9 0.999988 -80.41 0.999988 -80.41 0.003924 -171.1
8.76078000 0.003925 -169.9 0.999988 -80.41 0.999988 -80.41 0.003925 -171.1
8.76080000 0.003926 -169.9 0.999988 -80.41 0.999988 -80.41 0.003926 -171.1
8.76082000 0.003928 -169.9 0.999988 -80.41 0.999988 -80.41 0.003928 -171.1
8.76084000 0.003929 -169.9 0.999988 -80.41 0.999988 -80.41 0.003929 -171.1
8.76086000 0.003930 -169.9 0.999988 -80.41 0.999988 -80.41 0.003930 -171.1
8.76088000 0.003931 -169.9 0.999988 -80.41 0.999988 -80.41 0.003931 -171.1
8.76090000 0.003932 -169.9 0.999988 -80.41 0.999988 -80.41 0.003932 -171.1
8.76092000 0.003933 -169.9 0.999988 -80.41 0.999988 -80.41 0.003934 -171.1
8.76094000 0.003935 -169.9 0.999988 -80.41 0.999988 -80.41 0.003935 -171.1
8.76096000 0.003936 -169.9 0.999988 -80.41 0.999988 -80.41 0.003936 -171.1
8.76098000 0.003937 -169.9 0.999988 -80.41 0.999988 -80.41 0.003937 -171.1
8.76100000 0.003938 -169.9 0.999988 -80.41 0.999988 -80.41 0.003938 -171.1
8.76102000 0.003939 -169.9 0.999988 -80.41 0.999988 -80.41 0.003939 -171.1
8.76104000 0.003941 -169.9 0.999988 -80.41 0.999988 -80.41 0.003941 -171.1
8.76106000 0.003942 -169.9 0.999988 -80.41 0.999988 -80.41 0.003942 -171.1
8.76108000 0.003943 -169.9 0.999988 -80.41 0.999988 -80.41 0.003943 -171.1
8.76110000 0.003944 -169.9 0.999988 -80.41 0.999988 -80.41 0.003944 -171.1
8.76112000 0.003945 -169.9 0.999988 -80.41 0.999988 -80.41 0.003945 -171.1
8.76114000 0.003947 -169.9 0.999988 -80.41 0.999988 -80.41 0.003947 -171.1
8.76116000 0.003948 -169.9 0.999988 -80.41 0.999988 -80.41 0.003948 -171.1
8.76118000 0.003949 -169.9 0.999988 -80.41 0.999988 -80.41 0.003949 -171.1
8.76120000 0.003950 -169.9 0.999988 -80.41 0.999988 -80.41 0.003950 -171.1
8.76122000 0.003951 -169.9 0.999988 -80.41 0.999988 -80.41 0.003952 -171.1
8.76124000 0.003953 -169.9 0.999988 -80.41 0.999988 -80.41 0.003953 -171.1
8.76126000 0.003954 -169.9 0.999988 -80.41 0.999988 -80.41 0.003954 -171.1
8.76128000 0.003955 -169.9 0.999988 -80.41 0.999988 -80.41 0.003955 -171.1
8.76130000 0.003956 -169.9 0.999988 -80.41 0.999988 -80.41 0.003956 -171.1
8.76132000 0.003958 -169.9 0.999988 -80.41 0.999988 -80.41 0.003958 -171.1
8.76134000 0.003959 -169.9 0.999988 -80.41 0.999988 -80.41 0.003959 -171.1
8.76136000 0.003960 -169.9 0.999988 -80.41 0.999988 -80.41 0.003960 -171.1
8.76138000 0.003961 -169.9 0.999988 -80.41 0.999988 -80.41 0.003961 -171.1
8.76140000 0.003962 -169.9 0.999988 -80.41 0.999988 -80.41 0.003962 -171.1
8.76142000 0.003964 -169.9 0.999988 -80.41 0.999988 -80.41 0.003964 -171.1
8.76144000 0.003965 -169.9 0.999988 -80.41 0.999988 -80.41 0.003965 -171.1
8.76146000 0.003966 -169.9 0.999988 -80.41 0.999988 -80.41 0.003966 -171.1
8.76148000 0.003967 -169.9 0.999988 -80.41 0.999988 -80.41 0.003967 -171.1
8.76150000 0.003969 -169.9 0.999988 -80.41 0.999988 -80.41 0.003969 -171.1
8.76152000 0.003970 -169.9 0.999988 -80.41 0.999988 -80.41 0.003970 -171.1
8.76154000 0.003971 -169.9 0.999988 -80.41 0.999988 -80.41 0.003971 -171.1
8.76156000 0.003972 -169.9 0.999988 -80.42 0.999988 -80.42 0.003972 -171.1
8.76158000 0.003973 -169.9 0.999988 -80.42 0.999988 -80.42 0.003974 -171.1
8.76160000 0.003975 -169.9 0.999988 -80.42 0.999988 -80.42 0.003975 -171.1
8.76162000 0.003976 -169.9 0.999988 -80.42 0.999988 -80.42 0.003976 -171.1
8.76164000 0.003977 -169.9 0.999988 -80.42 0.999988 -80.42 0.003977 -171.1
8.76166000 0.003978 -169.9 0.999988 -80.42 0.999988 -80.42 0.003978 -171.1
8.76168000 0.003980 -169.9 0.999988 -80.42 0.999988 -80.42 0.003980 -171.1
8.76170000 0.003981 -169.9 0.999988 -80.42 0.999988 -80.42 0.003981 -171.1
8.76172000 0.003982 -169.9 0.999988 -80.42 0.999988 -80.42 0.003982 -171.1
8.76174000 0.003983 -169.9 0.999988 -80.42 0.999988 -80.42 0.003983 -171.1
8.76176000 0.003985 -169.9 0.999988 -80.42 0.999988 -80.42 0.003985 -171.1
8.76178000 0.003986 -169.9 0.999988 -80.42 0.999988 -80.42 0.003986 -171.1
8.76180000 0.003987 -169.9 0.999988 -80.42 0.999988 -80.42 0.003987 -171.1
8.76182000 0.003988 -169.9 0.999988 -80.42 0.999988 -80.42 0.003988 -171.1
8.76184000 0.003990 -169.9 0.999988 -80.42 0.999988 -80.42 0.003990 -171.1
8.76186000 0.003991 -169.9 0.999988 -80.42 0.999988 -80.42 0.003991 -171.1
8.76188000 0.003992 -169.9 0.999988 -80.42 0.999988 -80.42 0.003992 -171.1
8.76190000 0.003993 -169.9 0.999988 -80.42 0.999988 -80.42 0.003993 -171.1
8.76192000 0.003995 -169.9 0.999988 -80.42 0.999988 -80.42 0.003995 -171.1
8.76194000 0.003996 -169.9 0.999988 -80.42 0.999988 -80.42 0.003996 -171.1
8.76196000 0.003997 -169.9 0.999988 -80.42 0.999988 -80.42 0.003997 -171.1
8.76198000 0.003998 -169.9 0.999988 -80.42 0.999988 -80.42 0.003999 -171.1
8.76200000 0.004000 -169.9 0.999988 -80.42 0.999988 -80.42 0.004000 -171.1
8.76202000 0.004001 -169.9 0.999988 -80.42 0.999988 -80.42 0.004001 -171.1
8.76204000 0.004002 -169.9 0.999988 -80.42 0.999988 -80.42 0.004002 -171.1
8.76206000 0.004004 -169.9 0.999988 -80.42 0.999988 -80.42 0.004004 -171.1
8.76208000 0.004005 -169.9 0.999988 -80.42 0.999988 -80.42 0.004005 -171.1
8.76210000 0.004006 -169.9 0.999988 -80.42 0.999988 -80.42 0.004006 -171.1
8.76212000 0.004007 -169.9 0.999988 -80.42 0.999988 -80.42 0.004007 -171.1
8.76214000 0.004009 -169.9 0.999988 -80.42 0.999988 -80.42 0.004009 -171.1
8.76216000 0.004010 -169.9 0.999988 -80.42 0.999988 -80.42 0.004010 -171.1
8.76218000 0.004011 -169.9 0.999988 -80.42 0.999988 -80.42 0.004011 -171.1
8.76220000 0.004012 -169.9 0.999988 -80.42 0.999988 -80.42 0.004013 -171.1
8.76222000 0.004014 -169.9 0.999988 -80.42 0.999988 -80.42 0.004014 -171.1
8.76224000 0.004015 -169.9 0.999988 -80.42 0.999988 -80.42 0.004015 -171.1
8.76226000 0.004016 -169.9 0.999987 -80.42 0.999987 -80.42 0.004016 -171.1
8.76228000 0.004018 -169.9 0.999987 -80.42 0.999987 -80.42 0.004018 -171.1
8.76230000 0.004019 -169.9 0.999987 -80.42 0.999987 -80.42 0.004019 -171.1
8.76232000 0.004020 -169.9 0.999987 -80.42 0.999987 -80.42 0.004020 -171.1
8.76234000 0.004021 -169.9 0.999987 -80.43 0.999987 -80.43 0.004022 -171.1
8.76236000 0.004023 -169.9 0.999987 -80.43 0.999987 -80.43 0.004023 -171.1
8.76238000 0.004024 -169.9 0.999987 -80.43 0.999987 -80.43 0.004024 -171.1
8.76240000 0.004025 -169.9 0.999987 -80.43 0.999987 -80.43 0.004025 -171.1
8.76242000 0.004027 -169.9 0.999987 -80.43 0.999987 -80.43 0.004027 -171.1
8.76244000 0.004028 -169.9 0.999987 -80.43 0.999987 -80.43 0.004028 -171.1
8.76246000 0.004029 -169.9 0.999987 -80.43 0.999987 -80.43 0.004029 -171.1
8.76248000 0.004031 -169.9 0.999987 -80.43 0.999987 -80.43 0.004031 -171.1
8.76250000 0.004032 -169.9 0.999987 -80.43 0.999987 -80.43 0.004032 -171.1
8.76252000 0.004033 -169.9 0.999987 -80.43 0.999987 -80.43 0.004033 -171.1
8.76254000 0.004034 -169.9 0.999987 -80.43 0.999987 -80.43 0.004035 -171.1
8.76256000 0.004036 -169.9 0.999987 -80.43 0.999987 -80.43 0.004036 -171.1
8.76258000 0.004037 -169.9 0.999987 -80.43 0.999987 -80.43 0.004037 -171.1
8.76260000 0.004038 -169.9 0.999987 -80.43 0.999987 -80.43 0.004038 -171.1
8.76262000 0.004040 -169.9 0.999987 -80.43 0.999987 -80.43 0.004040 -171.1
8.76264000 0.004041 -169.9 0.999987 -80.43 0.999987 -80.43 0.004041 -171.1
8.76266000 0.004042 -169.9 0.999987 -80.43 0.999987 -80.43 0.004042 -171.1
8.76268000 0.004044 -169.9 0.999987 -80.43 0.999987 -80.43 0.004044 -171.1
8.76270000 0.004045 -169.9 0.999987 -80.43 0.999987 -80.43 0.004045 -171.1
8.76272000 0.004046 -169.9 0.999987 -80.43 0.999987 -80.43 0.004046 -171.1
8.76274000 0.004048 -169.9 0.999987 -80.43 0.999987 -80.43 0.004048 -171.1
8.76276000 0.004049 -169.9 0.999987 -80.43 0.999987 -80.43 0.004049 -171.1
8.76278000 0.004050 -169.9 0.999987 -80.43 0.999987 -80.43 0.004050 -171.1
8.76280000 0.004052 -169.9 0.999987 -80.43 0.999987 -80.43 0.004052 -171.1
8.76282000 0.004053 -169.9 0.999987 -80.43 0.999987 -80.43 0.004053 -171.1
8.76284000 0.004054 -169.9 0.999987 -80.43 0.999987 -80.43 0.004054 -171.1
8.76286000 0.004056 -169.9 0.999987 -80.43 0.999987 -80.43 0.004056 -171.1
8.76288000 0.004057 -169.9 0.999987 -80.43 0.999987 -80.43 0.004057 -171.1
8.76290000 0.004058 -169.9 0.999987 -80.43 0.999987 -80.43 0.004058 -171.1
8.76292000 0.004060 -169.9 0.999987 -80.43 0.999987 -80.43 0.004060 -171.1
8.76294000 0.004061 -169.9 0.999987 -80.43 0.999987 -80.43 0.004061 -171.1
8.76296000 0.004062 -169.9 0.999987 -80.43 0.999987 -80.43 0.004062 -171.1
8.76298000 0.004064 -169.9 0.999987 -80.43 0.999987 -80.43 0.004064 -171.1
8.76300000 0.004065 -169.9 0.999987 -80.43 0.999987 -80.43 0.004065 -171.1
8.76302000 0.004066 -169.9 0.999987 -80.43 0.999987 -80.43 0.004066 -171.1
8.76304000 0.004068 -169.9 0.999987 -80.43 0.999987 -80.43 0.004068 -171.1
8.76306000 0.004069 -169.9 0.999987 -80.43 0.999987 -80.43 0.004069 -171.1
8.76308000 0.004070 -169.9 0.999987 -80.43 0.999987 -80.43 0.004070 -171.1
8.76310000 0.004072 -169.9 0.999987 -80.43 0.999987 -80.43 0.004072 -171.1
8.76312000 0.004073 -169.9 0.999987 -80.44 0.999987 -80.44 0.004073 -171.1
8.76314000 0.004074 -169.9 0.999987 -80.44 0.999987 -80.44 0.004074 -171.1
8.76316000 0.004076 -169.9 0.999987 -80.44 0.999987 -80.44 0.004076 -171.1
8.76318000 0.004077 -169.9 0.999987 -80.44 0.999987 -80.44 0.004077 -171.1
8.76320000 0.004079 -169.9 0.999987 -80.44 0.999987 -80.44 0.004079 -171.1
8.76322000 0.004080 -169.9 0.999987 -80.44 0.999987 -80.44 0.004080 -171.1
8.76324000 0.004081 -169.9 0.999987 -80.44 0.999987 -80.44 0.004081 -171.1
8.76326000 0.004083 -169.9 0.999987 -80.44 0.999987 -80.44 0.004083 -171.1
8.76328000 0.004084 -169.9 0.999987 -80.44 0.999987 -80.44 0.004084 -171.1
8.76330000 0.004085 -169.9 0.999987 -80.44 0.999987 -80.44 0.004085 -171.1
8.76332000 0.004087 -169.9 0.999987 -80.44 0.999987 -80.44 0.004087 -171.1
8.76334000 0.004088 -169.9 0.999987 -80.44 0.999987 -80.44 0.004088 -171.1
8.76336000 0.004089 -169.9 0.999987 -80.44 0.999987 -80.44 0.004090 -171.1
8.76338000 0.004091 -169.9 0.999987 -80.44 0.999987 -80.44 0.004091 -171.1
8.76340000 0.004092 -169.9 0.999987 -80.44 0.999987 -80.44 0.004092 -171.1
8.76342000 0.004094 -169.9 0.999987 -80.44 0.999987 -80.44 0.004094 -171.1
8.76344000 0.004095 -169.9 0.999987 -80.44 0.999987 -80.44 0.004095 -171.1
8.76346000 0.004096 -169.9 0.999987 -80.44 0.999987 -80.44 0.004096 -171.1
8.76348000 0.004098 -169.9 0.999987 -80.44 0.999987 -80.44 0.004098 -171.1
8.76350000 0.004099 -169.9 0.999987 -80.44 0.999987 -80.44 0.004099 -171.1
8.76352000 0.004101 -169.9 0.999987 -80.44 0.999987 -80.44 0.004101 -171.1
8.76354000 0.004102 -169.9 0.999987 -80.44 0.999987 -80.44 0.004102 -171.1
8.76356000 0.004103 -169.9 0.999987 -80.44 0.999987 -80.44 0.004103 -171.1
8.76358000 0.004105 -169.9 0.999987 -80.44 0.999987 -80.44 0.004105 -171.1
8.76360000 0.004106 -169.9 0.999987 -80.44 0.999987 -80.44 0.004106 -171.1
8.76362000 0.004107 -169.9 0.999987 -80.44 0.999987 -80.44 0.004108 -171.1
8.76364000 0.004109 -169.9 0.999987 -80.44 0.999987 -80.44 0.004109 -171.1
8.76366000 0.004110 -169.9 0.999987 -80.44 0.999987 -80.44 0.004110 -171.1
8.76368000 0.004112 -169.9 0.999987 -80.44 0.999987 -80.44 0.004112 -171.1
8.76370000 0.004113 -169.9 0.999987 -80.44 0.999987 -80.44 0.004113 -171.1
8.76372000 0.004115 -169.9 0.999987 -80.44 0.999987 -80.44 0.004115 -171.1
8.76374000 0.004116 -169.9 0.999987 -80.44 0.999987 -80.44 0.004116 -171.1
8.76376000 0.004117 -169.9 0.999987 -80.44 0.999987 -80.44 0.004117 -171.1
8.76378000 0.004119 -169.9 0.999987 -80.44 0.999987 -80.44 0.004119 -171.1
8.76380000 0.004120 -169.9 0.999987 -80.44 0.999987 -80.44 0.004120 -171.1
8.76382000 0.004122 -169.9 0.999987 -80.44 0.999987 -80.44 0.004122 -171.1
8.76384000 0.004123 -169.9 0.999987 -80.44 0.999987 -80.44 0.004123 -171.1
8.76386000 0.004124 -169.9 0.999987 -80.44 0.999987 -80.44 0.004124 -171.1
8.76388000 0.004126 -169.9 0.999987 -80.45 0.999987 -80.45 0.004126 -171.1
8.76390000 0.004127 -169.9 0.999987 -80.45 0.999987 -80.45 0.004127 -171.1
8.76392000 0.004129 -169.9 0.999987 -80.45 0.999987 -80.45 0.004129 -171.1
8.76394000 0.004130 -169.9 0.999987 -80.45 0.999987 -80.45 0.004130 -171.1
8.76396000 0.004132 -169.9 0.999987 -80.45 0.999987 -80.45 0.004132 -171.1
8.76398000 0.004133 -169.9 0.999987 -80.45 0.999987 -80.45 0.004133 -171.1
8.76400000 0.004134 -169.9 0.999987 -80.45 0.999987 -80.45 0.004134 -171.1
8.76402000 0.004136 -169.9 0.999987 -80.45 0.999987 -80.45 0.004136 -171.1
8.76404000 0.004137 -169.9 0.999987 -80.45 0.999987 -80.45 0.004137 -171.1
8.76406000 0.004139 -169.9 0.999987 -80.45 0.999987 -80.45 0.004139 -171.1
8.76408000 0.004140 -169.9 0.999987 -80.45 0.999987 -80.45 0.004140 -171.1
8.76410000 0.004142 -169.9 0.999987 -80.45 0.999987 -80.45 0.004142 -171.1
8.76412000 0.004143 -169.9 0.999987 -80.45 0.999987 -80.45 0.004143 -171.1
8.76414000 0.004144 -169.9 0.999987 -80.45 0.999987 -80.45 0.004144 -171.1
8.76416000 0.004146 -169.9 0.999987 -80.45 0.999987 -80.45 0.004146 -171.1
8.76418000 0.004147 -169.9 0.999987 -80.45 0.999987 -80.45 0.004147 -171.1
8.76420000 0.004149 -169.9 0.999987 -80.45 0.999987 -80.45 0.004149 -171.1
8.76422000 0.004150 -169.9 0.999987 -80.45 0.999987 -80.45 0.004150 -171.1
8.76424000 0.004152 -169.9 0.999987 -80.45 0.999987 -80.45 0.004152 -171.1
8.76426000 0.004153 -169.9 0.999987 -80.45 0.999987 -80.45 0.004153 -171.1
8.76428000 0.004155 -169.9 0.999987 -80.45 0.999987 -80.45 0.004155 -171.1
8.76430000 0.004156 -169.9 0.999987 -80.45 0.999987 -80.45 0.004156 -171.1
8.76432000 0.004157 -169.9 0.999987 -80.45 0.999987 -80.45 0.004158 -171.1
8.76434000 0.004159 -169.9 0.999987 -80.45 0.999987 -80.45 0.004159 -171.1
8.76436000 0.004160 -169.9 0.999987 -80.45 0.999987 -80.45 0.004160 -171.1
8.76438000 0.004162 -169.9 0.999987 -80.45 0.999987 -80.45 0.004162 -171.1
8.76440000 0.004163 -169.9 0.999987 -80.45 0.999987 -80.45 0.004163 -171.1
8.76442000 0.004165 -169.9 0.999987 -80.45 0.999987 -80.45 0.004165 -171.1
8.76444000 0.004166 -169.9 0.999987 -80.45 0.999987 -80.45 0.004166 -171.1
8.76446000 0.004168 -169.9 0.999987 -80.45 0.999987 -80.45 0.004168 -171.1
8.76448000 0.004169 -169.9 0.999987 -80.45 0.999987 -80.45 0.004169 -171.1
8.76450000 0.004171 -169.9 0.999987 -80.45 0.999987 -80.45 0.004171 -171.1
8.76452000 0.004172 -169.9 0.999987 -80.45 0.999987 -80.45 0.004172 -171.1
8.76454000 0.004174 -169.9 0.999987 -80.45 0.999987 -80.45 0.004174 -171.1
8.76456000 0.004175 -169.9 0.999987 -80.45 0.999987 -80.45 0.004175 -171.1
8.76458000 0.004177 -169.9 0.999987 -80.45 0.999987 -80.45 0.004177 -171.1
8.76460000 0.004178 -169.9 0.999987 -80.45 0.999987 -80.45 0.004178 -171.1
8.76462000 0.004180 -169.9 0.999987 -80.46 0.999987 -80.46 0.004180 -171.1
8.76464000 0.004181 -169.9 0.999987 -80.46 0.999987 -80.46 0.004181 -171.1
8.76466000 0.004183 -169.9 0.999987 -80.46 0.999987 -80.46 0.004183 -171.1
8.76468000 0.004184 -169.9 0.999987 -80.46 0.999987 -80.46 0.004184 -171.1
8.76470000 0.004186 -169.9 0.999987 -80.46 0.999987 -80.46 0.004186 -171.1
8.76472000 0.004187 -169.9 0.999987 -80.46 0.999987 -80.46 0.004187 -171.1
8.76474000 0.004189 -169.9 0.999987 -80.46 0.999987 -80.46 0.004189 -171.1
8.76476000 0.004190 -169.9 0.999987 -80.46 0.999987 -80.46 0.004190 -171.1
8.76478000 0.004192 -169.9 0.999987 -80.46 0.999987 -80.46 0.004192 -171.1
8.76480000 0.004193 -169.9 0.999987 -80.46 0.999987 -80.46 0.004193 -171.1
8.76482000 0.004195 -169.9 0.999987 -80.46 0.999987 -80.46 0.004195 -171.1
8.76484000 0.004196 -169.9 0.999987 -80.46 0.999987 -80.46 0.004196 -171.1
8.76486000 0.004198 -169.9 0.999987 -80.46 0.999987 -80.46 0.004198 -171.1
8.76488000 0.004199 -169.9 0.999987 -80.46 0.999987 -80.46 0.004199 -171.1
8.76490000 0.004201 -169.9 0.999986 -80.46 0.999986 -80.46 0.004201 -171.1
8.76492000 0.004202 -169.9 0.999986 -80.46 0.999986 -80.46 0.004202 -171.1
8.76494000 0.004204 -169.9 0.999986 -80.46 0.999986 -80.46 0.004204 -171.1
8.76496000 0.004205 -169.9 0.999986 -80.46 0.999986 -80.46 0.004205 -171.1
8.76498000 0.004207 -169.9 0.999986 -80.46 0.999986 -80.46 0.004207 -171.1
8.76500000 0.004208 -169.9 0.999986 -80.46 0.999986 -80.46 0.004208 -171.1
8.76502000 0.004210 -169.9 0.999986 -80.46 0.999986 -80.46 0.004210 -171.1
8.76504000 0.004211 -169.9 0.999986 -80.46 0.999986 -80.46 0.004211 -171.1
8.76506000 0.004213 -169.9 0.999986 -80.46 0.999986 -80.46 0.004213 -171.1
8.76508000 0.004214 -169.9 0.999986 -80.46 0.999986 -80.46 0.004214 -171.1
8.76510000 0.004216 -169.9 0.999986 -80.46 0.999986 -80.46 0.004216 -171.1
8.76512000 0.004217 -169.9 0.999986 -80.46 0.999986 -80.46 0.004217 -171.1
8.76514000 0.004219 -169.9 0.999986 -80.46 0.999986 -80.46 0.004219 -171.1
8.76516000 0.004221 -169.9 0.999986 -80.46 0.999986 -80.46 0.004221 -171.1
