! Sonnet Data File
! From: emgraph Version : 16.52
! From Project: Qubit_Xmon2_brg_para
! Data is De-embedded 
! Data File Written: 11/12/2017 17:09:26
!< HDATE 11/12/2017 00:17:19
!< MDATE 11/12/2017 00:17:19
!< PARAMS
!< Lj = 11.0
!< Gap = 6.0
!< Pwid = 2000.0
!< Airgap = 6.0
!< Width = 10.0
!< Bwid = 8.0
!< Dis1 = 250.0
!< Dis2 = 256.0
!< END PARAMS
# GHZ S MA R 51.80000
8.68500000 0.012326 -170.4 0.999906 -80.14 0.999906 -80.14 0.012326 -170.1
!< P1 F=8.685 Eeff=(6.4468387 -2.9786e-5) Z0=(51.799366 1.19075e-4) R=0.0 C=0.0 
!< P2 F=8.685 Eeff=(6.4468387 -2.9786e-5) Z0=(51.799366 1.19075e-4) R=0.0 C=0.0 
8.68500500 0.012330 -170.4 0.999906 -80.14 0.999906 -80.14 0.012330 -170.1
8.68501000 0.012335 -170.4 0.999906 -80.14 0.999906 -80.14 0.012334 -170.1
8.68501500 0.012339 -170.4 0.999906 -80.14 0.999906 -80.14 0.012339 -170.1
8.68502000 0.012343 -170.4 0.999905 -80.14 0.999905 -80.14 0.012343 -170.1
8.68502500 0.012347 -170.4 0.999905 -80.14 0.999905 -80.14 0.012347 -170.1
8.68503000 0.012351 -170.4 0.999905 -80.14 0.999905 -80.14 0.012351 -170.1
8.68503500 0.012355 -170.4 0.999905 -80.14 0.999905 -80.14 0.012355 -170.1
8.68504000 0.012360 -170.4 0.999905 -80.14 0.999905 -80.14 0.012359 -170.1
8.68504500 0.012364 -170.4 0.999905 -80.14 0.999905 -80.14 0.012364 -170.1
8.68505000 0.012368 -170.4 0.999905 -80.14 0.999905 -80.14 0.012368 -170.1
8.68505500 0.012372 -170.4 0.999905 -80.14 0.999905 -80.14 0.012372 -170.1
8.68506000 0.012376 -170.4 0.999905 -80.14 0.999905 -80.14 0.012376 -170.1
8.68506500 0.012381 -170.4 0.999905 -80.14 0.999905 -80.14 0.012380 -170.1
8.68507000 0.012385 -170.4 0.999905 -80.14 0.999905 -80.14 0.012385 -170.1
8.68507500 0.012389 -170.4 0.999904 -80.14 0.999904 -80.14 0.012389 -170.1
8.68508000 0.012393 -170.4 0.999904 -80.14 0.999904 -80.14 0.012393 -170.1
8.68508500 0.012397 -170.4 0.999904 -80.14 0.999904 -80.14 0.012397 -170.1
8.68509000 0.012402 -170.4 0.999904 -80.14 0.999904 -80.14 0.012401 -170.1
8.68509500 0.012406 -170.4 0.999904 -80.14 0.999904 -80.14 0.012406 -170.1
8.68510000 0.012410 -170.4 0.999904 -80.14 0.999904 -80.14 0.012410 -170.1
8.68510500 0.012414 -170.4 0.999904 -80.14 0.999904 -80.14 0.012414 -170.1
8.68511000 0.012419 -170.4 0.999904 -80.14 0.999904 -80.14 0.012418 -170.1
8.68511500 0.012423 -170.4 0.999904 -80.14 0.999904 -80.14 0.012423 -170.1
8.68512000 0.012427 -170.4 0.999904 -80.14 0.999904 -80.14 0.012427 -170.1
8.68512500 0.012431 -170.4 0.999904 -80.15 0.999904 -80.15 0.012431 -170.1
8.68513000 0.012436 -170.4 0.999903 -80.15 0.999903 -80.15 0.012435 -170.1
8.68513500 0.012440 -170.4 0.999903 -80.15 0.999903 -80.15 0.012440 -170.1
8.68514000 0.012444 -170.4 0.999903 -80.15 0.999903 -80.15 0.012444 -170.1
8.68514500 0.012448 -170.4 0.999903 -80.15 0.999903 -80.15 0.012448 -170.1
8.68515000 0.012453 -170.4 0.999903 -80.15 0.999903 -80.15 0.012453 -170.1
8.68515500 0.012457 -170.4 0.999903 -80.15 0.999903 -80.15 0.012457 -170.1
8.68516000 0.012461 -170.4 0.999903 -80.15 0.999903 -80.15 0.012461 -170.1
8.68516500 0.012466 -170.4 0.999903 -80.15 0.999903 -80.15 0.012465 -170.1
8.68517000 0.012470 -170.4 0.999903 -80.15 0.999903 -80.15 0.012470 -170.1
8.68517500 0.012474 -170.4 0.999903 -80.15 0.999903 -80.15 0.012474 -170.1
8.68518000 0.012479 -170.4 0.999903 -80.15 0.999903 -80.15 0.012478 -170.1
8.68518500 0.012483 -170.4 0.999902 -80.15 0.999902 -80.15 0.012483 -170.1
8.68519000 0.012487 -170.4 0.999902 -80.15 0.999902 -80.15 0.012487 -170.1
8.68519500 0.012492 -170.4 0.999902 -80.15 0.999902 -80.15 0.012491 -170.1
8.68520000 0.012496 -170.4 0.999902 -80.15 0.999902 -80.15 0.012496 -170.1
8.68520500 0.012500 -170.4 0.999902 -80.15 0.999902 -80.15 0.012500 -170.1
8.68521000 0.012505 -170.4 0.999902 -80.15 0.999902 -80.15 0.012504 -170.1
8.68521500 0.012509 -170.4 0.999902 -80.15 0.999902 -80.15 0.012509 -170.1
8.68522000 0.012513 -170.4 0.999902 -80.15 0.999902 -80.15 0.012513 -170.1
8.68522500 0.012518 -170.4 0.999902 -80.15 0.999902 -80.15 0.012517 -170.1
8.68523000 0.012522 -170.4 0.999902 -80.15 0.999902 -80.15 0.012522 -170.1
8.68523500 0.012526 -170.4 0.999901 -80.15 0.999901 -80.15 0.012526 -170.1
8.68524000 0.012531 -170.4 0.999901 -80.15 0.999901 -80.15 0.012530 -170.1
8.68524500 0.012535 -170.4 0.999901 -80.15 0.999901 -80.15 0.012535 -170.1
8.68525000 0.012539 -170.4 0.999901 -80.15 0.999901 -80.15 0.012539 -170.1
8.68525500 0.012544 -170.4 0.999901 -80.15 0.999901 -80.15 0.012544 -170.1
8.68526000 0.012548 -170.4 0.999901 -80.15 0.999901 -80.15 0.012548 -170.1
8.68526500 0.012553 -170.4 0.999901 -80.15 0.999901 -80.15 0.012552 -170.1
8.68527000 0.012557 -170.4 0.999901 -80.15 0.999901 -80.15 0.012557 -170.1
8.68527500 0.012561 -170.4 0.999901 -80.15 0.999901 -80.15 0.012561 -170.1
8.68528000 0.012566 -170.4 0.999901 -80.15 0.999901 -80.15 0.012566 -170.1
8.68528500 0.012570 -170.4 0.999901 -80.15 0.999901 -80.15 0.012570 -170.1
8.68529000 0.012575 -170.4 0.999900 -80.15 0.999900 -80.15 0.012574 -170.1
8.68529500 0.012579 -170.4 0.999900 -80.16 0.999900 -80.16 0.012579 -170.1
8.68530000 0.012584 -170.4 0.999900 -80.16 0.999900 -80.16 0.012583 -170.1
8.68530500 0.012588 -170.4 0.999900 -80.16 0.999900 -80.16 0.012588 -170.1
8.68531000 0.012592 -170.4 0.999900 -80.16 0.999900 -80.16 0.012592 -170.1
8.68531500 0.012597 -170.4 0.999900 -80.16 0.999900 -80.16 0.012597 -170.1
8.68532000 0.012601 -170.4 0.999900 -80.16 0.999900 -80.16 0.012601 -170.1
8.68532500 0.012606 -170.4 0.999900 -80.16 0.999900 -80.16 0.012606 -170.1
8.68533000 0.012610 -170.4 0.999900 -80.16 0.999900 -80.16 0.012610 -170.1
8.68533500 0.012615 -170.4 0.999900 -80.16 0.999900 -80.16 0.012614 -170.1
8.68534000 0.012619 -170.4 0.999899 -80.16 0.999899 -80.16 0.012619 -170.1
8.68534500 0.012624 -170.4 0.999899 -80.16 0.999899 -80.16 0.012623 -170.1
8.68535000 0.012628 -170.4 0.999899 -80.16 0.999899 -80.16 0.012628 -170.1
8.68535500 0.012633 -170.4 0.999899 -80.16 0.999899 -80.16 0.012632 -170.1
8.68536000 0.012637 -170.4 0.999899 -80.16 0.999899 -80.16 0.012637 -170.1
8.68536500 0.012642 -170.4 0.999899 -80.16 0.999899 -80.16 0.012641 -170.1
8.68537000 0.012646 -170.4 0.999899 -80.16 0.999899 -80.16 0.012646 -170.1
8.68537500 0.012651 -170.4 0.999899 -80.16 0.999899 -80.16 0.012650 -170.1
8.68538000 0.012655 -170.4 0.999899 -80.16 0.999899 -80.16 0.012655 -170.1
8.68538500 0.012660 -170.4 0.999899 -80.16 0.999899 -80.16 0.012659 -170.1
8.68539000 0.012664 -170.4 0.999898 -80.16 0.999898 -80.16 0.012664 -170.1
8.68539500 0.012669 -170.4 0.999898 -80.16 0.999898 -80.16 0.012669 -170.1
8.68540000 0.012673 -170.4 0.999898 -80.16 0.999898 -80.16 0.012673 -170.1
8.68540500 0.012678 -170.4 0.999898 -80.16 0.999898 -80.16 0.012678 -170.1
8.68541000 0.012682 -170.4 0.999898 -80.16 0.999898 -80.16 0.012682 -170.1
8.68541500 0.012687 -170.4 0.999898 -80.16 0.999898 -80.16 0.012687 -170.1
8.68542000 0.012692 -170.4 0.999898 -80.16 0.999898 -80.16 0.012691 -170.1
8.68542500 0.012696 -170.4 0.999898 -80.16 0.999898 -80.16 0.012696 -170.1
8.68543000 0.012701 -170.4 0.999898 -80.16 0.999898 -80.16 0.012700 -170.1
8.68543500 0.012705 -170.4 0.999898 -80.16 0.999898 -80.16 0.012705 -170.1
8.68544000 0.012710 -170.4 0.999897 -80.16 0.999897 -80.16 0.012710 -170.1
8.68544500 0.012715 -170.4 0.999897 -80.16 0.999897 -80.16 0.012714 -170.1
8.68545000 0.012719 -170.4 0.999897 -80.16 0.999897 -80.16 0.012719 -170.1
8.68545500 0.012724 -170.4 0.999897 -80.17 0.999897 -80.17 0.012723 -170.1
8.68546000 0.012728 -170.4 0.999897 -80.17 0.999897 -80.17 0.012728 -170.1
8.68546500 0.012733 -170.4 0.999897 -80.17 0.999897 -80.17 0.012733 -170.1
8.68547000 0.012738 -170.4 0.999897 -80.17 0.999897 -80.17 0.012737 -170.1
8.68547500 0.012742 -170.4 0.999897 -80.17 0.999897 -80.17 0.012742 -170.1
8.68548000 0.012747 -170.4 0.999897 -80.17 0.999897 -80.17 0.012746 -170.1
8.68548500 0.012751 -170.4 0.999897 -80.17 0.999897 -80.17 0.012751 -170.1
8.68549000 0.012756 -170.4 0.999896 -80.17 0.999896 -80.17 0.012756 -170.1
8.68549500 0.012761 -170.4 0.999896 -80.17 0.999896 -80.17 0.012760 -170.1
8.68550000 0.012765 -170.4 0.999896 -80.17 0.999896 -80.17 0.012765 -170.1
8.68550500 0.012770 -170.4 0.999896 -80.17 0.999896 -80.17 0.012770 -170.1
8.68551000 0.012775 -170.4 0.999896 -80.17 0.999896 -80.17 0.012774 -170.1
8.68551500 0.012779 -170.4 0.999896 -80.17 0.999896 -80.17 0.012779 -170.1
8.68552000 0.012784 -170.4 0.999896 -80.17 0.999896 -80.17 0.012784 -170.1
8.68552500 0.012789 -170.4 0.999896 -80.17 0.999896 -80.17 0.012788 -170.1
8.68553000 0.012793 -170.4 0.999896 -80.17 0.999896 -80.17 0.012793 -170.1
8.68553500 0.012798 -170.4 0.999895 -80.17 0.999895 -80.17 0.012798 -170.1
8.68554000 0.012803 -170.4 0.999895 -80.17 0.999895 -80.17 0.012802 -170.1
8.68554500 0.012807 -170.4 0.999895 -80.17 0.999895 -80.17 0.012807 -170.1
8.68555000 0.012812 -170.4 0.999895 -80.17 0.999895 -80.17 0.012812 -170.1
8.68555500 0.012817 -170.4 0.999895 -80.17 0.999895 -80.17 0.012816 -170.1
8.68556000 0.012822 -170.4 0.999895 -80.17 0.999895 -80.17 0.012821 -170.1
8.68556500 0.012826 -170.4 0.999895 -80.17 0.999895 -80.17 0.012826 -170.1
8.68557000 0.012831 -170.4 0.999895 -80.17 0.999895 -80.17 0.012831 -170.1
8.68557500 0.012836 -170.4 0.999895 -80.17 0.999895 -80.17 0.012835 -170.1
8.68558000 0.012841 -170.4 0.999895 -80.17 0.999895 -80.17 0.012840 -170.1
8.68558500 0.012845 -170.4 0.999894 -80.17 0.999894 -80.17 0.012845 -170.1
8.68559000 0.012850 -170.4 0.999894 -80.17 0.999894 -80.17 0.012850 -170.1
8.68559500 0.012855 -170.4 0.999894 -80.17 0.999894 -80.17 0.012854 -170.1
8.68560000 0.012860 -170.4 0.999894 -80.17 0.999894 -80.17 0.012859 -170.1
8.68560500 0.012864 -170.4 0.999894 -80.17 0.999894 -80.17 0.012864 -170.1
8.68561000 0.012869 -170.4 0.999894 -80.17 0.999894 -80.17 0.012869 -170.1
8.68561500 0.012874 -170.4 0.999894 -80.18 0.999894 -80.18 0.012873 -170.1
8.68562000 0.012879 -170.4 0.999894 -80.18 0.999894 -80.18 0.012878 -170.1
8.68562500 0.012883 -170.4 0.999894 -80.18 0.999894 -80.18 0.012883 -170.1
8.68563000 0.012888 -170.4 0.999893 -80.18 0.999893 -80.18 0.012888 -170.1
8.68563500 0.012893 -170.4 0.999893 -80.18 0.999893 -80.18 0.012893 -170.1
8.68564000 0.012898 -170.4 0.999893 -80.18 0.999893 -80.18 0.012897 -170.1
8.68564500 0.012903 -170.4 0.999893 -80.18 0.999893 -80.18 0.012902 -170.1
8.68565000 0.012907 -170.4 0.999893 -80.18 0.999893 -80.18 0.012907 -170.1
8.68565500 0.012912 -170.4 0.999893 -80.18 0.999893 -80.18 0.012912 -170.1
8.68566000 0.012917 -170.4 0.999893 -80.18 0.999893 -80.18 0.012917 -170.1
8.68566500 0.012922 -170.4 0.999893 -80.18 0.999893 -80.18 0.012921 -170.1
8.68567000 0.012927 -170.4 0.999893 -80.18 0.999893 -80.18 0.012926 -170.1
8.68567500 0.012932 -170.4 0.999893 -80.18 0.999893 -80.18 0.012931 -170.1
8.68568000 0.012937 -170.4 0.999892 -80.18 0.999892 -80.18 0.012936 -170.1
8.68568500 0.012941 -170.4 0.999892 -80.18 0.999892 -80.18 0.012941 -170.2
8.68569000 0.012946 -170.4 0.999892 -80.18 0.999892 -80.18 0.012946 -170.2
8.68569500 0.012951 -170.4 0.999892 -80.18 0.999892 -80.18 0.012951 -170.2
8.68570000 0.012956 -170.4 0.999892 -80.18 0.999892 -80.18 0.012956 -170.2
8.68570500 0.012961 -170.4 0.999892 -80.18 0.999892 -80.18 0.012960 -170.2
8.68571000 0.012966 -170.4 0.999892 -80.18 0.999892 -80.18 0.012965 -170.2
8.68571500 0.012971 -170.4 0.999892 -80.18 0.999892 -80.18 0.012970 -170.2
8.68572000 0.012976 -170.4 0.999892 -80.18 0.999892 -80.18 0.012975 -170.2
8.68572500 0.012980 -170.4 0.999891 -80.18 0.999891 -80.18 0.012980 -170.2
8.68573000 0.012985 -170.4 0.999891 -80.18 0.999891 -80.18 0.012985 -170.2
8.68573500 0.012990 -170.4 0.999891 -80.18 0.999891 -80.18 0.012990 -170.2
8.68574000 0.012995 -170.4 0.999891 -80.18 0.999891 -80.18 0.012995 -170.2
8.68574500 0.013000 -170.4 0.999891 -80.18 0.999891 -80.18 0.013000 -170.2
8.68575000 0.013005 -170.4 0.999891 -80.18 0.999891 -80.18 0.013005 -170.2
8.68575500 0.013010 -170.4 0.999891 -80.18 0.999891 -80.18 0.013010 -170.2
8.68576000 0.013015 -170.4 0.999891 -80.18 0.999891 -80.18 0.013014 -170.2
8.68576500 0.013020 -170.4 0.999891 -80.18 0.999891 -80.18 0.013019 -170.2
8.68577000 0.013025 -170.4 0.999890 -80.19 0.999890 -80.19 0.013024 -170.2
8.68577500 0.013030 -170.4 0.999890 -80.19 0.999890 -80.19 0.013029 -170.2
8.68578000 0.013035 -170.4 0.999890 -80.19 0.999890 -80.19 0.013034 -170.2
8.68578500 0.013040 -170.4 0.999890 -80.19 0.999890 -80.19 0.013039 -170.2
8.68579000 0.013045 -170.4 0.999890 -80.19 0.999890 -80.19 0.013044 -170.2
8.68579500 0.013050 -170.4 0.999890 -80.19 0.999890 -80.19 0.013049 -170.2
8.68580000 0.013055 -170.4 0.999890 -80.19 0.999890 -80.19 0.013054 -170.2
8.68580500 0.013060 -170.4 0.999890 -80.19 0.999890 -80.19 0.013059 -170.2
8.68581000 0.013065 -170.4 0.999890 -80.19 0.999890 -80.19 0.013064 -170.2
8.68581500 0.013070 -170.4 0.999889 -80.19 0.999889 -80.19 0.013069 -170.2
8.68582000 0.013075 -170.4 0.999889 -80.19 0.999889 -80.19 0.013074 -170.2
8.68582500 0.013080 -170.4 0.999889 -80.19 0.999889 -80.19 0.013079 -170.2
8.68583000 0.013085 -170.4 0.999889 -80.19 0.999889 -80.19 0.013084 -170.2
8.68583500 0.013090 -170.4 0.999889 -80.19 0.999889 -80.19 0.013089 -170.2
8.68584000 0.013095 -170.4 0.999889 -80.19 0.999889 -80.19 0.013095 -170.2
8.68584500 0.013100 -170.4 0.999889 -80.19 0.999889 -80.19 0.013100 -170.2
8.68585000 0.013105 -170.4 0.999889 -80.19 0.999889 -80.19 0.013105 -170.2
8.68585500 0.013110 -170.4 0.999888 -80.19 0.999888 -80.19 0.013110 -170.2
8.68586000 0.013115 -170.4 0.999888 -80.19 0.999888 -80.19 0.013115 -170.2
8.68586500 0.013120 -170.4 0.999888 -80.19 0.999888 -80.19 0.013120 -170.2
8.68587000 0.013126 -170.4 0.999888 -80.19 0.999888 -80.19 0.013125 -170.2
8.68587500 0.013131 -170.4 0.999888 -80.19 0.999888 -80.19 0.013130 -170.2
8.68588000 0.013136 -170.4 0.999888 -80.19 0.999888 -80.19 0.013135 -170.2
8.68588500 0.013141 -170.4 0.999888 -80.19 0.999888 -80.19 0.013140 -170.2
8.68589000 0.013146 -170.4 0.999888 -80.19 0.999888 -80.19 0.013145 -170.2
8.68589500 0.013151 -170.4 0.999888 -80.19 0.999888 -80.19 0.013150 -170.2
8.68590000 0.013156 -170.4 0.999887 -80.19 0.999887 -80.19 0.013156 -170.2
8.68590500 0.013161 -170.4 0.999887 -80.19 0.999887 -80.19 0.013161 -170.2
8.68591000 0.013166 -170.4 0.999887 -80.19 0.999887 -80.19 0.013166 -170.2
8.68591500 0.013172 -170.4 0.999887 -80.19 0.999887 -80.19 0.013171 -170.2
8.68592000 0.013177 -170.4 0.999887 -80.20 0.999887 -80.20 0.013176 -170.2
8.68592500 0.013182 -170.4 0.999887 -80.20 0.999887 -80.20 0.013181 -170.2
8.68593000 0.013187 -170.4 0.999887 -80.20 0.999887 -80.20 0.013186 -170.2
8.68593500 0.013192 -170.4 0.999887 -80.20 0.999887 -80.20 0.013192 -170.2
8.68594000 0.013197 -170.4 0.999887 -80.20 0.999887 -80.20 0.013197 -170.2
8.68594500 0.013203 -170.4 0.999886 -80.20 0.999886 -80.20 0.013202 -170.2
8.68595000 0.013208 -170.4 0.999886 -80.20 0.999886 -80.20 0.013207 -170.2
8.68595500 0.013213 -170.4 0.999886 -80.20 0.999886 -80.20 0.013212 -170.2
8.68596000 0.013218 -170.4 0.999886 -80.20 0.999886 -80.20 0.013218 -170.2
8.68596500 0.013223 -170.4 0.999886 -80.20 0.999886 -80.20 0.013223 -170.2
8.68597000 0.013229 -170.4 0.999886 -80.20 0.999886 -80.20 0.013228 -170.2
8.68597500 0.013234 -170.4 0.999886 -80.20 0.999886 -80.20 0.013233 -170.2
8.68598000 0.013239 -170.4 0.999886 -80.20 0.999886 -80.20 0.013238 -170.2
8.68598500 0.013244 -170.4 0.999885 -80.20 0.999885 -80.20 0.013244 -170.2
8.68599000 0.013250 -170.4 0.999885 -80.20 0.999885 -80.20 0.013249 -170.2
8.68599500 0.013255 -170.4 0.999885 -80.20 0.999885 -80.20 0.013254 -170.2
8.68600000 0.013260 -170.4 0.999885 -80.20 0.999885 -80.20 0.013259 -170.2
8.68600500 0.013265 -170.4 0.999885 -80.20 0.999885 -80.20 0.013265 -170.2
8.68601000 0.013271 -170.4 0.999885 -80.20 0.999885 -80.20 0.013270 -170.2
8.68601500 0.013276 -170.4 0.999885 -80.20 0.999885 -80.20 0.013275 -170.2
8.68602000 0.013281 -170.4 0.999885 -80.20 0.999885 -80.20 0.013281 -170.2
8.68602500 0.013287 -170.4 0.999884 -80.20 0.999884 -80.20 0.013286 -170.2
8.68603000 0.013292 -170.4 0.999884 -80.20 0.999884 -80.20 0.013291 -170.2
8.68603500 0.013297 -170.4 0.999884 -80.20 0.999884 -80.20 0.013296 -170.2
8.68604000 0.013302 -170.4 0.999884 -80.20 0.999884 -80.20 0.013302 -170.2
8.68604500 0.013308 -170.4 0.999884 -80.20 0.999884 -80.20 0.013307 -170.2
8.68605000 0.013313 -170.4 0.999884 -80.20 0.999884 -80.20 0.013312 -170.2
8.68605500 0.013318 -170.4 0.999884 -80.20 0.999884 -80.20 0.013318 -170.2
8.68606000 0.013324 -170.4 0.999884 -80.20 0.999884 -80.20 0.013323 -170.2
8.68606500 0.013329 -170.4 0.999883 -80.21 0.999883 -80.21 0.013328 -170.2
8.68607000 0.013334 -170.4 0.999883 -80.21 0.999883 -80.21 0.013334 -170.2
8.68607500 0.013340 -170.4 0.999883 -80.21 0.999883 -80.21 0.013339 -170.2
8.68608000 0.013345 -170.4 0.999883 -80.21 0.999883 -80.21 0.013344 -170.2
8.68608500 0.013351 -170.4 0.999883 -80.21 0.999883 -80.21 0.013350 -170.2
8.68609000 0.013356 -170.4 0.999883 -80.21 0.999883 -80.21 0.013355 -170.2
8.68609500 0.013361 -170.4 0.999883 -80.21 0.999883 -80.21 0.013361 -170.2
8.68610000 0.013367 -170.4 0.999883 -80.21 0.999883 -80.21 0.013366 -170.2
8.68610500 0.013372 -170.4 0.999883 -80.21 0.999883 -80.21 0.013371 -170.2
8.68611000 0.013378 -170.4 0.999882 -80.21 0.999882 -80.21 0.013377 -170.2
8.68611500 0.013383 -170.5 0.999882 -80.21 0.999882 -80.21 0.013382 -170.2
8.68612000 0.013388 -170.5 0.999882 -80.21 0.999882 -80.21 0.013388 -170.2
8.68612500 0.013394 -170.5 0.999882 -80.21 0.999882 -80.21 0.013393 -170.2
8.68613000 0.013399 -170.5 0.999882 -80.21 0.999882 -80.21 0.013399 -170.2
8.68613500 0.013405 -170.5 0.999882 -80.21 0.999882 -80.21 0.013404 -170.2
8.68614000 0.013410 -170.5 0.999882 -80.21 0.999882 -80.21 0.013409 -170.2
8.68614500 0.013416 -170.5 0.999882 -80.21 0.999882 -80.21 0.013415 -170.2
8.68615000 0.013421 -170.5 0.999881 -80.21 0.999881 -80.21 0.013420 -170.2
8.68615500 0.013427 -170.5 0.999881 -80.21 0.999881 -80.21 0.013426 -170.2
8.68616000 0.013432 -170.5 0.999881 -80.21 0.999881 -80.21 0.013431 -170.2
8.68616500 0.013438 -170.5 0.999881 -80.21 0.999881 -80.21 0.013437 -170.2
8.68617000 0.013443 -170.5 0.999881 -80.21 0.999881 -80.21 0.013442 -170.2
8.68617500 0.013448 -170.5 0.999881 -80.21 0.999881 -80.21 0.013448 -170.2
8.68618000 0.013454 -170.5 0.999881 -80.21 0.999881 -80.21 0.013453 -170.2
8.68618500 0.013460 -170.5 0.999880 -80.21 0.999880 -80.21 0.013459 -170.2
8.68619000 0.013465 -170.5 0.999880 -80.21 0.999880 -80.21 0.013464 -170.2
8.68619500 0.013471 -170.5 0.999880 -80.21 0.999880 -80.21 0.013470 -170.2
8.68620000 0.013476 -170.5 0.999880 -80.21 0.999880 -80.21 0.013475 -170.2
8.68620500 0.013482 -170.5 0.999880 -80.22 0.999880 -80.22 0.013481 -170.2
8.68621000 0.013487 -170.5 0.999880 -80.22 0.999880 -80.22 0.013486 -170.2
8.68621500 0.013493 -170.5 0.999880 -80.22 0.999880 -80.22 0.013492 -170.2
8.68622000 0.013498 -170.5 0.999880 -80.22 0.999880 -80.22 0.013498 -170.2
8.68622500 0.013504 -170.5 0.999879 -80.22 0.999879 -80.22 0.013503 -170.2
8.68623000 0.013509 -170.5 0.999879 -80.22 0.999879 -80.22 0.013509 -170.2
8.68623500 0.013515 -170.5 0.999879 -80.22 0.999879 -80.22 0.013514 -170.2
8.68624000 0.013521 -170.5 0.999879 -80.22 0.999879 -80.22 0.013520 -170.2
8.68624500 0.013526 -170.5 0.999879 -80.22 0.999879 -80.22 0.013525 -170.2
8.68625000 0.013532 -170.5 0.999879 -80.22 0.999879 -80.22 0.013531 -170.2
8.68625500 0.013537 -170.5 0.999879 -80.22 0.999879 -80.22 0.013537 -170.2
8.68626000 0.013543 -170.5 0.999879 -80.22 0.999879 -80.22 0.013542 -170.2
8.68626500 0.013549 -170.5 0.999878 -80.22 0.999878 -80.22 0.013548 -170.2
8.68627000 0.013554 -170.5 0.999878 -80.22 0.999878 -80.22 0.013554 -170.2
8.68627500 0.013560 -170.5 0.999878 -80.22 0.999878 -80.22 0.013559 -170.2
8.68628000 0.013566 -170.5 0.999878 -80.22 0.999878 -80.22 0.013565 -170.2
8.68628500 0.013571 -170.5 0.999878 -80.22 0.999878 -80.22 0.013571 -170.2
8.68629000 0.013577 -170.5 0.999878 -80.22 0.999878 -80.22 0.013576 -170.2
