! Sonnet Data File
! From: emgraph Version : 16.52
! From Project: Qubit_Xmon2_brg_para
! Data is De-embedded 
! Data File Written: 10/25/2017 15:52:26
!< HDATE 10/25/2017 13:56:11
!< MDATE 10/25/2017 13:56:11
!< PARAMS
!< Lj = 11.0
!< Gap = 6.0
!< Pwid = 2000.0
!< Airgap = 6.0
!< Width = 10.0
!< Bwid = 8.0
!< Dis1 = 550.0
!< Dis2 = 556.0
!< END PARAMS
# GHZ S MA R 51.80000
8.76000000 0.009861 -169.9 0.999932 -80.73 0.999932 -80.73 0.009861 -171.7
!< P1 F=8.76 Eeff=(6.44679147 -2.9786e-5) Z0=(51.7991429 1.19067e-4) R=0.0 C=0.0 
!< P2 F=8.76 Eeff=(6.44679147 -2.9786e-5) Z0=(51.7991429 1.19067e-4) R=0.0 C=0.0 
8.76002000 0.009879 -169.9 0.999932 -80.73 0.999932 -80.73 0.009879 -171.7
8.76004000 0.009896 -169.9 0.999931 -80.73 0.999931 -80.73 0.009896 -171.7
8.76006000 0.009914 -169.9 0.999931 -80.73 0.999931 -80.73 0.009914 -171.7
8.76008000 0.009932 -169.9 0.999931 -80.73 0.999931 -80.73 0.009932 -171.7
8.76010000 0.009951 -169.9 0.999930 -80.74 0.999930 -80.74 0.009951 -171.7
8.76012000 0.009969 -169.9 0.999930 -80.74 0.999930 -80.74 0.009969 -171.7
8.76014000 0.009987 -169.9 0.999930 -80.74 0.999930 -80.74 0.009987 -171.8
8.76016000 0.010005 -169.9 0.999930 -80.74 0.999930 -80.74 0.010005 -171.8
8.76018000 0.010024 -169.9 0.999929 -80.74 0.999929 -80.74 0.010024 -171.8
8.76020000 0.010042 -169.9 0.999929 -80.74 0.999929 -80.74 0.010042 -171.8
8.76022000 0.010061 -169.9 0.999929 -80.74 0.999929 -80.74 0.010061 -171.8
8.76024000 0.010080 -170.0 0.999929 -80.74 0.999929 -80.74 0.010080 -171.8
8.76026000 0.010098 -170.0 0.999928 -80.75 0.999928 -80.75 0.010098 -171.8
8.76028000 0.010117 -170.0 0.999928 -80.75 0.999928 -80.75 0.010117 -171.8
8.76030000 0.010136 -170.0 0.999928 -80.75 0.999928 -80.75 0.010136 -171.8
8.76032000 0.010155 -170.0 0.999928 -80.75 0.999928 -80.75 0.010155 -171.8
8.76034000 0.010174 -170.0 0.999927 -80.75 0.999927 -80.75 0.010174 -171.8
8.76036000 0.010194 -170.0 0.999927 -80.75 0.999927 -80.75 0.010194 -171.8
8.76038000 0.010213 -170.0 0.999927 -80.75 0.999927 -80.75 0.010213 -171.8
8.76040000 0.010232 -170.0 0.999926 -80.75 0.999926 -80.75 0.010232 -171.8
8.76042000 0.010252 -170.0 0.999926 -80.76 0.999926 -80.76 0.010252 -171.8
8.76044000 0.010272 -170.0 0.999926 -80.76 0.999926 -80.76 0.010272 -171.8
8.76046000 0.010291 -170.0 0.999926 -80.76 0.999926 -80.76 0.010291 -171.8
8.76048000 0.010311 -170.0 0.999925 -80.76 0.999925 -80.76 0.010311 -171.8
8.76050000 0.010331 -170.0 0.999925 -80.76 0.999925 -80.76 0.010331 -171.8
8.76052000 0.010351 -170.0 0.999925 -80.76 0.999925 -80.76 0.010351 -171.8
8.76054000 0.010371 -170.0 0.999924 -80.76 0.999924 -80.76 0.010371 -171.8
8.76056000 0.010391 -170.0 0.999924 -80.76 0.999924 -80.76 0.010391 -171.8
8.76058000 0.010411 -170.0 0.999924 -80.77 0.999924 -80.77 0.010411 -171.8
8.76060000 0.010432 -170.0 0.999923 -80.77 0.999923 -80.77 0.010432 -171.8
8.76062000 0.010452 -170.0 0.999923 -80.77 0.999923 -80.77 0.010452 -171.8
8.76064000 0.010473 -170.0 0.999923 -80.77 0.999923 -80.77 0.010473 -171.8
8.76066000 0.010494 -170.0 0.999923 -80.77 0.999923 -80.77 0.010494 -171.8
8.76068000 0.010514 -170.0 0.999922 -80.77 0.999922 -80.77 0.010514 -171.8
8.76070000 0.010535 -170.0 0.999922 -80.77 0.999922 -80.77 0.010535 -171.8
8.76072000 0.010556 -170.0 0.999922 -80.78 0.999922 -80.78 0.010556 -171.8
8.76074000 0.010577 -170.0 0.999921 -80.78 0.999921 -80.78 0.010577 -171.8
8.76076000 0.010599 -170.0 0.999921 -80.78 0.999921 -80.78 0.010599 -171.8
8.76078000 0.010620 -170.0 0.999921 -80.78 0.999921 -80.78 0.010620 -171.8
8.76080000 0.010641 -170.0 0.999920 -80.78 0.999920 -80.78 0.010641 -171.8
8.76082000 0.010663 -170.0 0.999920 -80.78 0.999920 -80.78 0.010663 -171.8
8.76084000 0.010684 -170.0 0.999920 -80.78 0.999920 -80.78 0.010684 -171.8
8.76086000 0.010706 -170.0 0.999919 -80.79 0.999919 -80.79 0.010706 -171.8
8.76088000 0.010728 -170.0 0.999919 -80.79 0.999919 -80.79 0.010728 -171.8
8.76090000 0.010750 -170.0 0.999919 -80.79 0.999919 -80.79 0.010750 -171.8
8.76092000 0.010772 -170.0 0.999918 -80.79 0.999918 -80.79 0.010772 -171.8
8.76094000 0.010794 -170.0 0.999918 -80.79 0.999918 -80.79 0.010794 -171.8
8.76096000 0.010816 -170.0 0.999918 -80.79 0.999918 -80.79 0.010816 -171.8
8.76098000 0.010839 -170.0 0.999917 -80.79 0.999917 -80.79 0.010839 -171.8
8.76100000 0.010861 -170.0 0.999917 -80.80 0.999917 -80.80 0.010861 -171.8
8.76102000 0.010884 -170.0 0.999917 -80.80 0.999917 -80.80 0.010884 -171.8
8.76104000 0.010907 -170.0 0.999916 -80.80 0.999916 -80.80 0.010907 -171.8
8.76106000 0.010930 -170.0 0.999916 -80.80 0.999916 -80.80 0.010930 -171.8
8.76108000 0.010953 -170.0 0.999915 -80.80 0.999915 -80.80 0.010953 -171.8
8.76110000 0.010976 -170.0 0.999915 -80.80 0.999915 -80.80 0.010976 -171.8
8.76112000 0.010999 -170.0 0.999915 -80.80 0.999915 -80.80 0.010999 -171.8
8.76114000 0.011022 -170.0 0.999914 -80.81 0.999914 -80.81 0.011022 -171.8
8.76116000 0.011046 -170.0 0.999914 -80.81 0.999914 -80.81 0.011046 -171.9
8.76118000 0.011069 -170.0 0.999914 -80.81 0.999914 -80.81 0.011069 -171.9
8.76120000 0.011093 -170.0 0.999913 -80.81 0.999913 -80.81 0.011093 -171.9
8.76122000 0.011117 -170.0 0.999913 -80.81 0.999913 -80.81 0.011117 -171.9
8.76124000 0.011141 -170.0 0.999912 -80.81 0.999912 -80.81 0.011141 -171.9
8.76126000 0.011165 -170.0 0.999912 -80.82 0.999912 -80.82 0.011165 -171.9
8.76128000 0.011189 -170.0 0.999912 -80.82 0.999912 -80.82 0.011189 -171.9
8.76130000 0.011214 -170.0 0.999911 -80.82 0.999911 -80.82 0.011214 -171.9
8.76132000 0.011238 -170.0 0.999911 -80.82 0.999911 -80.82 0.011238 -171.9
8.76134000 0.011263 -170.0 0.999911 -80.82 0.999911 -80.82 0.011263 -171.9
8.76136000 0.011287 -170.0 0.999910 -80.82 0.999910 -80.82 0.011287 -171.9
8.76138000 0.011312 -170.0 0.999910 -80.83 0.999910 -80.83 0.011312 -171.9
8.76140000 0.011337 -170.0 0.999909 -80.83 0.999909 -80.83 0.011337 -171.9
8.76142000 0.011362 -170.0 0.999909 -80.83 0.999909 -80.83 0.011362 -171.9
8.76144000 0.011388 -170.0 0.999908 -80.83 0.999908 -80.83 0.011388 -171.9
8.76146000 0.011413 -170.0 0.999908 -80.83 0.999908 -80.83 0.011413 -171.9
8.76148000 0.011439 -170.0 0.999908 -80.83 0.999908 -80.83 0.011439 -171.9
8.76150000 0.011464 -170.0 0.999907 -80.84 0.999907 -80.84 0.011464 -171.9
8.76152000 0.011490 -170.0 0.999907 -80.84 0.999907 -80.84 0.011490 -171.9
8.76154000 0.011516 -170.0 0.999906 -80.84 0.999906 -80.84 0.011516 -171.9
8.76156000 0.011542 -170.0 0.999906 -80.84 0.999906 -80.84 0.011542 -171.9
8.76158000 0.011569 -170.0 0.999905 -80.84 0.999905 -80.84 0.011569 -171.9
8.76160000 0.011595 -170.1 0.999905 -80.84 0.999905 -80.84 0.011595 -171.9
8.76162000 0.011622 -170.1 0.999905 -80.85 0.999905 -80.85 0.011622 -171.9
8.76164000 0.011648 -170.1 0.999904 -80.85 0.999904 -80.85 0.011648 -171.9
8.76166000 0.011675 -170.1 0.999904 -80.85 0.999904 -80.85 0.011675 -171.9
8.76168000 0.011702 -170.1 0.999903 -80.85 0.999903 -80.85 0.011702 -171.9
8.76170000 0.011729 -170.1 0.999903 -80.85 0.999903 -80.85 0.011729 -171.9
8.76172000 0.011757 -170.1 0.999902 -80.85 0.999902 -80.85 0.011757 -171.9
8.76174000 0.011784 -170.1 0.999902 -80.86 0.999902 -80.86 0.011784 -171.9
8.76176000 0.011812 -170.1 0.999901 -80.86 0.999901 -80.86 0.011812 -171.9
8.76178000 0.011840 -170.1 0.999901 -80.86 0.999901 -80.86 0.011840 -171.9
8.76180000 0.011868 -170.1 0.999900 -80.86 0.999900 -80.86 0.011868 -171.9
8.76182000 0.011896 -170.1 0.999900 -80.86 0.999900 -80.86 0.011896 -171.9
8.76184000 0.011924 -170.1 0.999899 -80.86 0.999899 -80.86 0.011924 -171.9
8.76186000 0.011952 -170.1 0.999899 -80.87 0.999899 -80.87 0.011952 -171.9
8.76188000 0.011981 -170.1 0.999898 -80.87 0.999898 -80.87 0.011981 -171.9
8.76190000 0.012010 -170.1 0.999898 -80.87 0.999898 -80.87 0.012010 -171.9
8.76192000 0.012039 -170.1 0.999897 -80.87 0.999897 -80.87 0.012039 -171.9
8.76194000 0.012068 -170.1 0.999897 -80.87 0.999897 -80.87 0.012068 -171.9
8.76196000 0.012097 -170.1 0.999896 -80.88 0.999896 -80.88 0.012097 -171.9
8.76198000 0.012127 -170.1 0.999896 -80.88 0.999896 -80.88 0.012126 -171.9
8.76200000 0.012156 -170.1 0.999895 -80.88 0.999895 -80.88 0.012156 -172.0
8.76202000 0.012186 -170.1 0.999895 -80.88 0.999895 -80.88 0.012186 -172.0
8.76204000 0.012216 -170.1 0.999894 -80.88 0.999894 -80.88 0.012216 -172.0
8.76206000 0.012246 -170.1 0.999894 -80.89 0.999894 -80.89 0.012246 -172.0
8.76208000 0.012276 -170.1 0.999893 -80.89 0.999893 -80.89 0.012276 -172.0
8.76210000 0.012307 -170.1 0.999893 -80.89 0.999893 -80.89 0.012307 -172.0
8.76212000 0.012338 -170.1 0.999892 -80.89 0.999892 -80.89 0.012338 -172.0
8.76214000 0.012368 -170.1 0.999892 -80.89 0.999892 -80.89 0.012368 -172.0
8.76216000 0.012400 -170.1 0.999891 -80.89 0.999891 -80.89 0.012399 -172.0
8.76218000 0.012431 -170.1 0.999891 -80.90 0.999891 -80.90 0.012431 -172.0
8.76220000 0.012462 -170.1 0.999890 -80.90 0.999890 -80.90 0.012462 -172.0
8.76222000 0.012494 -170.1 0.999889 -80.90 0.999889 -80.90 0.012494 -172.0
8.76224000 0.012526 -170.1 0.999889 -80.90 0.999889 -80.90 0.012526 -172.0
8.76226000 0.012558 -170.1 0.999888 -80.90 0.999888 -80.90 0.012558 -172.0
8.76228000 0.012590 -170.1 0.999888 -80.91 0.999888 -80.91 0.012590 -172.0
8.76230000 0.012622 -170.1 0.999887 -80.91 0.999887 -80.91 0.012622 -172.0
8.76232000 0.012655 -170.1 0.999886 -80.91 0.999886 -80.91 0.012655 -172.0
8.76234000 0.012688 -170.1 0.999886 -80.91 0.999886 -80.91 0.012688 -172.0
8.76236000 0.012721 -170.1 0.999885 -80.91 0.999885 -80.91 0.012721 -172.0
8.76238000 0.012754 -170.1 0.999885 -80.92 0.999885 -80.92 0.012754 -172.0
8.76240000 0.012787 -170.1 0.999884 -80.92 0.999884 -80.92 0.012787 -172.0
8.76242000 0.012821 -170.1 0.999883 -80.92 0.999883 -80.92 0.012821 -172.0
8.76244000 0.012855 -170.1 0.999883 -80.92 0.999883 -80.92 0.012855 -172.0
8.76246000 0.012889 -170.1 0.999882 -80.93 0.999882 -80.93 0.012889 -172.0
8.76248000 0.012923 -170.1 0.999881 -80.93 0.999881 -80.93 0.012923 -172.0
8.76250000 0.012958 -170.1 0.999881 -80.93 0.999881 -80.93 0.012958 -172.0
8.76252000 0.012992 -170.1 0.999880 -80.93 0.999880 -80.93 0.012992 -172.0
8.76254000 0.013027 -170.1 0.999880 -80.93 0.999880 -80.93 0.013027 -172.0
8.76256000 0.013063 -170.1 0.999879 -80.94 0.999879 -80.94 0.013062 -172.0
8.76258000 0.013098 -170.2 0.999878 -80.94 0.999878 -80.94 0.013098 -172.0
8.76260000 0.013134 -170.2 0.999877 -80.94 0.999877 -80.94 0.013133 -172.0
8.76262000 0.013169 -170.2 0.999877 -80.94 0.999877 -80.94 0.013169 -172.0
8.76264000 0.013205 -170.2 0.999876 -80.95 0.999876 -80.95 0.013205 -172.0
8.76266000 0.013242 -170.2 0.999875 -80.95 0.999875 -80.95 0.013242 -172.0
8.76268000 0.013278 -170.2 0.999875 -80.95 0.999875 -80.95 0.013278 -172.0
8.76270000 0.013315 -170.2 0.999874 -80.95 0.999874 -80.95 0.013315 -172.1
8.76272000 0.013352 -170.2 0.999873 -80.95 0.999873 -80.95 0.013352 -172.1
8.76274000 0.013389 -170.2 0.999873 -80.96 0.999873 -80.96 0.013389 -172.1
8.76276000 0.013427 -170.2 0.999872 -80.96 0.999872 -80.96 0.013427 -172.1
8.76278000 0.013465 -170.2 0.999871 -80.96 0.999871 -80.96 0.013465 -172.1
8.76280000 0.013503 -170.2 0.999870 -80.96 0.999870 -80.96 0.013503 -172.1
8.76282000 0.013541 -170.2 0.999870 -80.97 0.999870 -80.97 0.013541 -172.1
8.76284000 0.013580 -170.2 0.999869 -80.97 0.999869 -80.97 0.013579 -172.1
8.76286000 0.013618 -170.2 0.999868 -80.97 0.999868 -80.97 0.013618 -172.1
8.76288000 0.013657 -170.2 0.999867 -80.97 0.999867 -80.97 0.013657 -172.1
8.76290000 0.013697 -170.2 0.999866 -80.98 0.999866 -80.98 0.013697 -172.1
8.76292000 0.013736 -170.2 0.999866 -80.98 0.999866 -80.98 0.013736 -172.1
8.76294000 0.013776 -170.2 0.999865 -80.98 0.999865 -80.98 0.013776 -172.1
8.76296000 0.013816 -170.2 0.999864 -80.98 0.999864 -80.98 0.013816 -172.1
8.76298000 0.013857 -170.2 0.999863 -80.99 0.999863 -80.99 0.013857 -172.1
8.76300000 0.013897 -170.2 0.999862 -80.99 0.999862 -80.99 0.013897 -172.1
8.76302000 0.013938 -170.2 0.999862 -80.99 0.999862 -80.99 0.013938 -172.1
8.76304000 0.013980 -170.2 0.999861 -80.99 0.999861 -80.99 0.013980 -172.1
8.76306000 0.014021 -170.2 0.999860 -81.00 0.999860 -81.00 0.014021 -172.1
8.76308000 0.014063 -170.2 0.999859 -81.00 0.999859 -81.00 0.014063 -172.1
8.76310000 0.014105 -170.2 0.999858 -81.00 0.999858 -81.00 0.014105 -172.1
8.76312000 0.014148 -170.2 0.999857 -81.00 0.999857 -81.00 0.014148 -172.1
8.76314000 0.014190 -170.2 0.999856 -81.01 0.999856 -81.01 0.014190 -172.1
8.76316000 0.014233 -170.2 0.999856 -81.01 0.999856 -81.01 0.014233 -172.1
8.76318000 0.014277 -170.2 0.999855 -81.01 0.999855 -81.01 0.014277 -172.1
8.76320000 0.014320 -170.2 0.999854 -81.01 0.999854 -81.01 0.014320 -172.1
8.76322000 0.014364 -170.2 0.999853 -81.02 0.999853 -81.02 0.014364 -172.1
8.76324000 0.014409 -170.2 0.999852 -81.02 0.999852 -81.02 0.014408 -172.1
8.76326000 0.014453 -170.2 0.999851 -81.02 0.999851 -81.02 0.014453 -172.1
8.76328000 0.014498 -170.2 0.999850 -81.03 0.999850 -81.03 0.014498 -172.1
8.76330000 0.014543 -170.3 0.999849 -81.03 0.999849 -81.03 0.014543 -172.2
8.76332000 0.014589 -170.3 0.999848 -81.03 0.999848 -81.03 0.014589 -172.2
8.76334000 0.014635 -170.3 0.999847 -81.03 0.999847 -81.03 0.014635 -172.2
8.76336000 0.014681 -170.3 0.999846 -81.04 0.999846 -81.04 0.014681 -172.2
8.76338000 0.014728 -170.3 0.999845 -81.04 0.999845 -81.04 0.014727 -172.2
8.76340000 0.014775 -170.3 0.999844 -81.04 0.999844 -81.04 0.014774 -172.2
8.76342000 0.014822 -170.3 0.999843 -81.05 0.999843 -81.05 0.014822 -172.2
8.76344000 0.014869 -170.3 0.999842 -81.05 0.999842 -81.05 0.014869 -172.2
8.76346000 0.014917 -170.3 0.999841 -81.05 0.999841 -81.05 0.014917 -172.2
8.76348000 0.014966 -170.3 0.999840 -81.05 0.999840 -81.05 0.014966 -172.2
8.76350000 0.015014 -170.3 0.999839 -81.06 0.999839 -81.06 0.015014 -172.2
8.76352000 0.015064 -170.3 0.999838 -81.06 0.999838 -81.06 0.015063 -172.2
8.76354000 0.015113 -170.3 0.999837 -81.06 0.999837 -81.06 0.015113 -172.2
8.76356000 0.015163 -170.3 0.999836 -81.07 0.999836 -81.07 0.015163 -172.2
8.76358000 0.015213 -170.3 0.999834 -81.07 0.999834 -81.07 0.015213 -172.2
8.76360000 0.015264 -170.3 0.999833 -81.07 0.999833 -81.07 0.015264 -172.2
8.76362000 0.015315 -170.3 0.999832 -81.08 0.999832 -81.08 0.015315 -172.2
8.76364000 0.015366 -170.3 0.999831 -81.08 0.999831 -81.08 0.015366 -172.2
8.76366000 0.015418 -170.3 0.999830 -81.08 0.999830 -81.08 0.015418 -172.2
8.76368000 0.015470 -170.3 0.999829 -81.08 0.999829 -81.08 0.015470 -172.2
8.76370000 0.015523 -170.3 0.999827 -81.09 0.999827 -81.09 0.015523 -172.2
8.76372000 0.015576 -170.3 0.999826 -81.09 0.999826 -81.09 0.015576 -172.2
8.76374000 0.015629 -170.3 0.999825 -81.09 0.999825 -81.09 0.015629 -172.2
8.76376000 0.015683 -170.3 0.999824 -81.10 0.999824 -81.10 0.015683 -172.2
8.76378000 0.015737 -170.3 0.999823 -81.10 0.999823 -81.10 0.015737 -172.3
8.76380000 0.015792 -170.3 0.999821 -81.10 0.999821 -81.10 0.015792 -172.3
8.76382000 0.015847 -170.3 0.999820 -81.11 0.999820 -81.11 0.015847 -172.3
8.76384000 0.015903 -170.3 0.999819 -81.11 0.999819 -81.11 0.015903 -172.3
8.76386000 0.015959 -170.3 0.999817 -81.11 0.999817 -81.11 0.015959 -172.3
8.76388000 0.016015 -170.4 0.999816 -81.12 0.999816 -81.12 0.016015 -172.3
8.76390000 0.016072 -170.4 0.999815 -81.12 0.999815 -81.12 0.016072 -172.3
8.76392000 0.016130 -170.4 0.999813 -81.12 0.999813 -81.12 0.016130 -172.3
8.76394000 0.016188 -170.4 0.999812 -81.13 0.999812 -81.13 0.016187 -172.3
8.76396000 0.016246 -170.4 0.999811 -81.13 0.999811 -81.13 0.016246 -172.3
8.76398000 0.016305 -170.4 0.999809 -81.14 0.999809 -81.14 0.016305 -172.3
8.76400000 0.016364 -170.4 0.999808 -81.14 0.999808 -81.14 0.016364 -172.3
8.76402000 0.016424 -170.4 0.999806 -81.14 0.999806 -81.14 0.016424 -172.3
8.76404000 0.016484 -170.4 0.999805 -81.15 0.999805 -81.15 0.016484 -172.3
8.76406000 0.016545 -170.4 0.999803 -81.15 0.999803 -81.15 0.016545 -172.3
8.76408000 0.016607 -170.4 0.999802 -81.15 0.999802 -81.15 0.016607 -172.3
8.76410000 0.016669 -170.4 0.999800 -81.16 0.999800 -81.16 0.016669 -172.3
8.76412000 0.016731 -170.4 0.999799 -81.16 0.999799 -81.16 0.016731 -172.3
8.76414000 0.016794 -170.4 0.999797 -81.16 0.999797 -81.16 0.016794 -172.3
8.76416000 0.016858 -170.4 0.999796 -81.17 0.999796 -81.17 0.016857 -172.3
8.76418000 0.016922 -170.4 0.999794 -81.17 0.999794 -81.17 0.016922 -172.3
8.76420000 0.016986 -170.4 0.999792 -81.18 0.999792 -81.18 0.016986 -172.4
8.76422000 0.017051 -170.4 0.999791 -81.18 0.999791 -81.18 0.017051 -172.4
8.76424000 0.017117 -170.4 0.999789 -81.18 0.999789 -81.18 0.017117 -172.4
8.76426000 0.017184 -170.4 0.999787 -81.19 0.999787 -81.19 0.017183 -172.4
8.76428000 0.017251 -170.4 0.999786 -81.19 0.999786 -81.19 0.017250 -172.4
8.76430000 0.017318 -170.4 0.999784 -81.20 0.999784 -81.20 0.017318 -172.4
8.76432000 0.017386 -170.4 0.999782 -81.20 0.999782 -81.20 0.017386 -172.4
8.76434000 0.017455 -170.5 0.999781 -81.20 0.999781 -81.20 0.017455 -172.4
8.76436000 0.017524 -170.5 0.999779 -81.21 0.999779 -81.21 0.017524 -172.4
8.76438000 0.017594 -170.5 0.999777 -81.21 0.999777 -81.21 0.017594 -172.4
8.76440000 0.017665 -170.5 0.999775 -81.22 0.999775 -81.22 0.017665 -172.4
8.76442000 0.017736 -170.5 0.999773 -81.22 0.999773 -81.22 0.017736 -172.4
8.76444000 0.017808 -170.5 0.999771 -81.23 0.999771 -81.23 0.017808 -172.4
8.76446000 0.017881 -170.5 0.999769 -81.23 0.999769 -81.23 0.017881 -172.4
8.76448000 0.017954 -170.5 0.999768 -81.23 0.999768 -81.23 0.017954 -172.4
8.76450000 0.018028 -170.5 0.999766 -81.24 0.999766 -81.24 0.018028 -172.4
8.76452000 0.018103 -170.5 0.999764 -81.24 0.999764 -81.24 0.018102 -172.4
8.76454000 0.018178 -170.5 0.999762 -81.25 0.999762 -81.25 0.018178 -172.4
8.76456000 0.018254 -170.5 0.999759 -81.25 0.999759 -81.25 0.018254 -172.5
8.76458000 0.018331 -170.5 0.999757 -81.26 0.999757 -81.26 0.018331 -172.5
8.76460000 0.018408 -170.5 0.999755 -81.26 0.999755 -81.26 0.018408 -172.5
8.76462000 0.018486 -170.5 0.999753 -81.27 0.999753 -81.27 0.018486 -172.5
8.76464000 0.018565 -170.5 0.999751 -81.27 0.999751 -81.27 0.018565 -172.5
8.76466000 0.018645 -170.5 0.999749 -81.28 0.999749 -81.28 0.018645 -172.5
8.76468000 0.018726 -170.5 0.999747 -81.28 0.999747 -81.28 0.018725 -172.5
8.76470000 0.018807 -170.5 0.999744 -81.29 0.999744 -81.29 0.018807 -172.5
8.76472000 0.018889 -170.6 0.999742 -81.29 0.999742 -81.29 0.018889 -172.5
8.76474000 0.018972 -170.6 0.999740 -81.29 0.999740 -81.29 0.018972 -172.5
8.76476000 0.019056 -170.6 0.999737 -81.30 0.999737 -81.30 0.019056 -172.5
8.76478000 0.019140 -170.6 0.999735 -81.30 0.999735 -81.30 0.019140 -172.5
8.76480000 0.019226 -170.6 0.999733 -81.31 0.999733 -81.31 0.019226 -172.5
8.76482000 0.019312 -170.6 0.999730 -81.32 0.999730 -81.32 0.019312 -172.5
8.76484000 0.019399 -170.6 0.999728 -81.32 0.999728 -81.32 0.019399 -172.5
8.76486000 0.019487 -170.6 0.999725 -81.33 0.999725 -81.33 0.019487 -172.6
8.76488000 0.019576 -170.6 0.999722 -81.33 0.999722 -81.33 0.019576 -172.6
8.76490000 0.019666 -170.6 0.999720 -81.34 0.999720 -81.34 0.019666 -172.6
8.76492000 0.019757 -170.6 0.999717 -81.34 0.999717 -81.34 0.019757 -172.6
8.76494000 0.019848 -170.6 0.999714 -81.35 0.999714 -81.35 0.019848 -172.6
8.76496000 0.019941 -170.6 0.999712 -81.35 0.999712 -81.35 0.019941 -172.6
8.76498000 0.020035 -170.6 0.999709 -81.36 0.999709 -81.36 0.020034 -172.6
8.76500000 0.020129 -170.6 0.999706 -81.36 0.999706 -81.36 0.020129 -172.6
8.76502000 0.020225 -170.6 0.999703 -81.37 0.999703 -81.37 0.020225 -172.6
8.76504000 0.020322 -170.7 0.999700 -81.38 0.999700 -81.38 0.020321 -172.6
8.76506000 0.020419 -170.7 0.999697 -81.38 0.999697 -81.38 0.020419 -172.6
8.76508000 0.020518 -170.7 0.999694 -81.39 0.999694 -81.39 0.020518 -172.6
8.76510000 0.020618 -170.7 0.999691 -81.39 0.999691 -81.39 0.020618 -172.6
8.76512000 0.020719 -170.7 0.999688 -81.40 0.999688 -81.40 0.020718 -172.6
8.76514000 0.020821 -170.7 0.999685 -81.40 0.999685 -81.40 0.020820 -172.7
8.76516000 0.020924 -170.7 0.999682 -81.41 0.999682 -81.41 0.020923 -172.7
