! Sonnet Data File
! From: emgraph Version : 16.52
! From Project: Qubit_Xmon2_brg_para
! Data is De-embedded 
! Data File Written: 10/25/2017 20:11:04
!< HDATE 10/25/2017 15:55:44
!< MDATE 10/25/2017 15:55:44
!< PARAMS
!< Lj = 11.0
!< Gap = 6.0
!< Pwid = 2000.0
!< Airgap = 6.0
!< Width = 10.0
!< Bwid = 40.0
!< Dis1 = 350.0
!< Dis2 = 356.0
!< END PARAMS
# GHZ S MA R 51.80000
8.68500000 0.027311 -169.9 0.999609 -79.94 0.999609 -79.94 0.027311 -170.1
!< P1 F=8.685 Eeff=(6.44683879 -2.9786e-5) Z0=(51.7993663 1.19075e-4) R=0.0 C=0.0 
!< P2 F=8.685 Eeff=(6.44683879 -2.9786e-5) Z0=(51.7993663 1.19075e-4) R=0.0 C=0.0 
8.68500500 0.027315 -169.9 0.999608 -79.94 0.999608 -79.94 0.027315 -170.1
8.68501000 0.027320 -169.9 0.999608 -79.94 0.999608 -79.94 0.027320 -170.1
8.68501500 0.027324 -169.9 0.999608 -79.94 0.999608 -79.94 0.027324 -170.1
8.68502000 0.027328 -169.9 0.999608 -79.94 0.999608 -79.94 0.027328 -170.1
8.68502500 0.027332 -169.9 0.999608 -79.94 0.999608 -79.94 0.027332 -170.1
8.68503000 0.027336 -169.9 0.999608 -79.94 0.999608 -79.94 0.027336 -170.1
8.68503500 0.027341 -169.9 0.999608 -79.94 0.999608 -79.94 0.027340 -170.1
8.68504000 0.027345 -169.9 0.999607 -79.94 0.999607 -79.94 0.027345 -170.1
8.68504500 0.027349 -169.9 0.999607 -79.94 0.999607 -79.94 0.027349 -170.1
8.68505000 0.027353 -169.9 0.999607 -79.94 0.999607 -79.94 0.027353 -170.1
8.68505500 0.027357 -169.9 0.999607 -79.94 0.999607 -79.94 0.027357 -170.1
8.68506000 0.027362 -169.9 0.999607 -79.94 0.999607 -79.94 0.027362 -170.1
8.68506500 0.027366 -169.9 0.999607 -79.95 0.999607 -79.95 0.027366 -170.1
8.68507000 0.027370 -169.9 0.999607 -79.95 0.999607 -79.95 0.027370 -170.1
8.68507500 0.027374 -169.9 0.999606 -79.95 0.999606 -79.95 0.027374 -170.1
8.68508000 0.027379 -169.9 0.999606 -79.95 0.999606 -79.95 0.027378 -170.1
8.68508500 0.027383 -169.9 0.999606 -79.95 0.999606 -79.95 0.027383 -170.1
8.68509000 0.027387 -169.9 0.999606 -79.95 0.999606 -79.95 0.027387 -170.1
8.68509500 0.027391 -169.9 0.999606 -79.95 0.999606 -79.95 0.027391 -170.1
8.68510000 0.027396 -169.9 0.999606 -79.95 0.999606 -79.95 0.027395 -170.1
8.68510500 0.027400 -169.9 0.999606 -79.95 0.999606 -79.95 0.027400 -170.1
8.68511000 0.027404 -169.9 0.999606 -79.95 0.999606 -79.95 0.027404 -170.1
8.68511500 0.027408 -169.9 0.999605 -79.95 0.999605 -79.95 0.027408 -170.1
8.68512000 0.027413 -169.9 0.999605 -79.95 0.999605 -79.95 0.027413 -170.1
8.68512500 0.027417 -169.9 0.999605 -79.95 0.999605 -79.95 0.027417 -170.1
8.68513000 0.027421 -169.9 0.999605 -79.95 0.999605 -79.95 0.027421 -170.1
8.68513500 0.027425 -169.9 0.999605 -79.95 0.999605 -79.95 0.027425 -170.1
8.68514000 0.027430 -169.9 0.999605 -79.95 0.999605 -79.95 0.027430 -170.1
8.68514500 0.027434 -169.9 0.999605 -79.95 0.999605 -79.95 0.027434 -170.1
8.68515000 0.027438 -169.9 0.999604 -79.95 0.999604 -79.95 0.027438 -170.1
8.68515500 0.027443 -169.9 0.999604 -79.95 0.999604 -79.95 0.027443 -170.1
8.68516000 0.027447 -169.9 0.999604 -79.95 0.999604 -79.95 0.027447 -170.1
8.68516500 0.027451 -169.9 0.999604 -79.95 0.999604 -79.95 0.027451 -170.1
8.68517000 0.027456 -169.9 0.999604 -79.95 0.999604 -79.95 0.027456 -170.1
8.68517500 0.027460 -169.9 0.999604 -79.95 0.999604 -79.95 0.027460 -170.1
8.68518000 0.027464 -169.9 0.999604 -79.95 0.999604 -79.95 0.027464 -170.1
8.68518500 0.027469 -169.9 0.999604 -79.95 0.999604 -79.95 0.027469 -170.1
8.68519000 0.027473 -169.9 0.999603 -79.95 0.999603 -79.95 0.027473 -170.1
8.68519500 0.027477 -169.9 0.999603 -79.95 0.999603 -79.95 0.027477 -170.1
8.68520000 0.027482 -169.9 0.999603 -79.95 0.999603 -79.95 0.027482 -170.1
8.68520500 0.027486 -169.9 0.999603 -79.95 0.999603 -79.95 0.027486 -170.1
8.68521000 0.027490 -169.9 0.999603 -79.95 0.999603 -79.95 0.027490 -170.1
8.68521500 0.027495 -169.9 0.999603 -79.95 0.999603 -79.95 0.027495 -170.1
8.68522000 0.027499 -169.9 0.999603 -79.95 0.999603 -79.95 0.027499 -170.1
8.68522500 0.027504 -169.9 0.999602 -79.95 0.999602 -79.95 0.027503 -170.1
8.68523000 0.027508 -169.9 0.999602 -79.95 0.999602 -79.95 0.027508 -170.1
8.68523500 0.027512 -169.9 0.999602 -79.96 0.999602 -79.96 0.027512 -170.1
8.68524000 0.027517 -169.9 0.999602 -79.96 0.999602 -79.96 0.027517 -170.1
8.68524500 0.027521 -169.9 0.999602 -79.96 0.999602 -79.96 0.027521 -170.1
8.68525000 0.027526 -169.9 0.999602 -79.96 0.999602 -79.96 0.027525 -170.1
8.68525500 0.027530 -169.9 0.999602 -79.96 0.999602 -79.96 0.027530 -170.1
8.68526000 0.027534 -169.9 0.999601 -79.96 0.999601 -79.96 0.027534 -170.1
8.68526500 0.027539 -169.9 0.999601 -79.96 0.999601 -79.96 0.027539 -170.1
8.68527000 0.027543 -169.9 0.999601 -79.96 0.999601 -79.96 0.027543 -170.1
8.68527500 0.027548 -169.9 0.999601 -79.96 0.999601 -79.96 0.027548 -170.1
8.68528000 0.027552 -169.9 0.999601 -79.96 0.999601 -79.96 0.027552 -170.1
8.68528500 0.027557 -169.9 0.999601 -79.96 0.999601 -79.96 0.027556 -170.1
8.68529000 0.027561 -169.9 0.999601 -79.96 0.999601 -79.96 0.027561 -170.1
8.68529500 0.027565 -169.9 0.999600 -79.96 0.999600 -79.96 0.027565 -170.1
8.68530000 0.027570 -169.9 0.999600 -79.96 0.999600 -79.96 0.027570 -170.1
8.68530500 0.027574 -169.9 0.999600 -79.96 0.999600 -79.96 0.027574 -170.1
8.68531000 0.027579 -169.9 0.999600 -79.96 0.999600 -79.96 0.027579 -170.1
8.68531500 0.027583 -169.9 0.999600 -79.96 0.999600 -79.96 0.027583 -170.1
8.68532000 0.027588 -169.9 0.999600 -79.96 0.999600 -79.96 0.027588 -170.1
8.68532500 0.027592 -169.9 0.999600 -79.96 0.999600 -79.96 0.027592 -170.1
8.68533000 0.027597 -169.9 0.999599 -79.96 0.999599 -79.96 0.027597 -170.1
8.68533500 0.027601 -169.9 0.999599 -79.96 0.999599 -79.96 0.027601 -170.1
8.68534000 0.027606 -169.9 0.999599 -79.96 0.999599 -79.96 0.027606 -170.1
8.68534500 0.027610 -169.9 0.999599 -79.96 0.999599 -79.96 0.027610 -170.1
8.68535000 0.027615 -169.9 0.999599 -79.96 0.999599 -79.96 0.027615 -170.1
8.68535500 0.027619 -169.9 0.999599 -79.96 0.999599 -79.96 0.027619 -170.1
8.68536000 0.027624 -169.9 0.999599 -79.96 0.999599 -79.96 0.027624 -170.1
8.68536500 0.027628 -169.9 0.999598 -79.96 0.999598 -79.96 0.027628 -170.1
8.68537000 0.027633 -169.9 0.999598 -79.96 0.999598 -79.96 0.027633 -170.1
8.68537500 0.027637 -169.9 0.999598 -79.96 0.999598 -79.96 0.027637 -170.1
8.68538000 0.027642 -169.9 0.999598 -79.96 0.999598 -79.96 0.027642 -170.1
8.68538500 0.027647 -169.9 0.999598 -79.96 0.999598 -79.96 0.027646 -170.1
8.68539000 0.027651 -169.9 0.999598 -79.96 0.999598 -79.96 0.027651 -170.1
8.68539500 0.027656 -169.9 0.999598 -79.96 0.999598 -79.96 0.027656 -170.1
8.68540000 0.027660 -169.9 0.999597 -79.97 0.999597 -79.97 0.027660 -170.1
8.68540500 0.027665 -169.9 0.999597 -79.97 0.999597 -79.97 0.027665 -170.1
8.68541000 0.027669 -169.9 0.999597 -79.97 0.999597 -79.97 0.027669 -170.1
8.68541500 0.027674 -169.9 0.999597 -79.97 0.999597 -79.97 0.027674 -170.1
8.68542000 0.027679 -169.9 0.999597 -79.97 0.999597 -79.97 0.027678 -170.1
8.68542500 0.027683 -169.9 0.999597 -79.97 0.999597 -79.97 0.027683 -170.1
8.68543000 0.027688 -169.9 0.999597 -79.97 0.999597 -79.97 0.027688 -170.1
8.68543500 0.027692 -169.9 0.999596 -79.97 0.999596 -79.97 0.027692 -170.1
8.68544000 0.027697 -169.9 0.999596 -79.97 0.999596 -79.97 0.027697 -170.1
8.68544500 0.027702 -169.9 0.999596 -79.97 0.999596 -79.97 0.027701 -170.1
8.68545000 0.027706 -169.9 0.999596 -79.97 0.999596 -79.97 0.027706 -170.1
8.68545500 0.027711 -169.9 0.999596 -79.97 0.999596 -79.97 0.027711 -170.1
8.68546000 0.027715 -169.9 0.999596 -79.97 0.999596 -79.97 0.027715 -170.1
8.68546500 0.027720 -169.9 0.999595 -79.97 0.999595 -79.97 0.027720 -170.1
8.68547000 0.027725 -169.9 0.999595 -79.97 0.999595 -79.97 0.027725 -170.1
8.68547500 0.027729 -169.9 0.999595 -79.97 0.999595 -79.97 0.027729 -170.1
8.68548000 0.027734 -169.9 0.999595 -79.97 0.999595 -79.97 0.027734 -170.1
8.68548500 0.027739 -169.9 0.999595 -79.97 0.999595 -79.97 0.027739 -170.1
8.68549000 0.027743 -169.9 0.999595 -79.97 0.999595 -79.97 0.027743 -170.1
8.68549500 0.027748 -169.9 0.999595 -79.97 0.999595 -79.97 0.027748 -170.1
8.68550000 0.027753 -169.9 0.999594 -79.97 0.999594 -79.97 0.027753 -170.1
8.68550500 0.027757 -169.9 0.999594 -79.97 0.999594 -79.97 0.027757 -170.1
8.68551000 0.027762 -169.9 0.999594 -79.97 0.999594 -79.97 0.027762 -170.1
8.68551500 0.027767 -169.9 0.999594 -79.97 0.999594 -79.97 0.027767 -170.1
8.68552000 0.027771 -169.9 0.999594 -79.97 0.999594 -79.97 0.027771 -170.1
8.68552500 0.027776 -169.9 0.999594 -79.97 0.999594 -79.97 0.027776 -170.1
8.68553000 0.027781 -169.9 0.999594 -79.97 0.999594 -79.97 0.027781 -170.1
8.68553500 0.027786 -169.9 0.999593 -79.97 0.999593 -79.97 0.027785 -170.1
8.68554000 0.027790 -169.9 0.999593 -79.97 0.999593 -79.97 0.027790 -170.1
8.68554500 0.027795 -169.9 0.999593 -79.97 0.999593 -79.97 0.027795 -170.1
8.68555000 0.027800 -169.9 0.999593 -79.97 0.999593 -79.97 0.027800 -170.1
8.68555500 0.027804 -169.9 0.999593 -79.97 0.999593 -79.97 0.027804 -170.1
8.68556000 0.027809 -169.9 0.999593 -79.98 0.999593 -79.98 0.027809 -170.1
8.68556500 0.027814 -169.9 0.999592 -79.98 0.999592 -79.98 0.027814 -170.1
8.68557000 0.027819 -169.9 0.999592 -79.98 0.999592 -79.98 0.027819 -170.1
8.68557500 0.027823 -169.9 0.999592 -79.98 0.999592 -79.98 0.027823 -170.1
8.68558000 0.027828 -169.9 0.999592 -79.98 0.999592 -79.98 0.027828 -170.1
8.68558500 0.027833 -169.9 0.999592 -79.98 0.999592 -79.98 0.027833 -170.1
8.68559000 0.027838 -169.9 0.999592 -79.98 0.999592 -79.98 0.027838 -170.1
8.68559500 0.027843 -169.9 0.999592 -79.98 0.999592 -79.98 0.027843 -170.1
8.68560000 0.027847 -169.9 0.999591 -79.98 0.999591 -79.98 0.027847 -170.1
8.68560500 0.027852 -169.9 0.999591 -79.98 0.999591 -79.98 0.027852 -170.1
8.68561000 0.027857 -169.9 0.999591 -79.98 0.999591 -79.98 0.027857 -170.1
8.68561500 0.027862 -169.9 0.999591 -79.98 0.999591 -79.98 0.027862 -170.1
8.68562000 0.027867 -169.9 0.999591 -79.98 0.999591 -79.98 0.027867 -170.1
8.68562500 0.027871 -169.9 0.999591 -79.98 0.999591 -79.98 0.027871 -170.1
8.68563000 0.027876 -169.9 0.999590 -79.98 0.999590 -79.98 0.027876 -170.1
8.68563500 0.027881 -169.9 0.999590 -79.98 0.999590 -79.98 0.027881 -170.1
8.68564000 0.027886 -169.9 0.999590 -79.98 0.999590 -79.98 0.027886 -170.1
8.68564500 0.027891 -169.9 0.999590 -79.98 0.999590 -79.98 0.027891 -170.1
8.68565000 0.027896 -169.9 0.999590 -79.98 0.999590 -79.98 0.027896 -170.1
8.68565500 0.027900 -169.9 0.999590 -79.98 0.999590 -79.98 0.027900 -170.1
8.68566000 0.027905 -169.9 0.999589 -79.98 0.999589 -79.98 0.027905 -170.1
8.68566500 0.027910 -169.9 0.999589 -79.98 0.999589 -79.98 0.027910 -170.1
8.68567000 0.027915 -169.9 0.999589 -79.98 0.999589 -79.98 0.027915 -170.1
8.68567500 0.027920 -169.9 0.999589 -79.98 0.999589 -79.98 0.027920 -170.1
8.68568000 0.027925 -169.9 0.999589 -79.98 0.999589 -79.98 0.027925 -170.1
8.68568500 0.027930 -169.9 0.999589 -79.98 0.999589 -79.98 0.027930 -170.1
8.68569000 0.027935 -169.9 0.999589 -79.98 0.999589 -79.98 0.027935 -170.1
8.68569500 0.027940 -169.9 0.999588 -79.98 0.999588 -79.98 0.027939 -170.1
8.68570000 0.027944 -169.9 0.999588 -79.98 0.999588 -79.98 0.027944 -170.1
8.68570500 0.027949 -169.9 0.999588 -79.98 0.999588 -79.98 0.027949 -170.1
8.68571000 0.027954 -169.9 0.999588 -79.98 0.999588 -79.98 0.027954 -170.1
8.68571500 0.027959 -169.9 0.999588 -79.99 0.999588 -79.99 0.027959 -170.1
8.68572000 0.027964 -169.9 0.999588 -79.99 0.999588 -79.99 0.027964 -170.1
8.68572500 0.027969 -169.9 0.999587 -79.99 0.999587 -79.99 0.027969 -170.1
8.68573000 0.027974 -169.9 0.999587 -79.99 0.999587 -79.99 0.027974 -170.1
8.68573500 0.027979 -169.9 0.999587 -79.99 0.999587 -79.99 0.027979 -170.1
8.68574000 0.027984 -169.9 0.999587 -79.99 0.999587 -79.99 0.027984 -170.1
8.68574500 0.027989 -169.9 0.999587 -79.99 0.999587 -79.99 0.027989 -170.1
8.68575000 0.027994 -169.9 0.999587 -79.99 0.999587 -79.99 0.027994 -170.1
8.68575500 0.027999 -169.9 0.999586 -79.99 0.999586 -79.99 0.027999 -170.1
8.68576000 0.028004 -169.9 0.999586 -79.99 0.999586 -79.99 0.028004 -170.1
8.68576500 0.028009 -169.9 0.999586 -79.99 0.999586 -79.99 0.028009 -170.1
8.68577000 0.028014 -169.9 0.999586 -79.99 0.999586 -79.99 0.028014 -170.1
8.68577500 0.028019 -169.9 0.999586 -79.99 0.999586 -79.99 0.028019 -170.1
8.68578000 0.028024 -169.9 0.999586 -79.99 0.999586 -79.99 0.028024 -170.1
8.68578500 0.028029 -169.9 0.999585 -79.99 0.999585 -79.99 0.028029 -170.1
8.68579000 0.028034 -169.9 0.999585 -79.99 0.999585 -79.99 0.028034 -170.1
8.68579500 0.028039 -169.9 0.999585 -79.99 0.999585 -79.99 0.028039 -170.1
8.68580000 0.028044 -169.9 0.999585 -79.99 0.999585 -79.99 0.028044 -170.1
8.68580500 0.028049 -169.9 0.999585 -79.99 0.999585 -79.99 0.028049 -170.1
8.68581000 0.028054 -169.9 0.999585 -79.99 0.999585 -79.99 0.028054 -170.1
8.68581500 0.028059 -169.9 0.999584 -79.99 0.999584 -79.99 0.028059 -170.1
8.68582000 0.028064 -169.9 0.999584 -79.99 0.999584 -79.99 0.028064 -170.1
8.68582500 0.028069 -169.9 0.999584 -79.99 0.999584 -79.99 0.028069 -170.1
8.68583000 0.028074 -169.9 0.999584 -79.99 0.999584 -79.99 0.028074 -170.1
8.68583500 0.028079 -169.9 0.999584 -79.99 0.999584 -79.99 0.028079 -170.1
8.68584000 0.028084 -169.9 0.999584 -79.99 0.999584 -79.99 0.028084 -170.1
8.68584500 0.028090 -169.9 0.999583 -79.99 0.999583 -79.99 0.028089 -170.1
8.68585000 0.028095 -169.9 0.999583 -79.99 0.999583 -79.99 0.028095 -170.1
8.68585500 0.028100 -169.9 0.999583 -79.99 0.999583 -79.99 0.028100 -170.1
8.68586000 0.028105 -169.9 0.999583 -79.99 0.999583 -79.99 0.028105 -170.1
8.68586500 0.028110 -169.9 0.999583 -80.00 0.999583 -80.00 0.028110 -170.1
8.68587000 0.028115 -169.9 0.999583 -80.00 0.999583 -80.00 0.028115 -170.1
8.68587500 0.028120 -169.9 0.999582 -80.00 0.999582 -80.00 0.028120 -170.1
8.68588000 0.028125 -169.9 0.999582 -80.00 0.999582 -80.00 0.028125 -170.1
8.68588500 0.028131 -169.9 0.999582 -80.00 0.999582 -80.00 0.028130 -170.1
8.68589000 0.028136 -169.9 0.999582 -80.00 0.999582 -80.00 0.028136 -170.1
8.68589500 0.028141 -169.9 0.999582 -80.00 0.999582 -80.00 0.028141 -170.1
8.68590000 0.028146 -169.9 0.999582 -80.00 0.999582 -80.00 0.028146 -170.1
8.68590500 0.028151 -169.9 0.999581 -80.00 0.999581 -80.00 0.028151 -170.1
8.68591000 0.028156 -169.9 0.999581 -80.00 0.999581 -80.00 0.028156 -170.1
8.68591500 0.028161 -169.9 0.999581 -80.00 0.999581 -80.00 0.028161 -170.1
8.68592000 0.028167 -169.9 0.999581 -80.00 0.999581 -80.00 0.028167 -170.1
8.68592500 0.028172 -169.9 0.999581 -80.00 0.999581 -80.00 0.028172 -170.1
8.68593000 0.028177 -169.9 0.999581 -80.00 0.999581 -80.00 0.028177 -170.1
8.68593500 0.028182 -169.9 0.999580 -80.00 0.999580 -80.00 0.028182 -170.1
8.68594000 0.028188 -169.9 0.999580 -80.00 0.999580 -80.00 0.028187 -170.1
8.68594500 0.028193 -169.9 0.999580 -80.00 0.999580 -80.00 0.028193 -170.1
8.68595000 0.028198 -169.9 0.999580 -80.00 0.999580 -80.00 0.028198 -170.1
8.68595500 0.028203 -169.9 0.999580 -80.00 0.999580 -80.00 0.028203 -170.1
8.68596000 0.028208 -169.9 0.999580 -80.00 0.999580 -80.00 0.028208 -170.1
8.68596500 0.028214 -169.9 0.999579 -80.00 0.999579 -80.00 0.028214 -170.1
8.68597000 0.028219 -169.9 0.999579 -80.00 0.999579 -80.00 0.028219 -170.1
8.68597500 0.028224 -169.9 0.999579 -80.00 0.999579 -80.00 0.028224 -170.1
8.68598000 0.028229 -169.9 0.999579 -80.00 0.999579 -80.00 0.028229 -170.1
8.68598500 0.028235 -169.9 0.999579 -80.00 0.999579 -80.00 0.028235 -170.1
8.68599000 0.028240 -169.9 0.999579 -80.00 0.999579 -80.00 0.028240 -170.1
8.68599500 0.028245 -169.9 0.999578 -80.00 0.999578 -80.00 0.028245 -170.1
8.68600000 0.028251 -169.9 0.999578 -80.00 0.999578 -80.00 0.028250 -170.1
8.68600500 0.028256 -169.9 0.999578 -80.00 0.999578 -80.00 0.028256 -170.1
8.68601000 0.028261 -169.9 0.999578 -80.01 0.999578 -80.01 0.028261 -170.1
8.68601500 0.028267 -169.9 0.999578 -80.01 0.999578 -80.01 0.028266 -170.2
8.68602000 0.028272 -169.9 0.999577 -80.01 0.999577 -80.01 0.028272 -170.2
8.68602500 0.028277 -169.9 0.999577 -80.01 0.999577 -80.01 0.028277 -170.2
8.68603000 0.028283 -170.0 0.999577 -80.01 0.999577 -80.01 0.028282 -170.2
8.68603500 0.028288 -170.0 0.999577 -80.01 0.999577 -80.01 0.028288 -170.2
8.68604000 0.028293 -170.0 0.999577 -80.01 0.999577 -80.01 0.028293 -170.2
8.68604500 0.028299 -170.0 0.999577 -80.01 0.999577 -80.01 0.028298 -170.2
8.68605000 0.028304 -170.0 0.999576 -80.01 0.999576 -80.01 0.028304 -170.2
8.68605500 0.028309 -170.0 0.999576 -80.01 0.999576 -80.01 0.028309 -170.2
8.68606000 0.028315 -170.0 0.999576 -80.01 0.999576 -80.01 0.028315 -170.2
8.68606500 0.028320 -170.0 0.999576 -80.01 0.999576 -80.01 0.028320 -170.2
8.68607000 0.028325 -170.0 0.999576 -80.01 0.999576 -80.01 0.028325 -170.2
8.68607500 0.028331 -170.0 0.999576 -80.01 0.999576 -80.01 0.028331 -170.2
8.68608000 0.028336 -170.0 0.999575 -80.01 0.999575 -80.01 0.028336 -170.2
8.68608500 0.028342 -170.0 0.999575 -80.01 0.999575 -80.01 0.028342 -170.2
8.68609000 0.028347 -170.0 0.999575 -80.01 0.999575 -80.01 0.028347 -170.2
8.68609500 0.028353 -170.0 0.999575 -80.01 0.999575 -80.01 0.028352 -170.2
8.68610000 0.028358 -170.0 0.999575 -80.01 0.999575 -80.01 0.028358 -170.2
8.68610500 0.028363 -170.0 0.999574 -80.01 0.999574 -80.01 0.028363 -170.2
8.68611000 0.028369 -170.0 0.999574 -80.01 0.999574 -80.01 0.028369 -170.2
8.68611500 0.028374 -170.0 0.999574 -80.01 0.999574 -80.01 0.028374 -170.2
8.68612000 0.028380 -170.0 0.999574 -80.01 0.999574 -80.01 0.028380 -170.2
8.68612500 0.028385 -170.0 0.999574 -80.01 0.999574 -80.01 0.028385 -170.2
8.68613000 0.028391 -170.0 0.999574 -80.01 0.999574 -80.01 0.028391 -170.2
8.68613500 0.028396 -170.0 0.999573 -80.01 0.999573 -80.01 0.028396 -170.2
8.68614000 0.028402 -170.0 0.999573 -80.01 0.999573 -80.01 0.028402 -170.2
8.68614500 0.028407 -170.0 0.999573 -80.01 0.999573 -80.01 0.028407 -170.2
8.68615000 0.028413 -170.0 0.999573 -80.01 0.999573 -80.01 0.028413 -170.2
8.68615500 0.028418 -170.0 0.999573 -80.02 0.999573 -80.02 0.028418 -170.2
8.68616000 0.028424 -170.0 0.999572 -80.02 0.999572 -80.02 0.028424 -170.2
8.68616500 0.028429 -170.0 0.999572 -80.02 0.999572 -80.02 0.028429 -170.2
8.68617000 0.028435 -170.0 0.999572 -80.02 0.999572 -80.02 0.028435 -170.2
8.68617500 0.028440 -170.0 0.999572 -80.02 0.999572 -80.02 0.028440 -170.2
8.68618000 0.028446 -170.0 0.999572 -80.02 0.999572 -80.02 0.028446 -170.2
8.68618500 0.028451 -170.0 0.999572 -80.02 0.999572 -80.02 0.028451 -170.2
8.68619000 0.028457 -170.0 0.999571 -80.02 0.999571 -80.02 0.028457 -170.2
8.68619500 0.028463 -170.0 0.999571 -80.02 0.999571 -80.02 0.028462 -170.2
8.68620000 0.028468 -170.0 0.999571 -80.02 0.999571 -80.02 0.028468 -170.2
8.68620500 0.028474 -170.0 0.999571 -80.02 0.999571 -80.02 0.028474 -170.2
8.68621000 0.028479 -170.0 0.999571 -80.02 0.999571 -80.02 0.028479 -170.2
8.68621500 0.028485 -170.0 0.999570 -80.02 0.999570 -80.02 0.028485 -170.2
8.68622000 0.028491 -170.0 0.999570 -80.02 0.999570 -80.02 0.028490 -170.2
8.68622500 0.028496 -170.0 0.999570 -80.02 0.999570 -80.02 0.028496 -170.2
8.68623000 0.028502 -170.0 0.999570 -80.02 0.999570 -80.02 0.028502 -170.2
8.68623500 0.028507 -170.0 0.999570 -80.02 0.999570 -80.02 0.028507 -170.2
8.68624000 0.028513 -170.0 0.999569 -80.02 0.999569 -80.02 0.028513 -170.2
8.68624500 0.028519 -170.0 0.999569 -80.02 0.999569 -80.02 0.028519 -170.2
8.68625000 0.028524 -170.0 0.999569 -80.02 0.999569 -80.02 0.028524 -170.2
8.68625500 0.028530 -170.0 0.999569 -80.02 0.999569 -80.02 0.028530 -170.2
8.68626000 0.028536 -170.0 0.999569 -80.02 0.999569 -80.02 0.028536 -170.2
8.68626500 0.028541 -170.0 0.999569 -80.02 0.999569 -80.02 0.028541 -170.2
8.68627000 0.028547 -170.0 0.999568 -80.02 0.999568 -80.02 0.028547 -170.2
8.68627500 0.028553 -170.0 0.999568 -80.02 0.999568 -80.02 0.028553 -170.2
8.68628000 0.028558 -170.0 0.999568 -80.02 0.999568 -80.02 0.028558 -170.2
8.68628500 0.028564 -170.0 0.999568 -80.02 0.999568 -80.02 0.028564 -170.2
8.68629000 0.028570 -170.0 0.999568 -80.03 0.999568 -80.03 0.028570 -170.2
