! Sonnet Data File
! From: emgraph Version : 16.52
! From Project: Qubit_Xmon2_brg
! Data is De-embedded 
! Data File Written: 10/24/2017 23:45:54
!< HDATE 10/24/2017 16:04:25
!< MDATE 10/24/2017 16:04:25
!< PARAMS
!< Lj = 11.0
!< Gap = 6.0
!< Pwid = 2000.0
!< Airgap = 6.0
!< Width = 10.0
!< Bwid = 8.0
!< Dis1 = 350.0
!< Dis2 = 356.0
!< END PARAMS
# GHZ S MA R 34.70000
8.68500000 0.985974 109.30 0.166840 19.153 0.166840 19.153 0.985974 109.01
!< P1 F=8.685 Eeff=(5.13559215 -5.6621e-5) Z0=(34.6542042 -9.3986e-5) R=0.0 C=0.0 
!< P2 F=8.685 Eeff=(5.13559215 -5.6621e-5) Z0=(34.6542042 -9.3986e-5) R=0.0 C=0.0 
8.68500500 0.985974 109.30 0.166842 19.153 0.166842 19.153 0.985974 109.01
8.68501000 0.985974 109.30 0.166843 19.153 0.166843 19.153 0.985974 109.01
8.68501500 0.985974 109.30 0.166845 19.152 0.166845 19.152 0.985973 109.01
8.68502000 0.985973 109.30 0.166846 19.152 0.166846 19.152 0.985973 109.01
8.68502500 0.985973 109.30 0.166848 19.152 0.166848 19.152 0.985973 109.01
8.68503000 0.985973 109.30 0.166850 19.152 0.166850 19.152 0.985973 109.01
8.68503500 0.985972 109.30 0.166851 19.152 0.166851 19.152 0.985972 109.01
8.68504000 0.985972 109.30 0.166853 19.152 0.166853 19.152 0.985972 109.01
8.68504500 0.985972 109.30 0.166854 19.152 0.166854 19.152 0.985972 109.01
8.68505000 0.985972 109.30 0.166856 19.151 0.166856 19.151 0.985971 109.01
8.68505500 0.985971 109.30 0.166858 19.151 0.166858 19.151 0.985971 109.01
8.68506000 0.985971 109.30 0.166859 19.151 0.166859 19.151 0.985971 109.01
8.68506500 0.985971 109.29 0.166861 19.151 0.166861 19.151 0.985971 109.01
8.68507000 0.985971 109.29 0.166862 19.151 0.166862 19.151 0.985970 109.01
8.68507500 0.985970 109.29 0.166864 19.151 0.166864 19.151 0.985970 109.01
8.68508000 0.985970 109.29 0.166866 19.151 0.166866 19.151 0.985970 109.01
8.68508500 0.985970 109.29 0.166867 19.151 0.166867 19.151 0.985969 109.01
8.68509000 0.985969 109.29 0.166869 19.150 0.166869 19.150 0.985969 109.01
8.68509500 0.985969 109.29 0.166870 19.150 0.166870 19.150 0.985969 109.01
8.68510000 0.985969 109.29 0.166872 19.150 0.166872 19.150 0.985969 109.01
8.68510500 0.985969 109.29 0.166874 19.150 0.166874 19.150 0.985968 109.01
8.68511000 0.985968 109.29 0.166875 19.150 0.166875 19.150 0.985968 109.01
8.68511500 0.985968 109.29 0.166877 19.150 0.166877 19.150 0.985968 109.01
8.68512000 0.985968 109.29 0.166879 19.150 0.166879 19.150 0.985968 109.01
8.68512500 0.985967 109.29 0.166880 19.149 0.166880 19.149 0.985967 109.01
8.68513000 0.985967 109.29 0.166882 19.149 0.166882 19.149 0.985967 109.01
8.68513500 0.985967 109.29 0.166883 19.149 0.166883 19.149 0.985967 109.01
8.68514000 0.985967 109.29 0.166885 19.149 0.166885 19.149 0.985966 109.01
8.68514500 0.985966 109.29 0.166887 19.149 0.166887 19.149 0.985966 109.01
8.68515000 0.985966 109.29 0.166888 19.149 0.166888 19.149 0.985966 109.01
8.68515500 0.985966 109.29 0.166890 19.149 0.166890 19.149 0.985966 109.01
8.68516000 0.985965 109.29 0.166892 19.149 0.166892 19.149 0.985965 109.01
8.68516500 0.985965 109.29 0.166893 19.148 0.166893 19.148 0.985965 109.01
8.68517000 0.985965 109.29 0.166895 19.148 0.166895 19.148 0.985965 109.01
8.68517500 0.985965 109.29 0.166897 19.148 0.166897 19.148 0.985964 109.01
8.68518000 0.985964 109.29 0.166898 19.148 0.166898 19.148 0.985964 109.01
8.68518500 0.985964 109.29 0.166900 19.148 0.166900 19.148 0.985964 109.01
8.68519000 0.985964 109.29 0.166901 19.148 0.166901 19.148 0.985964 109.01
8.68519500 0.985963 109.29 0.166903 19.148 0.166903 19.148 0.985963 109.01
8.68520000 0.985963 109.29 0.166905 19.148 0.166905 19.148 0.985963 109.01
8.68520500 0.985963 109.29 0.166906 19.147 0.166906 19.147 0.985963 109.01
8.68521000 0.985963 109.29 0.166908 19.147 0.166908 19.147 0.985962 109.01
8.68521500 0.985962 109.29 0.166910 19.147 0.166910 19.147 0.985962 109.00
8.68522000 0.985962 109.29 0.166911 19.147 0.166911 19.147 0.985962 109.00
8.68522500 0.985962 109.29 0.166913 19.147 0.166913 19.147 0.985962 109.00
8.68523000 0.985961 109.29 0.166915 19.147 0.166915 19.147 0.985961 109.00
8.68523500 0.985961 109.29 0.166916 19.147 0.166916 19.147 0.985961 109.00
8.68524000 0.985961 109.29 0.166918 19.146 0.166918 19.146 0.985961 109.00
8.68524500 0.985961 109.29 0.166920 19.146 0.166920 19.146 0.985960 109.00
8.68525000 0.985960 109.29 0.166921 19.146 0.166921 19.146 0.985960 109.00
8.68525500 0.985960 109.29 0.166923 19.146 0.166923 19.146 0.985960 109.00
8.68526000 0.985960 109.29 0.166925 19.146 0.166925 19.146 0.985960 109.00
8.68526500 0.985959 109.29 0.166926 19.146 0.166926 19.146 0.985959 109.00
8.68527000 0.985959 109.29 0.166928 19.146 0.166928 19.146 0.985959 109.00
8.68527500 0.985959 109.29 0.166930 19.145 0.166930 19.145 0.985959 109.00
8.68528000 0.985959 109.29 0.166931 19.145 0.166931 19.145 0.985958 109.00
8.68528500 0.985958 109.29 0.166933 19.145 0.166933 19.145 0.985958 109.00
8.68529000 0.985958 109.29 0.166935 19.145 0.166935 19.145 0.985958 109.00
8.68529500 0.985958 109.29 0.166937 19.145 0.166937 19.145 0.985957 109.00
8.68530000 0.985957 109.29 0.166938 19.145 0.166938 19.145 0.985957 109.00
8.68530500 0.985957 109.29 0.166940 19.145 0.166940 19.145 0.985957 109.00
8.68531000 0.985957 109.29 0.166942 19.145 0.166942 19.145 0.985957 109.00
8.68531500 0.985956 109.29 0.166943 19.144 0.166943 19.144 0.985956 109.00
8.68532000 0.985956 109.29 0.166945 19.144 0.166945 19.144 0.985956 109.00
8.68532500 0.985956 109.29 0.166947 19.144 0.166947 19.144 0.985956 109.00
8.68533000 0.985956 109.29 0.166948 19.144 0.166948 19.144 0.985955 109.00
8.68533500 0.985955 109.29 0.166950 19.144 0.166950 19.144 0.985955 109.00
8.68534000 0.985955 109.29 0.166952 19.144 0.166952 19.144 0.985955 109.00
8.68534500 0.985955 109.29 0.166954 19.144 0.166954 19.144 0.985955 109.00
8.68535000 0.985954 109.29 0.166955 19.143 0.166955 19.143 0.985954 109.00
8.68535500 0.985954 109.29 0.166957 19.143 0.166957 19.143 0.985954 109.00
8.68536000 0.985954 109.29 0.166959 19.143 0.166959 19.143 0.985954 109.00
8.68536500 0.985954 109.29 0.166960 19.143 0.166960 19.143 0.985953 109.00
8.68537000 0.985953 109.29 0.166962 19.143 0.166962 19.143 0.985953 109.00
8.68537500 0.985953 109.29 0.166964 19.143 0.166964 19.143 0.985953 109.00
8.68538000 0.985953 109.29 0.166966 19.143 0.166966 19.143 0.985952 109.00
8.68538500 0.985952 109.29 0.166967 19.142 0.166967 19.142 0.985952 109.00
8.68539000 0.985952 109.29 0.166969 19.142 0.166969 19.142 0.985952 109.00
8.68539500 0.985952 109.29 0.166971 19.142 0.166971 19.142 0.985952 109.00
8.68540000 0.985951 109.29 0.166972 19.142 0.166972 19.142 0.985951 109.00
8.68540500 0.985951 109.29 0.166974 19.142 0.166974 19.142 0.985951 109.00
8.68541000 0.985951 109.29 0.166976 19.142 0.166976 19.142 0.985951 109.00
8.68541500 0.985951 109.29 0.166978 19.142 0.166978 19.142 0.985950 109.00
8.68542000 0.985950 109.29 0.166979 19.142 0.166979 19.142 0.985950 109.00
8.68542500 0.985950 109.29 0.166981 19.141 0.166981 19.141 0.985950 109.00
8.68543000 0.985950 109.29 0.166983 19.141 0.166983 19.141 0.985949 109.00
8.68543500 0.985949 109.29 0.166985 19.141 0.166985 19.141 0.985949 109.00
8.68544000 0.985949 109.29 0.166986 19.141 0.166986 19.141 0.985949 109.00
8.68544500 0.985949 109.29 0.166988 19.141 0.166988 19.141 0.985949 109.00
8.68545000 0.985948 109.28 0.166990 19.141 0.166990 19.141 0.985948 109.00
8.68545500 0.985948 109.28 0.166992 19.141 0.166992 19.141 0.985948 109.00
8.68546000 0.985948 109.28 0.166993 19.140 0.166993 19.140 0.985948 109.00
8.68546500 0.985947 109.28 0.166995 19.140 0.166995 19.140 0.985947 109.00
8.68547000 0.985947 109.28 0.166997 19.140 0.166997 19.140 0.985947 109.00
8.68547500 0.985947 109.28 0.166999 19.140 0.166999 19.140 0.985947 109.00
8.68548000 0.985947 109.28 0.167000 19.140 0.167000 19.140 0.985946 109.00
8.68548500 0.985946 109.28 0.167002 19.140 0.167002 19.140 0.985946 109.00
8.68549000 0.985946 109.28 0.167004 19.140 0.167004 19.140 0.985946 109.00
8.68549500 0.985946 109.28 0.167006 19.139 0.167006 19.139 0.985945 109.00
8.68550000 0.985945 109.28 0.167007 19.139 0.167007 19.139 0.985945 109.00
8.68550500 0.985945 109.28 0.167009 19.139 0.167009 19.139 0.985945 109.00
8.68551000 0.985945 109.28 0.167011 19.139 0.167011 19.139 0.985945 109.00
8.68551500 0.985944 109.28 0.167013 19.139 0.167013 19.139 0.985944 109.00
8.68552000 0.985944 109.28 0.167015 19.139 0.167015 19.139 0.985944 109.00
8.68552500 0.985944 109.28 0.167016 19.139 0.167016 19.139 0.985944 109.00
8.68553000 0.985943 109.28 0.167018 19.138 0.167018 19.138 0.985943 109.00
8.68553500 0.985943 109.28 0.167020 19.138 0.167020 19.138 0.985943 109.00
8.68554000 0.985943 109.28 0.167022 19.138 0.167022 19.138 0.985943 109.00
8.68554500 0.985943 109.28 0.167023 19.138 0.167023 19.138 0.985942 109.00
8.68555000 0.985942 109.28 0.167025 19.138 0.167025 19.138 0.985942 109.00
8.68555500 0.985942 109.28 0.167027 19.138 0.167027 19.138 0.985942 109.00
8.68556000 0.985942 109.28 0.167029 19.138 0.167029 19.138 0.985941 109.00
8.68556500 0.985941 109.28 0.167031 19.137 0.167031 19.137 0.985941 109.00
8.68557000 0.985941 109.28 0.167032 19.137 0.167032 19.137 0.985941 109.00
8.68557500 0.985941 109.28 0.167034 19.137 0.167034 19.137 0.985940 109.00
8.68558000 0.985940 109.28 0.167036 19.137 0.167036 19.137 0.985940 108.99
8.68558500 0.985940 109.28 0.167038 19.137 0.167038 19.137 0.985940 108.99
8.68559000 0.985940 109.28 0.167040 19.137 0.167040 19.137 0.985940 108.99
8.68559500 0.985939 109.28 0.167041 19.137 0.167041 19.137 0.985939 108.99
8.68560000 0.985939 109.28 0.167043 19.136 0.167043 19.136 0.985939 108.99
8.68560500 0.985939 109.28 0.167045 19.136 0.167045 19.136 0.985939 108.99
8.68561000 0.985938 109.28 0.167047 19.136 0.167047 19.136 0.985938 108.99
8.68561500 0.985938 109.28 0.167049 19.136 0.167049 19.136 0.985938 108.99
8.68562000 0.985938 109.28 0.167051 19.136 0.167051 19.136 0.985938 108.99
8.68562500 0.985938 109.28 0.167052 19.136 0.167052 19.136 0.985937 108.99
8.68563000 0.985937 109.28 0.167054 19.136 0.167054 19.136 0.985937 108.99
8.68563500 0.985937 109.28 0.167056 19.135 0.167056 19.135 0.985937 108.99
8.68564000 0.985937 109.28 0.167058 19.135 0.167058 19.135 0.985936 108.99
8.68564500 0.985936 109.28 0.167060 19.135 0.167060 19.135 0.985936 108.99
8.68565000 0.985936 109.28 0.167061 19.135 0.167061 19.135 0.985936 108.99
8.68565500 0.985936 109.28 0.167063 19.135 0.167063 19.135 0.985935 108.99
8.68566000 0.985935 109.28 0.167065 19.135 0.167065 19.135 0.985935 108.99
8.68566500 0.985935 109.28 0.167067 19.135 0.167067 19.135 0.985935 108.99
8.68567000 0.985935 109.28 0.167069 19.134 0.167069 19.134 0.985934 108.99
8.68567500 0.985934 109.28 0.167071 19.134 0.167071 19.134 0.985934 108.99
8.68568000 0.985934 109.28 0.167072 19.134 0.167072 19.134 0.985934 108.99
8.68568500 0.985934 109.28 0.167074 19.134 0.167074 19.134 0.985934 108.99
8.68569000 0.985933 109.28 0.167076 19.134 0.167076 19.134 0.985933 108.99
8.68569500 0.985933 109.28 0.167078 19.134 0.167078 19.134 0.985933 108.99
8.68570000 0.985933 109.28 0.167080 19.134 0.167080 19.134 0.985933 108.99
8.68570500 0.985932 109.28 0.167082 19.133 0.167082 19.133 0.985932 108.99
8.68571000 0.985932 109.28 0.167084 19.133 0.167084 19.133 0.985932 108.99
8.68571500 0.985932 109.28 0.167085 19.133 0.167085 19.133 0.985932 108.99
8.68572000 0.985931 109.28 0.167087 19.133 0.167087 19.133 0.985931 108.99
8.68572500 0.985931 109.28 0.167089 19.133 0.167089 19.133 0.985931 108.99
8.68573000 0.985931 109.28 0.167091 19.133 0.167091 19.133 0.985931 108.99
8.68573500 0.985930 109.28 0.167093 19.133 0.167093 19.133 0.985930 108.99
8.68574000 0.985930 109.28 0.167095 19.132 0.167095 19.132 0.985930 108.99
8.68574500 0.985930 109.28 0.167097 19.132 0.167097 19.132 0.985930 108.99
8.68575000 0.985930 109.28 0.167099 19.132 0.167099 19.132 0.985929 108.99
8.68575500 0.985929 109.28 0.167100 19.132 0.167100 19.132 0.985929 108.99
8.68576000 0.985929 109.28 0.167102 19.132 0.167102 19.132 0.985929 108.99
8.68576500 0.985929 109.28 0.167104 19.132 0.167104 19.132 0.985928 108.99
8.68577000 0.985928 109.28 0.167106 19.132 0.167106 19.132 0.985928 108.99
8.68577500 0.985928 109.28 0.167108 19.131 0.167108 19.131 0.985928 108.99
8.68578000 0.985928 109.28 0.167110 19.131 0.167110 19.131 0.985927 108.99
8.68578500 0.985927 109.28 0.167112 19.131 0.167112 19.131 0.985927 108.99
8.68579000 0.985927 109.28 0.167114 19.131 0.167114 19.131 0.985927 108.99
8.68579500 0.985927 109.28 0.167115 19.131 0.167115 19.131 0.985926 108.99
8.68580000 0.985926 109.28 0.167117 19.131 0.167117 19.131 0.985926 108.99
8.68580500 0.985926 109.27 0.167119 19.130 0.167119 19.130 0.985926 108.99
8.68581000 0.985926 109.27 0.167121 19.130 0.167121 19.130 0.985925 108.99
8.68581500 0.985925 109.27 0.167123 19.130 0.167123 19.130 0.985925 108.99
8.68582000 0.985925 109.27 0.167125 19.130 0.167125 19.130 0.985925 108.99
8.68582500 0.985925 109.27 0.167127 19.130 0.167127 19.130 0.985924 108.99
8.68583000 0.985924 109.27 0.167129 19.130 0.167129 19.130 0.985924 108.99
8.68583500 0.985924 109.27 0.167131 19.130 0.167131 19.130 0.985924 108.99
8.68584000 0.985924 109.27 0.167133 19.129 0.167133 19.129 0.985923 108.99
8.68584500 0.985923 109.27 0.167135 19.129 0.167135 19.129 0.985923 108.99
8.68585000 0.985923 109.27 0.167136 19.129 0.167136 19.129 0.985923 108.99
8.68585500 0.985923 109.27 0.167138 19.129 0.167138 19.129 0.985922 108.99
8.68586000 0.985922 109.27 0.167140 19.129 0.167140 19.129 0.985922 108.99
8.68586500 0.985922 109.27 0.167142 19.129 0.167142 19.129 0.985922 108.99
8.68587000 0.985922 109.27 0.167144 19.129 0.167144 19.129 0.985921 108.99
8.68587500 0.985921 109.27 0.167146 19.128 0.167146 19.128 0.985921 108.99
8.68588000 0.985921 109.27 0.167148 19.128 0.167148 19.128 0.985921 108.99
8.68588500 0.985921 109.27 0.167150 19.128 0.167150 19.128 0.985920 108.99
8.68589000 0.985920 109.27 0.167152 19.128 0.167152 19.128 0.985920 108.99
8.68589500 0.985920 109.27 0.167154 19.128 0.167154 19.128 0.985920 108.99
8.68590000 0.985920 109.27 0.167156 19.128 0.167156 19.128 0.985919 108.99
8.68590500 0.985919 109.27 0.167158 19.127 0.167158 19.127 0.985919 108.99
8.68591000 0.985919 109.27 0.167160 19.127 0.167160 19.127 0.985919 108.99
8.68591500 0.985919 109.27 0.167162 19.127 0.167162 19.127 0.985918 108.99
8.68592000 0.985918 109.27 0.167164 19.127 0.167164 19.127 0.985918 108.99
8.68592500 0.985918 109.27 0.167166 19.127 0.167166 19.127 0.985918 108.98
8.68593000 0.985918 109.27 0.167168 19.127 0.167168 19.127 0.985917 108.98
8.68593500 0.985917 109.27 0.167169 19.127 0.167169 19.127 0.985917 108.98
8.68594000 0.985917 109.27 0.167171 19.126 0.167171 19.126 0.985917 108.98
8.68594500 0.985916 109.27 0.167173 19.126 0.167173 19.126 0.985916 108.98
8.68595000 0.985916 109.27 0.167175 19.126 0.167175 19.126 0.985916 108.98
8.68595500 0.985916 109.27 0.167177 19.126 0.167177 19.126 0.985916 108.98
8.68596000 0.985915 109.27 0.167179 19.126 0.167179 19.126 0.985915 108.98
8.68596500 0.985915 109.27 0.167181 19.126 0.167181 19.126 0.985915 108.98
8.68597000 0.985915 109.27 0.167183 19.125 0.167183 19.125 0.985915 108.98
8.68597500 0.985914 109.27 0.167185 19.125 0.167185 19.125 0.985914 108.98
8.68598000 0.985914 109.27 0.167187 19.125 0.167187 19.125 0.985914 108.98
8.68598500 0.985914 109.27 0.167189 19.125 0.167189 19.125 0.985914 108.98
8.68599000 0.985913 109.27 0.167191 19.125 0.167191 19.125 0.985913 108.98
8.68599500 0.985913 109.27 0.167193 19.125 0.167193 19.125 0.985913 108.98
8.68600000 0.985913 109.27 0.167195 19.125 0.167195 19.125 0.985912 108.98
8.68600500 0.985912 109.27 0.167197 19.124 0.167197 19.124 0.985912 108.98
8.68601000 0.985912 109.27 0.167199 19.124 0.167199 19.124 0.985912 108.98
8.68601500 0.985912 109.27 0.167201 19.124 0.167201 19.124 0.985911 108.98
8.68602000 0.985911 109.27 0.167203 19.124 0.167203 19.124 0.985911 108.98
8.68602500 0.985911 109.27 0.167205 19.124 0.167205 19.124 0.985911 108.98
8.68603000 0.985911 109.27 0.167207 19.124 0.167207 19.124 0.985910 108.98
8.68603500 0.985910 109.27 0.167209 19.123 0.167209 19.123 0.985910 108.98
8.68604000 0.985910 109.27 0.167211 19.123 0.167211 19.123 0.985910 108.98
8.68604500 0.985910 109.27 0.167213 19.123 0.167213 19.123 0.985909 108.98
8.68605000 0.985909 109.27 0.167215 19.123 0.167215 19.123 0.985909 108.98
8.68605500 0.985909 109.27 0.167217 19.123 0.167217 19.123 0.985909 108.98
8.68606000 0.985909 109.27 0.167219 19.123 0.167219 19.123 0.985908 108.98
8.68606500 0.985908 109.27 0.167221 19.123 0.167221 19.123 0.985908 108.98
8.68607000 0.985908 109.27 0.167223 19.122 0.167223 19.122 0.985908 108.98
8.68607500 0.985907 109.27 0.167225 19.122 0.167225 19.122 0.985907 108.98
8.68608000 0.985907 109.27 0.167227 19.122 0.167227 19.122 0.985907 108.98
8.68608500 0.985907 109.27 0.167229 19.122 0.167229 19.122 0.985907 108.98
8.68609000 0.985906 109.27 0.167231 19.122 0.167231 19.122 0.985906 108.98
8.68609500 0.985906 109.27 0.167233 19.122 0.167233 19.122 0.985906 108.98
8.68610000 0.985906 109.27 0.167235 19.121 0.167235 19.121 0.985905 108.98
8.68610500 0.985905 109.27 0.167238 19.121 0.167238 19.121 0.985905 108.98
8.68611000 0.985905 109.27 0.167240 19.121 0.167240 19.121 0.985905 108.98
8.68611500 0.985905 109.27 0.167242 19.121 0.167242 19.121 0.985904 108.98
8.68612000 0.985904 109.27 0.167244 19.121 0.167244 19.121 0.985904 108.98
8.68612500 0.985904 109.27 0.167246 19.121 0.167246 19.121 0.985904 108.98
8.68613000 0.985904 109.27 0.167248 19.121 0.167248 19.121 0.985903 108.98
8.68613500 0.985903 109.27 0.167250 19.120 0.167250 19.120 0.985903 108.98
8.68614000 0.985903 109.27 0.167252 19.120 0.167252 19.120 0.985903 108.98
8.68614500 0.985902 109.26 0.167254 19.120 0.167254 19.120 0.985902 108.98
8.68615000 0.985902 109.26 0.167256 19.120 0.167256 19.120 0.985902 108.98
8.68615500 0.985902 109.26 0.167258 19.120 0.167258 19.120 0.985902 108.98
8.68616000 0.985901 109.26 0.167260 19.120 0.167260 19.120 0.985901 108.98
8.68616500 0.985901 109.26 0.167262 19.119 0.167262 19.119 0.985901 108.98
8.68617000 0.985901 109.26 0.167264 19.119 0.167264 19.119 0.985900 108.98
8.68617500 0.985900 109.26 0.167266 19.119 0.167266 19.119 0.985900 108.98
8.68618000 0.985900 109.26 0.167268 19.119 0.167268 19.119 0.985900 108.98
8.68618500 0.985900 109.26 0.167271 19.119 0.167271 19.119 0.985899 108.98
8.68619000 0.985899 109.26 0.167273 19.119 0.167273 19.119 0.985899 108.98
8.68619500 0.985899 109.26 0.167275 19.118 0.167275 19.118 0.985899 108.98
8.68620000 0.985898 109.26 0.167277 19.118 0.167277 19.118 0.985898 108.98
8.68620500 0.985898 109.26 0.167279 19.118 0.167279 19.118 0.985898 108.98
8.68621000 0.985898 109.26 0.167281 19.118 0.167281 19.118 0.985898 108.98
8.68621500 0.985897 109.26 0.167283 19.118 0.167283 19.118 0.985897 108.98
8.68622000 0.985897 109.26 0.167285 19.118 0.167285 19.118 0.985897 108.98
8.68622500 0.985897 109.26 0.167287 19.117 0.167287 19.117 0.985896 108.98
8.68623000 0.985896 109.26 0.167289 19.117 0.167289 19.117 0.985896 108.98
8.68623500 0.985896 109.26 0.167292 19.117 0.167292 19.117 0.985896 108.98
8.68624000 0.985896 109.26 0.167294 19.117 0.167294 19.117 0.985895 108.98
8.68624500 0.985895 109.26 0.167296 19.117 0.167296 19.117 0.985895 108.97
8.68625000 0.985895 109.26 0.167298 19.117 0.167298 19.117 0.985895 108.97
8.68625500 0.985894 109.26 0.167300 19.117 0.167300 19.117 0.985894 108.97
8.68626000 0.985894 109.26 0.167302 19.116 0.167302 19.116 0.985894 108.97
8.68626500 0.985894 109.26 0.167304 19.116 0.167304 19.116 0.985893 108.97
8.68627000 0.985893 109.26 0.167306 19.116 0.167306 19.116 0.985893 108.97
8.68627500 0.985893 109.26 0.167309 19.116 0.167309 19.116 0.985893 108.97
8.68628000 0.985893 109.26 0.167311 19.116 0.167311 19.116 0.985892 108.97
8.68628500 0.985892 109.26 0.167313 19.116 0.167313 19.116 0.985892 108.97
8.68629000 0.985892 109.26 0.167315 19.115 0.167315 19.115 0.985892 108.97
