! Sonnet Data File
! From: emgraph Version : 16.52
! From Project: Qubit_Xmon2_brg
! Data is De-embedded 
! Data File Written: 10/24/2017 23:45:54
!< HDATE 10/24/2017 16:04:25
!< MDATE 10/24/2017 16:04:25
!< PARAMS
!< Lj = 11.0
!< Gap = 6.0
!< Pwid = 2000.0
!< Airgap = 6.0
!< Width = 10.0
!< Bwid = 8.0
!< Dis1 = 450.0
!< Dis2 = 456.0
!< END PARAMS
# GHZ S MA R 34.70000
8.68500000 0.989973 114.32 0.141230 24.248 0.141230 24.248 0.989973 114.17
!< P1 F=8.685 Eeff=(5.13559215 -5.6621e-5) Z0=(34.6542042 -9.3986e-5) R=0.0 C=0.0 
!< P2 F=8.685 Eeff=(5.13559215 -5.6621e-5) Z0=(34.6542042 -9.3986e-5) R=0.0 C=0.0 
8.68500500 0.989973 114.32 0.141230 24.248 0.141230 24.248 0.989973 114.17
8.68501000 0.989973 114.32 0.141230 24.248 0.141230 24.248 0.989973 114.17
8.68501500 0.989973 114.32 0.141230 24.248 0.141230 24.248 0.989973 114.17
8.68502000 0.989973 114.32 0.141230 24.248 0.141230 24.248 0.989973 114.17
8.68502500 0.989973 114.32 0.141230 24.248 0.141230 24.248 0.989973 114.17
8.68503000 0.989973 114.32 0.141230 24.248 0.141230 24.248 0.989973 114.17
8.68503500 0.989973 114.32 0.141230 24.248 0.141230 24.248 0.989973 114.17
8.68504000 0.989973 114.32 0.141230 24.247 0.141230 24.247 0.989973 114.17
8.68504500 0.989973 114.32 0.141231 24.247 0.141231 24.247 0.989973 114.17
8.68505000 0.989973 114.32 0.141231 24.247 0.141231 24.247 0.989973 114.17
8.68505500 0.989973 114.32 0.141231 24.247 0.141231 24.247 0.989973 114.17
8.68506000 0.989973 114.32 0.141231 24.247 0.141231 24.247 0.989973 114.17
8.68506500 0.989973 114.32 0.141231 24.247 0.141231 24.247 0.989973 114.17
8.68507000 0.989973 114.32 0.141231 24.247 0.141231 24.247 0.989973 114.17
8.68507500 0.989973 114.32 0.141231 24.247 0.141231 24.247 0.989973 114.17
8.68508000 0.989973 114.32 0.141231 24.247 0.141231 24.247 0.989973 114.17
8.68508500 0.989973 114.32 0.141231 24.247 0.141231 24.247 0.989973 114.17
8.68509000 0.989973 114.32 0.141231 24.247 0.141231 24.247 0.989973 114.17
8.68509500 0.989973 114.32 0.141231 24.247 0.141231 24.247 0.989973 114.17
8.68510000 0.989973 114.32 0.141232 24.247 0.141232 24.247 0.989973 114.17
8.68510500 0.989973 114.32 0.141232 24.247 0.141232 24.247 0.989973 114.17
8.68511000 0.989973 114.32 0.141232 24.247 0.141232 24.247 0.989973 114.17
8.68511500 0.989973 114.32 0.141232 24.247 0.141232 24.247 0.989973 114.17
8.68512000 0.989973 114.32 0.141232 24.247 0.141232 24.247 0.989973 114.17
8.68512500 0.989973 114.32 0.141232 24.247 0.141232 24.247 0.989973 114.17
8.68513000 0.989973 114.32 0.141232 24.247 0.141232 24.247 0.989973 114.17
8.68513500 0.989973 114.32 0.141232 24.247 0.141232 24.247 0.989973 114.17
8.68514000 0.989973 114.32 0.141232 24.247 0.141232 24.247 0.989973 114.17
8.68514500 0.989973 114.32 0.141232 24.247 0.141232 24.247 0.989973 114.17
8.68515000 0.989973 114.32 0.141233 24.247 0.141233 24.247 0.989973 114.17
8.68515500 0.989973 114.32 0.141233 24.247 0.141233 24.247 0.989973 114.17
8.68516000 0.989973 114.32 0.141233 24.247 0.141233 24.247 0.989973 114.17
8.68516500 0.989973 114.32 0.141233 24.246 0.141233 24.246 0.989973 114.17
8.68517000 0.989973 114.32 0.141233 24.246 0.141233 24.246 0.989973 114.17
8.68517500 0.989973 114.32 0.141233 24.246 0.141233 24.246 0.989973 114.17
8.68518000 0.989973 114.32 0.141233 24.246 0.141233 24.246 0.989973 114.17
8.68518500 0.989973 114.32 0.141233 24.246 0.141233 24.246 0.989973 114.17
8.68519000 0.989973 114.32 0.141233 24.246 0.141233 24.246 0.989973 114.17
8.68519500 0.989973 114.32 0.141233 24.246 0.141233 24.246 0.989973 114.17
8.68520000 0.989973 114.32 0.141234 24.246 0.141234 24.246 0.989973 114.17
8.68520500 0.989973 114.32 0.141234 24.246 0.141234 24.246 0.989973 114.17
8.68521000 0.989973 114.32 0.141234 24.246 0.141234 24.246 0.989973 114.17
8.68521500 0.989973 114.32 0.141234 24.246 0.141234 24.246 0.989973 114.17
8.68522000 0.989973 114.32 0.141234 24.246 0.141234 24.246 0.989973 114.17
8.68522500 0.989973 114.32 0.141234 24.246 0.141234 24.246 0.989973 114.17
8.68523000 0.989973 114.32 0.141234 24.246 0.141234 24.246 0.989973 114.17
8.68523500 0.989973 114.32 0.141234 24.246 0.141234 24.246 0.989973 114.17
8.68524000 0.989973 114.32 0.141234 24.246 0.141234 24.246 0.989973 114.17
8.68524500 0.989973 114.32 0.141234 24.246 0.141234 24.246 0.989973 114.17
8.68525000 0.989973 114.32 0.141234 24.246 0.141234 24.246 0.989973 114.17
8.68525500 0.989973 114.32 0.141235 24.246 0.141235 24.246 0.989973 114.17
8.68526000 0.989973 114.32 0.141235 24.246 0.141235 24.246 0.989973 114.17
8.68526500 0.989973 114.32 0.141235 24.246 0.141235 24.246 0.989972 114.17
8.68527000 0.989972 114.32 0.141235 24.246 0.141235 24.246 0.989972 114.17
8.68527500 0.989972 114.32 0.141235 24.246 0.141235 24.246 0.989972 114.17
8.68528000 0.989972 114.32 0.141235 24.246 0.141235 24.246 0.989972 114.17
8.68528500 0.989972 114.32 0.141235 24.246 0.141235 24.246 0.989972 114.17
8.68529000 0.989972 114.32 0.141235 24.246 0.141235 24.246 0.989972 114.17
8.68529500 0.989972 114.32 0.141235 24.245 0.141235 24.245 0.989972 114.17
8.68530000 0.989972 114.32 0.141235 24.245 0.141235 24.245 0.989972 114.17
8.68530500 0.989972 114.32 0.141236 24.245 0.141236 24.245 0.989972 114.17
8.68531000 0.989972 114.32 0.141236 24.245 0.141236 24.245 0.989972 114.17
8.68531500 0.989972 114.32 0.141236 24.245 0.141236 24.245 0.989972 114.17
8.68532000 0.989972 114.32 0.141236 24.245 0.141236 24.245 0.989972 114.17
8.68532500 0.989972 114.32 0.141236 24.245 0.141236 24.245 0.989972 114.17
8.68533000 0.989972 114.32 0.141236 24.245 0.141236 24.245 0.989972 114.17
8.68533500 0.989972 114.32 0.141236 24.245 0.141236 24.245 0.989972 114.17
8.68534000 0.989972 114.32 0.141236 24.245 0.141236 24.245 0.989972 114.17
8.68534500 0.989972 114.32 0.141236 24.245 0.141236 24.245 0.989972 114.17
8.68535000 0.989972 114.32 0.141236 24.245 0.141236 24.245 0.989972 114.17
8.68535500 0.989972 114.32 0.141237 24.245 0.141237 24.245 0.989972 114.17
8.68536000 0.989972 114.32 0.141237 24.245 0.141237 24.245 0.989972 114.17
8.68536500 0.989972 114.32 0.141237 24.245 0.141237 24.245 0.989972 114.17
8.68537000 0.989972 114.32 0.141237 24.245 0.141237 24.245 0.989972 114.17
8.68537500 0.989972 114.32 0.141237 24.245 0.141237 24.245 0.989972 114.17
8.68538000 0.989972 114.32 0.141237 24.245 0.141237 24.245 0.989972 114.17
8.68538500 0.989972 114.32 0.141237 24.245 0.141237 24.245 0.989972 114.17
8.68539000 0.989972 114.32 0.141237 24.245 0.141237 24.245 0.989972 114.17
8.68539500 0.989972 114.32 0.141237 24.245 0.141237 24.245 0.989972 114.17
8.68540000 0.989972 114.32 0.141237 24.245 0.141237 24.245 0.989972 114.17
8.68540500 0.989972 114.32 0.141237 24.245 0.141237 24.245 0.989972 114.17
8.68541000 0.989972 114.32 0.141238 24.245 0.141238 24.245 0.989972 114.17
8.68541500 0.989972 114.32 0.141238 24.245 0.141238 24.245 0.989972 114.17
8.68542000 0.989972 114.32 0.141238 24.245 0.141238 24.245 0.989972 114.17
8.68542500 0.989972 114.32 0.141238 24.244 0.141238 24.244 0.989972 114.17
8.68543000 0.989972 114.32 0.141238 24.244 0.141238 24.244 0.989972 114.17
8.68543500 0.989972 114.32 0.141238 24.244 0.141238 24.244 0.989972 114.17
8.68544000 0.989972 114.32 0.141238 24.244 0.141238 24.244 0.989972 114.17
8.68544500 0.989972 114.32 0.141238 24.244 0.141238 24.244 0.989972 114.17
8.68545000 0.989972 114.32 0.141238 24.244 0.141238 24.244 0.989972 114.17
8.68545500 0.989972 114.32 0.141238 24.244 0.141238 24.244 0.989972 114.17
8.68546000 0.989972 114.32 0.141239 24.244 0.141239 24.244 0.989972 114.17
8.68546500 0.989972 114.32 0.141239 24.244 0.141239 24.244 0.989972 114.17
8.68547000 0.989972 114.32 0.141239 24.244 0.141239 24.244 0.989972 114.17
8.68547500 0.989972 114.32 0.141239 24.244 0.141239 24.244 0.989972 114.17
8.68548000 0.989972 114.32 0.141239 24.244 0.141239 24.244 0.989972 114.17
8.68548500 0.989972 114.32 0.141239 24.244 0.141239 24.244 0.989972 114.17
8.68549000 0.989972 114.32 0.141239 24.244 0.141239 24.244 0.989972 114.17
8.68549500 0.989972 114.32 0.141239 24.244 0.141239 24.244 0.989972 114.17
8.68550000 0.989972 114.32 0.141239 24.244 0.141239 24.244 0.989972 114.17
8.68550500 0.989972 114.32 0.141239 24.244 0.141239 24.244 0.989972 114.17
8.68551000 0.989972 114.32 0.141240 24.244 0.141240 24.244 0.989972 114.17
8.68551500 0.989972 114.32 0.141240 24.244 0.141240 24.244 0.989972 114.17
8.68552000 0.989972 114.32 0.141240 24.244 0.141240 24.244 0.989972 114.17
8.68552500 0.989972 114.32 0.141240 24.244 0.141240 24.244 0.989972 114.17
8.68553000 0.989972 114.32 0.141240 24.244 0.141240 24.244 0.989972 114.17
8.68553500 0.989972 114.32 0.141240 24.244 0.141240 24.244 0.989972 114.17
8.68554000 0.989972 114.32 0.141240 24.244 0.141240 24.244 0.989972 114.17
8.68554500 0.989972 114.32 0.141240 24.244 0.141240 24.244 0.989972 114.17
8.68555000 0.989972 114.32 0.141240 24.244 0.141240 24.244 0.989972 114.17
8.68555500 0.989972 114.32 0.141240 24.243 0.141240 24.243 0.989972 114.17
8.68556000 0.989972 114.32 0.141240 24.243 0.141240 24.243 0.989972 114.17
8.68556500 0.989972 114.32 0.141241 24.243 0.141241 24.243 0.989972 114.17
8.68557000 0.989972 114.32 0.141241 24.243 0.141241 24.243 0.989972 114.17
8.68557500 0.989972 114.32 0.141241 24.243 0.141241 24.243 0.989972 114.17
8.68558000 0.989972 114.32 0.141241 24.243 0.141241 24.243 0.989972 114.17
8.68558500 0.989972 114.32 0.141241 24.243 0.141241 24.243 0.989972 114.17
8.68559000 0.989972 114.32 0.141241 24.243 0.141241 24.243 0.989972 114.17
8.68559500 0.989972 114.32 0.141241 24.243 0.141241 24.243 0.989972 114.17
8.68560000 0.989972 114.32 0.141241 24.243 0.141241 24.243 0.989972 114.17
8.68560500 0.989972 114.32 0.141241 24.243 0.141241 24.243 0.989972 114.17
8.68561000 0.989972 114.32 0.141241 24.243 0.141241 24.243 0.989972 114.17
8.68561500 0.989972 114.32 0.141242 24.243 0.141242 24.243 0.989972 114.17
8.68562000 0.989972 114.32 0.141242 24.243 0.141242 24.243 0.989972 114.17
8.68562500 0.989972 114.32 0.141242 24.243 0.141242 24.243 0.989972 114.17
8.68563000 0.989972 114.32 0.141242 24.243 0.141242 24.243 0.989971 114.17
8.68563500 0.989971 114.32 0.141242 24.243 0.141242 24.243 0.989971 114.17
8.68564000 0.989971 114.32 0.141242 24.243 0.141242 24.243 0.989971 114.17
8.68564500 0.989971 114.32 0.141242 24.243 0.141242 24.243 0.989971 114.17
8.68565000 0.989971 114.32 0.141242 24.243 0.141242 24.243 0.989971 114.17
8.68565500 0.989971 114.32 0.141242 24.243 0.141242 24.243 0.989971 114.17
8.68566000 0.989971 114.32 0.141242 24.243 0.141242 24.243 0.989971 114.17
8.68566500 0.989971 114.32 0.141243 24.243 0.141243 24.243 0.989971 114.17
8.68567000 0.989971 114.32 0.141243 24.243 0.141243 24.243 0.989971 114.17
8.68567500 0.989971 114.32 0.141243 24.243 0.141243 24.243 0.989971 114.17
8.68568000 0.989971 114.32 0.141243 24.243 0.141243 24.243 0.989971 114.17
8.68568500 0.989971 114.32 0.141243 24.242 0.141243 24.242 0.989971 114.17
8.68569000 0.989971 114.32 0.141243 24.242 0.141243 24.242 0.989971 114.17
8.68569500 0.989971 114.32 0.141243 24.242 0.141243 24.242 0.989971 114.17
8.68570000 0.989971 114.32 0.141243 24.242 0.141243 24.242 0.989971 114.17
8.68570500 0.989971 114.32 0.141243 24.242 0.141243 24.242 0.989971 114.17
8.68571000 0.989971 114.32 0.141243 24.242 0.141243 24.242 0.989971 114.17
8.68571500 0.989971 114.32 0.141244 24.242 0.141244 24.242 0.989971 114.17
8.68572000 0.989971 114.32 0.141244 24.242 0.141244 24.242 0.989971 114.17
8.68572500 0.989971 114.32 0.141244 24.242 0.141244 24.242 0.989971 114.17
8.68573000 0.989971 114.32 0.141244 24.242 0.141244 24.242 0.989971 114.17
8.68573500 0.989971 114.32 0.141244 24.242 0.141244 24.242 0.989971 114.17
8.68574000 0.989971 114.32 0.141244 24.242 0.141244 24.242 0.989971 114.17
8.68574500 0.989971 114.32 0.141244 24.242 0.141244 24.242 0.989971 114.17
8.68575000 0.989971 114.32 0.141244 24.242 0.141244 24.242 0.989971 114.17
8.68575500 0.989971 114.32 0.141244 24.242 0.141244 24.242 0.989971 114.17
8.68576000 0.989971 114.32 0.141244 24.242 0.141244 24.242 0.989971 114.17
8.68576500 0.989971 114.32 0.141244 24.242 0.141244 24.242 0.989971 114.17
8.68577000 0.989971 114.32 0.141245 24.242 0.141245 24.242 0.989971 114.17
8.68577500 0.989971 114.32 0.141245 24.242 0.141245 24.242 0.989971 114.16
8.68578000 0.989971 114.32 0.141245 24.242 0.141245 24.242 0.989971 114.16
8.68578500 0.989971 114.32 0.141245 24.242 0.141245 24.242 0.989971 114.16
8.68579000 0.989971 114.32 0.141245 24.242 0.141245 24.242 0.989971 114.16
8.68579500 0.989971 114.32 0.141245 24.242 0.141245 24.242 0.989971 114.16
8.68580000 0.989971 114.32 0.141245 24.242 0.141245 24.242 0.989971 114.16
8.68580500 0.989971 114.32 0.141245 24.242 0.141245 24.242 0.989971 114.16
8.68581000 0.989971 114.32 0.141245 24.242 0.141245 24.242 0.989971 114.16
8.68581500 0.989971 114.32 0.141245 24.241 0.141245 24.241 0.989971 114.16
8.68582000 0.989971 114.32 0.141246 24.241 0.141246 24.241 0.989971 114.16
8.68582500 0.989971 114.32 0.141246 24.241 0.141246 24.241 0.989971 114.16
8.68583000 0.989971 114.32 0.141246 24.241 0.141246 24.241 0.989971 114.16
8.68583500 0.989971 114.32 0.141246 24.241 0.141246 24.241 0.989971 114.16
8.68584000 0.989971 114.32 0.141246 24.241 0.141246 24.241 0.989971 114.16
8.68584500 0.989971 114.32 0.141246 24.241 0.141246 24.241 0.989971 114.16
8.68585000 0.989971 114.32 0.141246 24.241 0.141246 24.241 0.989971 114.16
8.68585500 0.989971 114.32 0.141246 24.241 0.141246 24.241 0.989971 114.16
8.68586000 0.989971 114.32 0.141246 24.241 0.141246 24.241 0.989971 114.16
8.68586500 0.989971 114.32 0.141246 24.241 0.141246 24.241 0.989971 114.16
8.68587000 0.989971 114.32 0.141247 24.241 0.141247 24.241 0.989971 114.16
8.68587500 0.989971 114.32 0.141247 24.241 0.141247 24.241 0.989971 114.16
8.68588000 0.989971 114.32 0.141247 24.241 0.141247 24.241 0.989971 114.16
8.68588500 0.989971 114.32 0.141247 24.241 0.141247 24.241 0.989971 114.16
8.68589000 0.989971 114.32 0.141247 24.241 0.141247 24.241 0.989971 114.16
8.68589500 0.989971 114.32 0.141247 24.241 0.141247 24.241 0.989971 114.16
8.68590000 0.989971 114.32 0.141247 24.241 0.141247 24.241 0.989971 114.16
8.68590500 0.989971 114.32 0.141247 24.241 0.141247 24.241 0.989971 114.16
8.68591000 0.989971 114.32 0.141247 24.241 0.141247 24.241 0.989971 114.16
8.68591500 0.989971 114.32 0.141247 24.241 0.141247 24.241 0.989971 114.16
8.68592000 0.989971 114.32 0.141247 24.241 0.141247 24.241 0.989971 114.16
8.68592500 0.989971 114.32 0.141248 24.241 0.141248 24.241 0.989971 114.16
8.68593000 0.989971 114.32 0.141248 24.241 0.141248 24.241 0.989971 114.16
8.68593500 0.989971 114.32 0.141248 24.241 0.141248 24.241 0.989971 114.16
8.68594000 0.989971 114.32 0.141248 24.241 0.141248 24.241 0.989971 114.16
8.68594500 0.989971 114.31 0.141248 24.240 0.141248 24.240 0.989971 114.16
8.68595000 0.989971 114.31 0.141248 24.240 0.141248 24.240 0.989971 114.16
8.68595500 0.989971 114.31 0.141248 24.240 0.141248 24.240 0.989971 114.16
8.68596000 0.989971 114.31 0.141248 24.240 0.141248 24.240 0.989971 114.16
8.68596500 0.989971 114.31 0.141248 24.240 0.141248 24.240 0.989971 114.16
8.68597000 0.989971 114.31 0.141248 24.240 0.141248 24.240 0.989971 114.16
8.68597500 0.989971 114.31 0.141249 24.240 0.141249 24.240 0.989971 114.16
8.68598000 0.989971 114.31 0.141249 24.240 0.141249 24.240 0.989971 114.16
8.68598500 0.989971 114.31 0.141249 24.240 0.141249 24.240 0.989971 114.16
8.68599000 0.989971 114.31 0.141249 24.240 0.141249 24.240 0.989970 114.16
8.68599500 0.989970 114.31 0.141249 24.240 0.141249 24.240 0.989970 114.16
8.68600000 0.989970 114.31 0.141249 24.240 0.141249 24.240 0.989970 114.16
8.68600500 0.989970 114.31 0.141249 24.240 0.141249 24.240 0.989970 114.16
8.68601000 0.989970 114.31 0.141249 24.240 0.141249 24.240 0.989970 114.16
8.68601500 0.989970 114.31 0.141249 24.240 0.141249 24.240 0.989970 114.16
8.68602000 0.989970 114.31 0.141249 24.240 0.141249 24.240 0.989970 114.16
8.68602500 0.989970 114.31 0.141250 24.240 0.141250 24.240 0.989970 114.16
8.68603000 0.989970 114.31 0.141250 24.240 0.141250 24.240 0.989970 114.16
8.68603500 0.989970 114.31 0.141250 24.240 0.141250 24.240 0.989970 114.16
8.68604000 0.989970 114.31 0.141250 24.240 0.141250 24.240 0.989970 114.16
8.68604500 0.989970 114.31 0.141250 24.240 0.141250 24.240 0.989970 114.16
8.68605000 0.989970 114.31 0.141250 24.240 0.141250 24.240 0.989970 114.16
8.68605500 0.989970 114.31 0.141250 24.240 0.141250 24.240 0.989970 114.16
8.68606000 0.989970 114.31 0.141250 24.240 0.141250 24.240 0.989970 114.16
8.68606500 0.989970 114.31 0.141250 24.240 0.141250 24.240 0.989970 114.16
8.68607000 0.989970 114.31 0.141250 24.240 0.141250 24.240 0.989970 114.16
8.68607500 0.989970 114.31 0.141250 24.239 0.141250 24.239 0.989970 114.16
8.68608000 0.989970 114.31 0.141251 24.239 0.141251 24.239 0.989970 114.16
8.68608500 0.989970 114.31 0.141251 24.239 0.141251 24.239 0.989970 114.16
8.68609000 0.989970 114.31 0.141251 24.239 0.141251 24.239 0.989970 114.16
8.68609500 0.989970 114.31 0.141251 24.239 0.141251 24.239 0.989970 114.16
8.68610000 0.989970 114.31 0.141251 24.239 0.141251 24.239 0.989970 114.16
8.68610500 0.989970 114.31 0.141251 24.239 0.141251 24.239 0.989970 114.16
8.68611000 0.989970 114.31 0.141251 24.239 0.141251 24.239 0.989970 114.16
8.68611500 0.989970 114.31 0.141251 24.239 0.141251 24.239 0.989970 114.16
8.68612000 0.989970 114.31 0.141251 24.239 0.141251 24.239 0.989970 114.16
8.68612500 0.989970 114.31 0.141251 24.239 0.141251 24.239 0.989970 114.16
8.68613000 0.989970 114.31 0.141252 24.239 0.141252 24.239 0.989970 114.16
8.68613500 0.989970 114.31 0.141252 24.239 0.141252 24.239 0.989970 114.16
8.68614000 0.989970 114.31 0.141252 24.239 0.141252 24.239 0.989970 114.16
8.68614500 0.989970 114.31 0.141252 24.239 0.141252 24.239 0.989970 114.16
8.68615000 0.989970 114.31 0.141252 24.239 0.141252 24.239 0.989970 114.16
8.68615500 0.989970 114.31 0.141252 24.239 0.141252 24.239 0.989970 114.16
8.68616000 0.989970 114.31 0.141252 24.239 0.141252 24.239 0.989970 114.16
8.68616500 0.989970 114.31 0.141252 24.239 0.141252 24.239 0.989970 114.16
8.68617000 0.989970 114.31 0.141252 24.239 0.141252 24.239 0.989970 114.16
8.68617500 0.989970 114.31 0.141252 24.239 0.141252 24.239 0.989970 114.16
8.68618000 0.989970 114.31 0.141253 24.239 0.141253 24.239 0.989970 114.16
8.68618500 0.989970 114.31 0.141253 24.239 0.141253 24.239 0.989970 114.16
8.68619000 0.989970 114.31 0.141253 24.239 0.141253 24.239 0.989970 114.16
8.68619500 0.989970 114.31 0.141253 24.239 0.141253 24.239 0.989970 114.16
8.68620000 0.989970 114.31 0.141253 24.239 0.141253 24.239 0.989970 114.16
8.68620500 0.989970 114.31 0.141253 24.238 0.141253 24.238 0.989970 114.16
8.68621000 0.989970 114.31 0.141253 24.238 0.141253 24.238 0.989970 114.16
8.68621500 0.989970 114.31 0.141253 24.238 0.141253 24.238 0.989970 114.16
8.68622000 0.989970 114.31 0.141253 24.238 0.141253 24.238 0.989970 114.16
8.68622500 0.989970 114.31 0.141253 24.238 0.141253 24.238 0.989970 114.16
8.68623000 0.989970 114.31 0.141253 24.238 0.141253 24.238 0.989970 114.16
8.68623500 0.989970 114.31 0.141254 24.238 0.141254 24.238 0.989970 114.16
8.68624000 0.989970 114.31 0.141254 24.238 0.141254 24.238 0.989970 114.16
8.68624500 0.989970 114.31 0.141254 24.238 0.141254 24.238 0.989970 114.16
8.68625000 0.989970 114.31 0.141254 24.238 0.141254 24.238 0.989970 114.16
8.68625500 0.989970 114.31 0.141254 24.238 0.141254 24.238 0.989970 114.16
8.68626000 0.989970 114.31 0.141254 24.238 0.141254 24.238 0.989970 114.16
8.68626500 0.989970 114.31 0.141254 24.238 0.141254 24.238 0.989970 114.16
8.68627000 0.989970 114.31 0.141254 24.238 0.141254 24.238 0.989970 114.16
8.68627500 0.989970 114.31 0.141254 24.238 0.141254 24.238 0.989970 114.16
8.68628000 0.989970 114.31 0.141254 24.238 0.141254 24.238 0.989970 114.16
8.68628500 0.989970 114.31 0.141255 24.238 0.141255 24.238 0.989970 114.16
8.68629000 0.989970 114.31 0.141255 24.238 0.141255 24.238 0.989970 114.16
