! Sonnet Data File
! From: emgraph Version : 16.52
! From Emgraph Data: Qubit_Xmon2_brg
! Data File Written: 10/23/2017 20:25:57
!< HDATE 10/23/2017 18:02:08
!< MDATE 10/23/2017 18:04:30
!< PARAMS
!< Lj = 11.0
!< Gap = 6.0
!< Pwid = 2000.0
!< Width = 10.0
!< Dist = 256.0000835
!< END PARAMS
# GHZ S MA R 34.70000
8.00000000 0.977227 104.73 0.212176 14.768 0.212176 14.768 0.977227 104.80
!< P1 F=8.0 Eeff=(5.12103945 -5.3706e-5) Z0=(34.7207096 -7.2038e-5) R=0.0 C=0.0 
!< P2 F=8.0 Eeff=(5.12103945 -5.3706e-5) Z0=(34.7207096 -7.2038e-5) R=0.0 C=0.0 
8.00050000 0.977225 104.73 0.212188 14.763 0.212188 14.763 0.977225 104.80
8.00100000 0.977222 104.72 0.212201 14.758 0.212201 14.758 0.977222 104.79
8.00150000 0.977219 104.72 0.212213 14.754 0.212213 14.754 0.977219 104.79
8.00200000 0.977216 104.71 0.212226 14.749 0.212226 14.749 0.977216 104.78
8.00250000 0.977214 104.71 0.212238 14.745 0.212238 14.745 0.977214 104.78
8.00300000 0.977211 104.70 0.212251 14.740 0.212251 14.740 0.977211 104.77
8.00350000 0.977208 104.70 0.212263 14.735 0.212263 14.735 0.977208 104.77
8.00400000 0.977206 104.70 0.212276 14.731 0.212276 14.731 0.977206 104.76
8.00450000 0.977203 104.69 0.212288 14.726 0.212288 14.726 0.977203 104.76
8.00500000 0.977200 104.69 0.212301 14.721 0.212301 14.721 0.977200 104.75
8.00550000 0.977197 104.68 0.212313 14.717 0.212313 14.717 0.977197 104.75
8.00600000 0.977195 104.68 0.212326 14.712 0.212326 14.712 0.977195 104.75
8.00650000 0.977192 104.67 0.212338 14.707 0.212338 14.707 0.977192 104.74
8.00700000 0.977189 104.67 0.212351 14.703 0.212351 14.703 0.977189 104.74
8.00750000 0.977187 104.66 0.212364 14.698 0.212364 14.698 0.977187 104.73
8.00800000 0.977184 104.66 0.212376 14.693 0.212376 14.693 0.977184 104.73
8.00850000 0.977181 104.65 0.212389 14.689 0.212389 14.689 0.977181 104.72
8.00900000 0.977179 104.65 0.212401 14.684 0.212401 14.684 0.977178 104.72
8.00950000 0.977176 104.64 0.212414 14.679 0.212414 14.679 0.977176 104.71
8.01000000 0.977173 104.64 0.212426 14.675 0.212426 14.675 0.977173 104.71
8.01050000 0.977170 104.63 0.212439 14.670 0.212439 14.670 0.977170 104.70
8.01100000 0.977168 104.63 0.212451 14.665 0.212451 14.665 0.977168 104.70
8.01150000 0.977165 104.63 0.212464 14.661 0.212464 14.661 0.977165 104.69
8.01200000 0.977162 104.62 0.212476 14.656 0.212476 14.656 0.977162 104.69
8.01250000 0.977160 104.62 0.212489 14.651 0.212489 14.651 0.977159 104.69
8.01300000 0.977157 104.61 0.212501 14.647 0.212501 14.647 0.977157 104.68
8.01350000 0.977154 104.61 0.212514 14.642 0.212514 14.642 0.977154 104.68
8.01400000 0.977151 104.60 0.212526 14.637 0.212526 14.637 0.977151 104.67
8.01450000 0.977149 104.60 0.212539 14.633 0.212539 14.633 0.977149 104.67
8.01500000 0.977146 104.59 0.212551 14.628 0.212551 14.628 0.977146 104.66
8.01550000 0.977143 104.59 0.212564 14.623 0.212564 14.623 0.977143 104.66
8.01600000 0.977141 104.58 0.212576 14.619 0.212576 14.619 0.977140 104.65
8.01650000 0.977138 104.58 0.212589 14.614 0.212589 14.614 0.977138 104.65
8.01700000 0.977135 104.57 0.212601 14.610 0.212601 14.610 0.977135 104.64
8.01750000 0.977133 104.57 0.212614 14.605 0.212614 14.605 0.977132 104.64
8.01800000 0.977130 104.56 0.212626 14.600 0.212626 14.600 0.977130 104.63
8.01850000 0.977127 104.56 0.212639 14.596 0.212639 14.596 0.977127 104.63
8.01900000 0.977124 104.56 0.212652 14.591 0.212652 14.591 0.977124 104.62
8.01950000 0.977122 104.55 0.212664 14.586 0.212664 14.586 0.977121 104.62
8.02000000 0.977119 104.55 0.212677 14.582 0.212677 14.582 0.977119 104.62
8.02050000 0.977116 104.54 0.212689 14.577 0.212689 14.577 0.977116 104.61
8.02100000 0.977114 104.54 0.212702 14.572 0.212702 14.572 0.977113 104.61
8.02150000 0.977111 104.53 0.212714 14.568 0.212714 14.568 0.977110 104.60
8.02200000 0.977108 104.53 0.212727 14.563 0.212727 14.563 0.977108 104.60
8.02250000 0.977105 104.52 0.212739 14.558 0.212739 14.558 0.977105 104.59
8.02300000 0.977103 104.52 0.212752 14.554 0.212752 14.554 0.977102 104.59
8.02350000 0.977100 104.51 0.212764 14.549 0.212764 14.549 0.977100 104.58
8.02400000 0.977097 104.51 0.212777 14.544 0.212777 14.544 0.977097 104.58
8.02450000 0.977095 104.50 0.212789 14.540 0.212789 14.540 0.977094 104.57
8.02500000 0.977092 104.50 0.212802 14.535 0.212802 14.535 0.977091 104.57
8.02550000 0.977089 104.49 0.212814 14.530 0.212814 14.530 0.977089 104.56
8.02600000 0.977086 104.49 0.212827 14.526 0.212827 14.526 0.977086 104.56
8.02650000 0.977084 104.49 0.212839 14.521 0.212839 14.521 0.977083 104.55
8.02700000 0.977081 104.48 0.212852 14.516 0.212852 14.516 0.977081 104.55
8.02750000 0.977078 104.48 0.212864 14.512 0.212864 14.512 0.977078 104.55
8.02800000 0.977076 104.47 0.212877 14.507 0.212877 14.507 0.977075 104.54
8.02850000 0.977073 104.47 0.212889 14.502 0.212889 14.502 0.977072 104.54
8.02900000 0.977070 104.46 0.212902 14.498 0.212902 14.498 0.977070 104.53
8.02950000 0.977067 104.46 0.212915 14.493 0.212915 14.493 0.977067 104.53
8.03000000 0.977065 104.45 0.212927 14.488 0.212927 14.488 0.977064 104.52
8.03050000 0.977062 104.45 0.212940 14.484 0.212940 14.484 0.977062 104.52
8.03100000 0.977059 104.44 0.212952 14.479 0.212952 14.479 0.977059 104.51
8.03150000 0.977057 104.44 0.212965 14.474 0.212965 14.474 0.977056 104.51
8.03200000 0.977054 104.43 0.212977 14.470 0.212977 14.470 0.977053 104.50
8.03250000 0.977051 104.43 0.212990 14.465 0.212990 14.465 0.977051 104.50
8.03300000 0.977048 104.42 0.213002 14.461 0.213002 14.461 0.977048 104.49
8.03350000 0.977046 104.42 0.213015 14.456 0.213015 14.456 0.977045 104.49
8.03400000 0.977043 104.42 0.213027 14.451 0.213027 14.451 0.977042 104.48
8.03450000 0.977040 104.41 0.213040 14.447 0.213040 14.447 0.977040 104.48
8.03500000 0.977038 104.41 0.213052 14.442 0.213052 14.442 0.977037 104.48
8.03550000 0.977035 104.40 0.213065 14.437 0.213065 14.437 0.977034 104.47
8.03600000 0.977032 104.40 0.213077 14.433 0.213077 14.433 0.977032 104.47
8.03650000 0.977029 104.39 0.213090 14.428 0.213090 14.428 0.977029 104.46
8.03700000 0.977027 104.39 0.213102 14.423 0.213102 14.423 0.977026 104.46
8.03750000 0.977024 104.38 0.213115 14.419 0.213115 14.419 0.977023 104.45
8.03800000 0.977021 104.38 0.213127 14.414 0.213127 14.414 0.977021 104.45
8.03850000 0.977019 104.37 0.213140 14.409 0.213140 14.409 0.977018 104.44
8.03900000 0.977016 104.37 0.213153 14.405 0.213153 14.405 0.977015 104.44
8.03950000 0.977013 104.36 0.213165 14.400 0.213165 14.400 0.977012 104.43
8.04000000 0.977010 104.36 0.213178 14.395 0.213178 14.395 0.977010 104.43
8.04050000 0.977008 104.35 0.213190 14.391 0.213190 14.391 0.977007 104.42
8.04100000 0.977005 104.35 0.213203 14.386 0.213203 14.386 0.977004 104.42
8.04150000 0.977002 104.35 0.213215 14.381 0.213215 14.381 0.977002 104.41
8.04200000 0.977000 104.34 0.213228 14.377 0.213228 14.377 0.976999 104.41
8.04250000 0.976997 104.34 0.213240 14.372 0.213240 14.372 0.976996 104.41
8.04300000 0.976994 104.33 0.213253 14.367 0.213253 14.367 0.976993 104.40
8.04350000 0.976991 104.33 0.213265 14.363 0.213265 14.363 0.976991 104.40
8.04400000 0.976989 104.32 0.213278 14.358 0.213278 14.358 0.976988 104.39
8.04450000 0.976986 104.32 0.213290 14.353 0.213290 14.353 0.976985 104.39
8.04500000 0.976983 104.31 0.213303 14.349 0.213303 14.349 0.976982 104.38
8.04550000 0.976980 104.31 0.213315 14.344 0.213315 14.344 0.976980 104.38
8.04600000 0.976978 104.30 0.213328 14.339 0.213328 14.339 0.976977 104.37
8.04650000 0.976975 104.30 0.213340 14.335 0.213340 14.335 0.976974 104.37
8.04700000 0.976972 104.29 0.213353 14.330 0.213353 14.330 0.976972 104.36
8.04750000 0.976970 104.29 0.213365 14.325 0.213365 14.325 0.976969 104.36
8.04800000 0.976967 104.28 0.213378 14.321 0.213378 14.321 0.976966 104.35
8.04850000 0.976964 104.28 0.213391 14.316 0.213391 14.316 0.976963 104.35
8.04900000 0.976961 104.28 0.213403 14.311 0.213403 14.311 0.976961 104.35
8.04950000 0.976959 104.27 0.213416 14.307 0.213416 14.307 0.976958 104.34
8.05000000 0.976956 104.27 0.213428 14.302 0.213428 14.302 0.976955 104.34
8.05050000 0.976953 104.26 0.213441 14.298 0.213441 14.298 0.976952 104.33
8.05100000 0.976951 104.26 0.213453 14.293 0.213453 14.293 0.976950 104.33
8.05150000 0.976948 104.25 0.213466 14.288 0.213466 14.288 0.976947 104.32
8.05200000 0.976945 104.25 0.213478 14.284 0.213478 14.284 0.976944 104.32
8.05250000 0.976942 104.24 0.213491 14.279 0.213491 14.279 0.976941 104.31
8.05300000 0.976940 104.24 0.213503 14.274 0.213503 14.274 0.976939 104.31
8.05350000 0.976937 104.23 0.213516 14.270 0.213516 14.270 0.976936 104.30
8.05400000 0.976934 104.23 0.213528 14.265 0.213528 14.265 0.976933 104.30
8.05450000 0.976931 104.22 0.213541 14.260 0.213541 14.260 0.976931 104.29
8.05500000 0.976929 104.22 0.213553 14.256 0.213553 14.256 0.976928 104.29
8.05550000 0.976926 104.21 0.213566 14.251 0.213566 14.251 0.976925 104.28
8.05600000 0.976923 104.21 0.213578 14.246 0.213578 14.246 0.976922 104.28
8.05650000 0.976921 104.21 0.213591 14.242 0.213591 14.242 0.976920 104.28
8.05700000 0.976918 104.20 0.213603 14.237 0.213603 14.237 0.976917 104.27
8.05750000 0.976915 104.20 0.213616 14.232 0.213616 14.232 0.976914 104.27
8.05800000 0.976912 104.19 0.213629 14.228 0.213629 14.228 0.976911 104.26
8.05850000 0.976910 104.19 0.213641 14.223 0.213641 14.223 0.976909 104.26
8.05900000 0.976907 104.18 0.213654 14.218 0.213654 14.218 0.976906 104.25
8.05950000 0.976904 104.18 0.213666 14.214 0.213666 14.214 0.976903 104.25
8.06000000 0.976901 104.17 0.213679 14.209 0.213679 14.209 0.976900 104.24
8.06050000 0.976899 104.17 0.213691 14.204 0.213691 14.204 0.976898 104.24
8.06100000 0.976896 104.16 0.213704 14.200 0.213704 14.200 0.976895 104.23
8.06150000 0.976893 104.16 0.213716 14.195 0.213716 14.195 0.976892 104.23
8.06200000 0.976891 104.15 0.213729 14.190 0.213729 14.190 0.976890 104.22
8.06250000 0.976888 104.15 0.213741 14.186 0.213741 14.186 0.976887 104.22
8.06300000 0.976885 104.14 0.213754 14.181 0.213754 14.181 0.976884 104.21
8.06350000 0.976882 104.14 0.213766 14.176 0.213766 14.176 0.976881 104.21
8.06400000 0.976880 104.14 0.213779 14.172 0.213779 14.172 0.976879 104.21
8.06450000 0.976877 104.13 0.213791 14.167 0.213791 14.167 0.976876 104.20
8.06500000 0.976874 104.13 0.213804 14.162 0.213804 14.162 0.976873 104.20
8.06550000 0.976871 104.12 0.213816 14.158 0.213816 14.158 0.976870 104.19
8.06600000 0.976869 104.12 0.213829 14.153 0.213829 14.153 0.976868 104.19
8.06650000 0.976866 104.11 0.213842 14.148 0.213842 14.148 0.976865 104.18
8.06700000 0.976863 104.11 0.213854 14.144 0.213854 14.144 0.976862 104.18
8.06750000 0.976861 104.10 0.213867 14.139 0.213867 14.139 0.976859 104.17
8.06800000 0.976858 104.10 0.213879 14.134 0.213879 14.134 0.976857 104.17
8.06850000 0.976855 104.09 0.213892 14.130 0.213892 14.130 0.976854 104.16
8.06900000 0.976852 104.09 0.213904 14.125 0.213904 14.125 0.976851 104.16
8.06950000 0.976850 104.08 0.213917 14.121 0.213917 14.121 0.976848 104.15
8.07000000 0.976847 104.08 0.213929 14.116 0.213929 14.116 0.976846 104.15
8.07050000 0.976844 104.07 0.213942 14.111 0.213942 14.111 0.976843 104.14
8.07100000 0.976841 104.07 0.213954 14.107 0.213954 14.107 0.976840 104.14
8.07150000 0.976839 104.07 0.213967 14.102 0.213967 14.102 0.976838 104.14
8.07200000 0.976836 104.06 0.213979 14.097 0.213979 14.097 0.976835 104.13
8.07250000 0.976833 104.06 0.213992 14.093 0.213992 14.093 0.976832 104.13
8.07300000 0.976830 104.05 0.214004 14.088 0.214004 14.088 0.976829 104.12
8.07350000 0.976828 104.05 0.214017 14.083 0.214017 14.083 0.976827 104.12
8.07400000 0.976825 104.04 0.214030 14.079 0.214030 14.079 0.976824 104.11
8.07450000 0.976822 104.04 0.214042 14.074 0.214042 14.074 0.976821 104.11
8.07500000 0.976820 104.03 0.214055 14.069 0.214055 14.069 0.976818 104.10
8.07550000 0.976817 104.03 0.214067 14.065 0.214067 14.065 0.976816 104.10
8.07600000 0.976814 104.02 0.214080 14.060 0.214080 14.060 0.976813 104.09
8.07650000 0.976811 104.02 0.214092 14.055 0.214092 14.055 0.976810 104.09
8.07700000 0.976809 104.01 0.214105 14.051 0.214105 14.051 0.976807 104.08
8.07750000 0.976806 104.01 0.214117 14.046 0.214117 14.046 0.976805 104.08
8.07800000 0.976803 104.00 0.214130 14.041 0.214130 14.041 0.976802 104.07
8.07850000 0.976800 104.00 0.214142 14.037 0.214142 14.037 0.976799 104.07
8.07900000 0.976798 104.00 0.214155 14.032 0.214155 14.032 0.976796 104.07
8.07950000 0.976795 103.99 0.214167 14.027 0.214167 14.027 0.976794 104.06
8.08000000 0.976792 103.99 0.214180 14.023 0.214180 14.023 0.976791 104.06
8.08050000 0.976789 103.98 0.214192 14.018 0.214192 14.018 0.976788 104.05
8.08100000 0.976787 103.98 0.214205 14.013 0.214205 14.013 0.976785 104.05
8.08150000 0.976784 103.97 0.214217 14.009 0.214217 14.009 0.976783 104.04
8.08200000 0.976781 103.97 0.214230 14.004 0.214230 14.004 0.976780 104.04
8.08250000 0.976778 103.96 0.214243 13.999 0.214243 13.999 0.976777 104.03
8.08300000 0.976776 103.96 0.214255 13.995 0.214255 13.995 0.976774 104.03
8.08350000 0.976773 103.95 0.214268 13.990 0.214268 13.990 0.976772 104.02
8.08400000 0.976770 103.95 0.214280 13.985 0.214280 13.985 0.976769 104.02
8.08450000 0.976768 103.94 0.214293 13.981 0.214293 13.981 0.976766 104.01
8.08500000 0.976765 103.94 0.214305 13.976 0.214305 13.976 0.976763 104.01
8.08550000 0.976762 103.93 0.214318 13.971 0.214318 13.971 0.976761 104.00
8.08600000 0.976759 103.93 0.214330 13.967 0.214330 13.967 0.976758 104.00
8.08650000 0.976757 103.93 0.214343 13.962 0.214343 13.962 0.976755 104.00
8.08700000 0.976754 103.92 0.214355 13.957 0.214355 13.957 0.976752 103.99
8.08750000 0.976751 103.92 0.214368 13.953 0.214368 13.953 0.976750 103.99
8.08800000 0.976748 103.91 0.214380 13.948 0.214380 13.948 0.976747 103.98
8.08850000 0.976746 103.91 0.214393 13.944 0.214393 13.944 0.976744 103.98
8.08900000 0.976743 103.90 0.214405 13.939 0.214405 13.939 0.976742 103.97
8.08950000 0.976740 103.90 0.214418 13.934 0.214418 13.934 0.976739 103.97
8.09000000 0.976737 103.89 0.214431 13.930 0.214431 13.930 0.976736 103.96
8.09050000 0.976735 103.89 0.214443 13.925 0.214443 13.925 0.976733 103.96
8.09100000 0.976732 103.88 0.214456 13.920 0.214456 13.920 0.976731 103.95
8.09150000 0.976729 103.88 0.214468 13.916 0.214468 13.916 0.976728 103.95
8.09200000 0.976726 103.87 0.214481 13.911 0.214481 13.911 0.976725 103.94
8.09250000 0.976724 103.87 0.214493 13.906 0.214493 13.906 0.976722 103.94
8.09300000 0.976721 103.86 0.214506 13.902 0.214506 13.902 0.976720 103.94
8.09350000 0.976718 103.86 0.214518 13.897 0.214518 13.897 0.976717 103.93
8.09400000 0.976715 103.86 0.214531 13.892 0.214531 13.892 0.976714 103.93
8.09450000 0.976713 103.85 0.214543 13.888 0.214543 13.888 0.976711 103.92
8.09500000 0.976710 103.85 0.214556 13.883 0.214556 13.883 0.976709 103.92
8.09550000 0.976707 103.84 0.214568 13.878 0.214568 13.878 0.976706 103.91
8.09600000 0.976704 103.84 0.214581 13.874 0.214581 13.874 0.976703 103.91
8.09650000 0.976702 103.83 0.214593 13.869 0.214593 13.869 0.976700 103.90
8.09700000 0.976699 103.83 0.214606 13.864 0.214606 13.864 0.976698 103.90
8.09750000 0.976696 103.82 0.214619 13.860 0.214619 13.860 0.976695 103.89
8.09800000 0.976694 103.82 0.214631 13.855 0.214631 13.855 0.976692 103.89
8.09850000 0.976691 103.81 0.214644 13.850 0.214644 13.850 0.976689 103.88
8.09900000 0.976688 103.81 0.214656 13.846 0.214656 13.846 0.976687 103.88
8.09950000 0.976685 103.80 0.214669 13.841 0.214669 13.841 0.976684 103.87
8.10000000 0.976683 103.80 0.214681 13.836 0.214681 13.836 0.976681 103.87
8.10050000 0.976680 103.79 0.214694 13.832 0.214694 13.832 0.976678 103.87
8.10100000 0.976677 103.79 0.214706 13.827 0.214706 13.827 0.976676 103.86
8.10150000 0.976674 103.79 0.214719 13.822 0.214719 13.822 0.976673 103.86
8.10200000 0.976672 103.78 0.214731 13.818 0.214731 13.818 0.976670 103.85
8.10250000 0.976669 103.78 0.214744 13.813 0.214744 13.813 0.976667 103.85
8.10300000 0.976666 103.77 0.214756 13.808 0.214756 13.808 0.976665 103.84
8.10350000 0.976663 103.77 0.214769 13.804 0.214769 13.804 0.976662 103.84
8.10400000 0.976661 103.76 0.214782 13.799 0.214782 13.799 0.976659 103.83
8.10450000 0.976658 103.76 0.214794 13.794 0.214794 13.794 0.976656 103.83
8.10500000 0.976655 103.75 0.214807 13.790 0.214807 13.790 0.976653 103.82
8.10550000 0.976652 103.75 0.214819 13.785 0.214819 13.785 0.976651 103.82
8.10600000 0.976650 103.74 0.214832 13.780 0.214832 13.780 0.976648 103.81
8.10650000 0.976647 103.74 0.214844 13.776 0.214844 13.776 0.976645 103.81
8.10700000 0.976644 103.73 0.214857 13.771 0.214857 13.771 0.976642 103.80
8.10750000 0.976641 103.73 0.214869 13.766 0.214869 13.766 0.976640 103.80
8.10800000 0.976639 103.73 0.214882 13.762 0.214882 13.762 0.976637 103.80
8.10850000 0.976636 103.72 0.214894 13.757 0.214894 13.757 0.976634 103.79
8.10900000 0.976633 103.72 0.214907 13.752 0.214907 13.752 0.976631 103.79
8.10950000 0.976630 103.71 0.214919 13.748 0.214919 13.748 0.976629 103.78
8.11000000 0.976628 103.71 0.214932 13.743 0.214932 13.743 0.976626 103.78
8.11050000 0.976625 103.70 0.214945 13.739 0.214945 13.739 0.976623 103.77
8.11100000 0.976622 103.70 0.214957 13.734 0.214957 13.734 0.976620 103.77
8.11150000 0.976619 103.69 0.214970 13.729 0.214970 13.729 0.976618 103.76
8.11200000 0.976617 103.69 0.214982 13.725 0.214982 13.725 0.976615 103.76
8.11250000 0.976614 103.68 0.214995 13.720 0.214995 13.720 0.976612 103.75
8.11300000 0.976611 103.68 0.215007 13.715 0.215007 13.715 0.976609 103.75
8.11350000 0.976608 103.67 0.215020 13.711 0.215020 13.711 0.976607 103.74
8.11400000 0.976606 103.67 0.215032 13.706 0.215032 13.706 0.976604 103.74
8.11450000 0.976603 103.66 0.215045 13.701 0.215045 13.701 0.976601 103.73
8.11500000 0.976600 103.66 0.215057 13.697 0.215057 13.697 0.976598 103.73
8.11550000 0.976597 103.66 0.215070 13.692 0.215070 13.692 0.976596 103.73
8.11600000 0.976595 103.65 0.215082 13.687 0.215082 13.687 0.976593 103.72
8.11650000 0.976592 103.65 0.215095 13.683 0.215095 13.683 0.976590 103.72
8.11700000 0.976589 103.64 0.215108 13.678 0.215108 13.678 0.976587 103.71
8.11750000 0.976586 103.64 0.215120 13.673 0.215120 13.673 0.976585 103.71
8.11800000 0.976584 103.63 0.215133 13.669 0.215133 13.669 0.976582 103.70
8.11850000 0.976581 103.63 0.215145 13.664 0.215145 13.664 0.976579 103.70
8.11900000 0.976578 103.62 0.215158 13.659 0.215158 13.659 0.976576 103.69
8.11950000 0.976575 103.62 0.215170 13.655 0.215170 13.655 0.976574 103.69
8.12000000 0.976573 103.61 0.215183 13.650 0.215183 13.650 0.976571 103.68
8.12050000 0.976570 103.61 0.215195 13.645 0.215195 13.645 0.976568 103.68
8.12100000 0.976567 103.60 0.215208 13.641 0.215208 13.641 0.976565 103.67
8.12150000 0.976564 103.60 0.215220 13.636 0.215220 13.636 0.976563 103.67
8.12200000 0.976562 103.59 0.215233 13.631 0.215233 13.631 0.976560 103.66
8.12250000 0.976559 103.59 0.215245 13.627 0.215245 13.627 0.976557 103.66
8.12300000 0.976556 103.59 0.215258 13.622 0.215258 13.622 0.976554 103.66
8.12350000 0.976553 103.58 0.215271 13.617 0.215271 13.617 0.976551 103.65
8.12400000 0.976550 103.58 0.215283 13.613 0.215283 13.613 0.976549 103.65
8.12450000 0.976548 103.57 0.215296 13.608 0.215296 13.608 0.976546 103.64
8.12500000 0.976545 103.57 0.215308 13.603 0.215308 13.603 0.976543 103.64
8.12550000 0.976542 103.56 0.215321 13.599 0.215321 13.599 0.976540 103.63
8.12600000 0.976539 103.56 0.215333 13.594 0.215333 13.594 0.976538 103.63
8.12650000 0.976537 103.55 0.215346 13.589 0.215346 13.589 0.976535 103.62
8.12700000 0.976534 103.55 0.215358 13.585 0.215358 13.585 0.976532 103.62
8.12750000 0.976531 103.54 0.215371 13.580 0.215371 13.580 0.976529 103.61
8.12800000 0.976528 103.54 0.215383 13.575 0.215383 13.575 0.976527 103.61
8.12850000 0.976526 103.53 0.215396 13.571 0.215396 13.571 0.976524 103.60
8.12900000 0.976523 103.53 0.215408 13.566 0.215408 13.566 0.976521 103.60
8.12950000 0.976520 103.52 0.215421 13.561 0.215421 13.561 0.976518 103.59
