! Sonnet Data File
! From: emgraph Version : 16.52
! From Project: 171117_Xmon_fullysym
! Data is De-embedded 
! Data File Written: 11/27/2017 00:27:56
!< HDATE 11/26/2017 21:47:59
!< MDATE 11/26/2017 21:47:59
!< PARAMS
!< Lj = 11.0
!< Gap = 1.0
!< Pwid = 2000.0
!< Airgap = 6.0
!< Width = 10.0
!< Lj1 = 10.78
!< END PARAMS
# GHZ S MA R 50.90000
8.76000000 0.018084 -6.390 0.999801 -80.93 0.999801 -80.93 0.018098 24.734
!< P1 F=8.76 Eeff=(6.44841381 -2.9796e-5) Z0=(50.9085048 1.17026e-4) R=0.0 C=0.0 
!< P2 F=8.76 Eeff=(6.44841381 -2.9796e-5) Z0=(50.9085048 1.17026e-4) R=0.0 C=0.0 
8.76005000 0.017997 -6.449 0.999801 -80.94 0.999801 -80.94 0.018012 24.790
8.76010000 0.017907 -6.509 0.999802 -80.95 0.999802 -80.95 0.017922 24.848
8.76015000 0.017813 -6.573 0.999802 -80.95 0.999802 -80.95 0.017829 24.909
8.76020000 0.017716 -6.639 0.999802 -80.96 0.999802 -80.96 0.017733 24.974
8.76025000 0.017615 -6.709 0.999803 -80.96 0.999803 -80.96 0.017633 25.042
8.76030000 0.017510 -6.782 0.999803 -80.97 0.999803 -80.97 0.017528 25.114
8.76035000 0.017401 -6.859 0.999803 -80.98 0.999803 -80.98 0.017420 25.189
8.76040000 0.017287 -6.940 0.999803 -80.98 0.999803 -80.98 0.017306 25.270
8.76045000 0.017168 -7.025 0.999803 -80.99 0.999803 -80.99 0.017188 25.355
8.76050000 0.017043 -7.115 0.999803 -81.00 0.999803 -81.00 0.017065 25.445
8.76055000 0.016913 -7.211 0.999803 -81.01 0.999803 -81.01 0.016936 25.542
8.76060000 0.016777 -7.312 0.999803 -81.02 0.999803 -81.02 0.016801 25.644
8.76065000 0.016634 -7.419 0.999803 -81.03 0.999803 -81.03 0.016660 25.754
8.76070000 0.016484 -7.533 0.999803 -81.03 0.999803 -81.03 0.016511 25.872
8.76075000 0.016327 -7.654 0.999802 -81.04 0.999802 -81.04 0.016356 25.998
8.76080000 0.016162 -7.784 0.999802 -81.05 0.999802 -81.05 0.016192 26.134
8.76085000 0.015987 -7.923 0.999801 -81.07 0.999801 -81.07 0.016019 26.281
8.76090000 0.015803 -8.072 0.999800 -81.08 0.999800 -81.08 0.015837 26.440
8.76095000 0.015609 -8.233 0.999799 -81.09 0.999799 -81.09 0.015645 26.613
8.76100000 0.015403 -8.407 0.999798 -81.10 0.999798 -81.10 0.015442 26.802
8.76105000 0.015185 -8.596 0.999796 -81.11 0.999796 -81.11 0.015227 27.008
8.76110000 0.014953 -8.801 0.999794 -81.13 0.999794 -81.13 0.014999 27.235
8.76115000 0.014707 -9.025 0.999792 -81.14 0.999792 -81.14 0.014756 27.485
8.76120000 0.014444 -9.272 0.999789 -81.16 0.999789 -81.16 0.014497 27.762
8.76125000 0.014163 -9.543 0.999785 -81.18 0.999785 -81.18 0.014221 28.072
8.76130000 0.013862 -9.845 0.999782 -81.19 0.999782 -81.19 0.013925 28.419
8.76135000 0.013539 -10.18 0.999777 -81.21 0.999777 -81.21 0.013608 28.812
8.76140000 0.013191 -10.56 0.999771 -81.23 0.999771 -81.23 0.013268 29.258
8.76145000 0.012815 -10.99 0.999765 -81.26 0.999765 -81.26 0.012901 29.771
8.76150000 0.012408 -11.48 0.999757 -81.28 0.999757 -81.28 0.012504 30.364
8.76155000 0.011966 -12.05 0.999748 -81.31 0.999748 -81.31 0.012074 31.058
8.76160000 0.011484 -12.71 0.999736 -81.34 0.999736 -81.34 0.011607 31.881
8.76165000 0.010957 -13.50 0.999723 -81.37 0.999723 -81.37 0.011098 32.871
8.76170000 0.010378 -14.45 0.999707 -81.40 0.999707 -81.40 0.010542 34.081
8.76175000 0.009739 -15.62 0.999687 -81.44 0.999687 -81.44 0.009933 35.591
8.76180000 0.009032 -17.10 0.999663 -81.49 0.999663 -81.49 0.009265 37.520
8.76185000 0.008246 -19.05 0.999633 -81.53 0.999633 -81.53 0.008532 40.058
8.76190000 0.007372 -21.70 0.999596 -81.59 0.999596 -81.59 0.007730 43.522
8.76195000 0.006398 -25.55 0.999549 -81.65 0.999549 -81.65 0.006865 48.463
8.76200000 0.005326 -31.62 0.999489 -81.72 0.999489 -81.72 0.005958 55.893
8.76205000 0.004190 -42.28 0.999412 -81.80 0.999412 -81.80 0.005086 67.656
8.76210000 0.003169 -63.52 0.999311 -81.90 0.999311 -81.90 0.004458 86.416
8.76215000 0.002902 -101.9 0.999175 -82.02 0.999175 -82.02 0.004495 112.16
8.76220000 0.004137 -137.1 0.998989 -82.15 0.998989 -82.15 0.005615 136.79
8.76225000 0.006636 -155.6 0.998725 -82.33 0.998725 -82.33 0.007877 153.70
8.76230000 0.010193 -165.3 0.998336 -82.54 0.998336 -82.54 0.011273 164.00
8.76235000 0.015027 -171.3 0.997737 -82.83 0.997737 -82.83 0.016022 170.23
8.76240000 0.021726 -175.7 0.996753 -83.22 0.996753 -83.22 0.022700 173.96
8.76245000 0.031478 -179.5 0.994993 -83.78 0.994993 -83.78 0.032491 175.88
8.76250000 0.046840 176.49 0.991422 -84.65 0.991422 -84.65 0.047971 176.11
8.76255000 0.074292 171.09 0.982580 -86.19 0.982580 -86.19 0.075685 173.94
8.76260000 0.135193 160.73 0.951391 -89.45 0.951391 -89.45 0.137218 166.14
8.76265000 0.314277 126.31 0.750870 -94.88 0.750870 -94.88 0.318121 133.79
8.76270000 0.290159 47.840 0.822709 -67.31 0.822709 -67.31 0.293111 57.033
8.76275000 0.158012 22.975 0.956675 -73.03 0.956675 -73.03 0.159371 33.603
8.76280000 0.109701 14.898 0.981485 -75.70 0.981485 -75.70 0.110508 26.747
8.76285000 0.086341 10.922 0.989613 -77.03 0.989613 -77.03 0.086891 23.823
8.76290000 0.072732 8.5093 0.993237 -77.81 0.993237 -77.81 0.073137 22.326
8.76295000 0.063856 6.8617 0.995168 -78.32 0.995168 -78.32 0.064170 21.482
8.76300000 0.057619 5.6491 0.996322 -78.68 0.996322 -78.68 0.057870 20.981
8.76305000 0.052999 4.7100 0.997069 -78.94 0.997069 -78.94 0.053206 20.676
8.76310000 0.049441 3.9556 0.997583 -79.15 0.997583 -79.15 0.049615 20.490
8.76315000 0.046618 3.3329 0.997953 -79.31 0.997953 -79.31 0.046766 20.381
8.76320000 0.044322 2.8079 0.998229 -79.45 0.998229 -79.45 0.044451 20.322
8.76325000 0.042420 2.3578 0.998440 -79.56 0.998440 -79.56 0.042532 20.296
8.76330000 0.040817 1.9665 0.998607 -79.65 0.998607 -79.65 0.040916 20.293
8.76335000 0.039449 1.6225 0.998740 -79.73 0.998740 -79.73 0.039537 20.305
8.76340000 0.038267 1.3171 0.998849 -79.80 0.998849 -79.80 0.038346 20.329
8.76345000 0.037235 1.0439 0.998939 -79.86 0.998939 -79.86 0.037306 20.359
8.76350000 0.036327 0.7976 0.999015 -79.91 0.999015 -79.91 0.036392 20.395
8.76355000 0.035521 0.5744 0.999079 -79.96 0.999079 -79.96 0.035580 20.434
8.76360000 0.034802 0.3708 0.999134 -80.00 0.999134 -80.00 0.034856 20.476
8.76365000 0.034155 0.1842 0.999182 -80.04 0.999182 -80.04 0.034205 20.518
8.76370000 0.033571 0.0126 0.999223 -80.07 0.999223 -80.07 0.033617 20.561
8.76375000 0.033040 -0.146 0.999260 -80.10 0.999260 -80.10 0.033083 20.604
8.76380000 0.032556 -0.293 0.999292 -80.13 0.999292 -80.13 0.032596 20.647
8.76385000 0.032112 -0.430 0.999321 -80.16 0.999321 -80.16 0.032149 20.689
8.76390000 0.031705 -0.557 0.999347 -80.18 0.999347 -80.18 0.031739 20.731
8.76395000 0.031328 -0.676 0.999370 -80.20 0.999370 -80.20 0.031361 20.771
8.76400000 0.030980 -0.788 0.999390 -80.22 0.999390 -80.22 0.031011 20.811
8.76405000 0.030657 -0.894 0.999409 -80.24 0.999409 -80.24 0.030685 20.850
8.76410000 0.030356 -0.993 0.999426 -80.26 0.999426 -80.26 0.030383 20.888
8.76415000 0.030075 -1.086 0.999442 -80.28 0.999442 -80.28 0.030100 20.925
8.76420000 0.029812 -1.175 0.999456 -80.29 0.999456 -80.29 0.029836 20.961
8.76425000 0.029565 -1.258 0.999470 -80.31 0.999470 -80.31 0.029588 20.996
8.76430000 0.029334 -1.338 0.999482 -80.32 0.999482 -80.32 0.029356 21.030
8.76435000 0.029116 -1.413 0.999493 -80.33 0.999493 -80.33 0.029136 21.063
8.76440000 0.028910 -1.485 0.999503 -80.35 0.999503 -80.35 0.028930 21.095
8.76445000 0.028715 -1.554 0.999513 -80.36 0.999513 -80.36 0.028734 21.126
8.76450000 0.028531 -1.620 0.999522 -80.37 0.999522 -80.37 0.028550 21.156
8.76455000 0.028357 -1.682 0.999531 -80.38 0.999531 -80.38 0.028374 21.185
8.76460000 0.028191 -1.742 0.999538 -80.39 0.999538 -80.39 0.028208 21.214
8.76465000 0.028034 -1.800 0.999546 -80.40 0.999546 -80.40 0.028050 21.242
8.76470000 0.027884 -1.855 0.999553 -80.41 0.999553 -80.41 0.027899 21.269
8.76475000 0.027741 -1.908 0.999559 -80.42 0.999559 -80.42 0.027756 21.295
8.76480000 0.027605 -1.958 0.999565 -80.43 0.999565 -80.43 0.027619 21.320
8.76485000 0.027474 -2.007 0.999571 -80.43 0.999571 -80.43 0.027488 21.345
8.76490000 0.027350 -2.054 0.999577 -80.44 0.999577 -80.44 0.027363 21.369
8.76495000 0.027230 -2.100 0.999582 -80.45 0.999582 -80.45 0.027243 21.393
8.76500000 0.027116 -2.144 0.999587 -80.46 0.999587 -80.46 0.027128 21.416
8.76505000 0.027006 -2.186 0.999591 -80.46 0.999591 -80.46 0.027018 21.438
8.76510000 0.026900 -2.227 0.999596 -80.47 0.999596 -80.47 0.026912 21.460
8.76515000 0.026799 -2.266 0.999600 -80.48 0.999600 -80.48 0.026810 21.481
8.76520000 0.026701 -2.304 0.999604 -80.48 0.999604 -80.48 0.026712 21.501
8.76525000 0.026607 -2.341 0.999608 -80.49 0.999608 -80.49 0.026618 21.522
8.76530000 0.026517 -2.377 0.999612 -80.49 0.999612 -80.49 0.026527 21.541
8.76535000 0.026430 -2.412 0.999615 -80.50 0.999615 -80.50 0.026440 21.560
8.76540000 0.026345 -2.446 0.999618 -80.51 0.999618 -80.51 0.026355 21.579
8.76545000 0.026264 -2.479 0.999622 -80.51 0.999622 -80.51 0.026273 21.597
8.76550000 0.026185 -2.511 0.999625 -80.52 0.999625 -80.52 0.026194 21.615
8.76555000 0.026109 -2.542 0.999628 -80.52 0.999628 -80.52 0.026118 21.633
8.76560000 0.026035 -2.572 0.999630 -80.53 0.999630 -80.53 0.026044 21.650
8.76565000 0.025964 -2.601 0.999633 -80.53 0.999633 -80.53 0.025973 21.667
8.76570000 0.025895 -2.629 0.999636 -80.53 0.999636 -80.53 0.025903 21.683
8.76575000 0.025828 -2.657 0.999638 -80.54 0.999638 -80.54 0.025836 21.699
8.76580000 0.025763 -2.684 0.999641 -80.54 0.999641 -80.54 0.025771 21.715
8.76585000 0.025700 -2.711 0.999643 -80.55 0.999643 -80.55 0.025707 21.730
8.76590000 0.025638 -2.737 0.999645 -80.55 0.999645 -80.55 0.025646 21.745
8.76595000 0.025579 -2.762 0.999647 -80.55 0.999647 -80.55 0.025586 21.760
8.76600000 0.025521 -2.786 0.999649 -80.56 0.999649 -80.56 0.025528 21.774
8.76605000 0.025464 -2.810 0.999651 -80.56 0.999651 -80.56 0.025472 21.789
8.76610000 0.025410 -2.834 0.999653 -80.57 0.999653 -80.57 0.025417 21.802
8.76615000 0.025356 -2.857 0.999655 -80.57 0.999655 -80.57 0.025363 21.816
8.76620000 0.025304 -2.879 0.999657 -80.57 0.999657 -80.57 0.025311 21.830
8.76625000 0.025254 -2.901 0.999659 -80.58 0.999659 -80.58 0.025260 21.843
8.76630000 0.025204 -2.923 0.999661 -80.58 0.999661 -80.58 0.025211 21.856
8.76635000 0.025156 -2.944 0.999662 -80.58 0.999662 -80.58 0.025162 21.868
8.76640000 0.025109 -2.964 0.999664 -80.59 0.999664 -80.59 0.025115 21.881
8.76645000 0.025063 -2.984 0.999665 -80.59 0.999665 -80.59 0.025069 21.893
8.76650000 0.025018 -3.004 0.999667 -80.59 0.999667 -80.59 0.025024 21.905
8.76655000 0.024974 -3.024 0.999668 -80.60 0.999668 -80.60 0.024980 21.917
8.76660000 0.024932 -3.043 0.999670 -80.60 0.999670 -80.60 0.024937 21.929
8.76665000 0.024890 -3.062 0.999671 -80.60 0.999671 -80.60 0.024896 21.940
8.76670000 0.024849 -3.080 0.999673 -80.60 0.999673 -80.60 0.024855 21.951
8.76675000 0.024809 -3.098 0.999674 -80.61 0.999674 -80.61 0.024814 21.962
8.76680000 0.024770 -3.116 0.999675 -80.61 0.999675 -80.61 0.024775 21.973
8.76685000 0.024731 -3.133 0.999676 -80.61 0.999676 -80.61 0.024737 21.984
8.76690000 0.024694 -3.150 0.999678 -80.61 0.999678 -80.61 0.024699 21.995
8.76695000 0.024657 -3.167 0.999679 -80.62 0.999679 -80.62 0.024662 22.005
8.76700000 0.024621 -3.184 0.999680 -80.62 0.999680 -80.62 0.024626 22.015
8.76705000 0.024585 -3.200 0.999681 -80.62 0.999681 -80.62 0.024591 22.025
8.76710000 0.024551 -3.216 0.999682 -80.63 0.999682 -80.63 0.024556 22.035
8.76715000 0.024517 -3.232 0.999683 -80.63 0.999683 -80.63 0.024522 22.045
8.76720000 0.024484 -3.247 0.999684 -80.63 0.999684 -80.63 0.024488 22.055
8.76725000 0.024451 -3.262 0.999685 -80.63 0.999685 -80.63 0.024456 22.065
8.76730000 0.024419 -3.277 0.999686 -80.63 0.999686 -80.63 0.024424 22.074
8.76735000 0.024387 -3.292 0.999687 -80.64 0.999687 -80.64 0.024392 22.083
8.76740000 0.024356 -3.307 0.999688 -80.64 0.999688 -80.64 0.024361 22.093
8.76745000 0.024326 -3.321 0.999689 -80.64 0.999689 -80.64 0.024330 22.102
8.76750000 0.024296 -3.336 0.999690 -80.64 0.999690 -80.64 0.024300 22.111
8.76755000 0.024266 -3.350 0.999691 -80.65 0.999691 -80.65 0.024271 22.119
8.76760000 0.024238 -3.363 0.999692 -80.65 0.999692 -80.65 0.024242 22.128
8.76765000 0.024209 -3.377 0.999693 -80.65 0.999693 -80.65 0.024214 22.137
8.76770000 0.024181 -3.391 0.999694 -80.65 0.999694 -80.65 0.024186 22.145
8.76775000 0.024154 -3.404 0.999695 -80.65 0.999695 -80.65 0.024158 22.154
8.76780000 0.024127 -3.417 0.999695 -80.66 0.999695 -80.66 0.024131 22.162
8.76785000 0.024100 -3.430 0.999696 -80.66 0.999696 -80.66 0.024104 22.170
8.76790000 0.024074 -3.443 0.999697 -80.66 0.999697 -80.66 0.024078 22.179
8.76795000 0.024048 -3.455 0.999698 -80.66 0.999698 -80.66 0.024052 22.187
8.76800000 0.024023 -3.468 0.999699 -80.66 0.999699 -80.66 0.024027 22.195
8.76805000 0.023997 -3.480 0.999699 -80.67 0.999699 -80.67 0.024002 22.203
8.76810000 0.023973 -3.492 0.999700 -80.67 0.999700 -80.67 0.023977 22.210
8.76815000 0.023948 -3.504 0.999701 -80.67 0.999701 -80.67 0.023953 22.218
8.76820000 0.023925 -3.516 0.999701 -80.67 0.999701 -80.67 0.023929 22.226
8.76825000 0.023901 -3.528 0.999702 -80.67 0.999702 -80.67 0.023905 22.233
8.76830000 0.023878 -3.540 0.999703 -80.68 0.999703 -80.68 0.023882 22.241
8.76835000 0.023855 -3.551 0.999703 -80.68 0.999703 -80.68 0.023858 22.248
8.76840000 0.023832 -3.563 0.999704 -80.68 0.999704 -80.68 0.023836 22.256
8.76845000 0.023809 -3.574 0.999705 -80.68 0.999705 -80.68 0.023813 22.263
8.76850000 0.023787 -3.585 0.999705 -80.68 0.999705 -80.68 0.023791 22.270
8.76855000 0.023766 -3.596 0.999706 -80.68 0.999706 -80.68 0.023769 22.277
8.76860000 0.023744 -3.607 0.999707 -80.69 0.999707 -80.69 0.023748 22.284
8.76865000 0.023723 -3.618 0.999707 -80.69 0.999707 -80.69 0.023727 22.292
8.76870000 0.023702 -3.629 0.999708 -80.69 0.999708 -80.69 0.023706 22.298
8.76875000 0.023681 -3.640 0.999708 -80.69 0.999708 -80.69 0.023685 22.305
8.76880000 0.023661 -3.650 0.999709 -80.69 0.999709 -80.69 0.023664 22.312
8.76885000 0.023640 -3.661 0.999710 -80.69 0.999710 -80.69 0.023644 22.319
8.76890000 0.023620 -3.671 0.999710 -80.70 0.999710 -80.70 0.023624 22.326
8.76895000 0.023601 -3.681 0.999711 -80.70 0.999711 -80.70 0.023604 22.332
8.76900000 0.023581 -3.692 0.999711 -80.70 0.999711 -80.70 0.023585 22.339
8.76905000 0.023562 -3.702 0.999712 -80.70 0.999712 -80.70 0.023565 22.346
8.76910000 0.023543 -3.712 0.999712 -80.70 0.999712 -80.70 0.023546 22.352
8.76915000 0.023524 -3.722 0.999713 -80.70 0.999713 -80.70 0.023527 22.359
8.76920000 0.023505 -3.732 0.999713 -80.71 0.999713 -80.71 0.023509 22.365
8.76925000 0.023487 -3.741 0.999714 -80.71 0.999714 -80.71 0.023490 22.372
8.76930000 0.023468 -3.751 0.999714 -80.71 0.999714 -80.71 0.023472 22.378
8.76935000 0.023450 -3.761 0.999715 -80.71 0.999715 -80.71 0.023454 22.384
8.76940000 0.023432 -3.770 0.999715 -80.71 0.999715 -80.71 0.023436 22.390
8.76945000 0.023415 -3.780 0.999716 -80.71 0.999716 -80.71 0.023418 22.397
8.76950000 0.023397 -3.789 0.999716 -80.71 0.999716 -80.71 0.023401 22.403
8.76955000 0.023380 -3.799 0.999717 -80.72 0.999717 -80.72 0.023383 22.409
8.76960000 0.023363 -3.808 0.999717 -80.72 0.999717 -80.72 0.023366 22.415
8.76965000 0.023346 -3.817 0.999718 -80.72 0.999718 -80.72 0.023349 22.421
8.76970000 0.023329 -3.826 0.999718 -80.72 0.999718 -80.72 0.023332 22.427
8.76975000 0.023312 -3.835 0.999719 -80.72 0.999719 -80.72 0.023315 22.433
8.76980000 0.023295 -3.844 0.999719 -80.72 0.999719 -80.72 0.023299 22.439
8.76985000 0.023279 -3.853 0.999720 -80.72 0.999720 -80.72 0.023282 22.445
8.76990000 0.023263 -3.862 0.999720 -80.73 0.999720 -80.73 0.023266 22.451
8.76995000 0.023247 -3.871 0.999720 -80.73 0.999720 -80.73 0.023250 22.457
8.77000000 0.023231 -3.880 0.999721 -80.73 0.999721 -80.73 0.023234 22.462
8.77005000 0.023215 -3.889 0.999721 -80.73 0.999721 -80.73 0.023218 22.468
8.77010000 0.023199 -3.898 0.999722 -80.73 0.999722 -80.73 0.023202 22.474
8.77015000 0.023184 -3.906 0.999722 -80.73 0.999722 -80.73 0.023187 22.480
8.77020000 0.023168 -3.915 0.999722 -80.73 0.999722 -80.73 0.023171 22.485
8.77025000 0.023153 -3.923 0.999723 -80.74 0.999723 -80.74 0.023156 22.491
8.77030000 0.023138 -3.932 0.999723 -80.74 0.999723 -80.74 0.023141 22.497
8.77035000 0.023123 -3.940 0.999724 -80.74 0.999724 -80.74 0.023126 22.502
8.77040000 0.023108 -3.949 0.999724 -80.74 0.999724 -80.74 0.023111 22.508
8.77045000 0.023093 -3.957 0.999724 -80.74 0.999724 -80.74 0.023096 22.513
8.77050000 0.023078 -3.966 0.999725 -80.74 0.999725 -80.74 0.023081 22.519
8.77055000 0.023064 -3.974 0.999725 -80.74 0.999725 -80.74 0.023067 22.524
8.77060000 0.023049 -3.982 0.999726 -80.75 0.999726 -80.75 0.023052 22.530
8.77065000 0.023035 -3.990 0.999726 -80.75 0.999726 -80.75 0.023038 22.535
8.77070000 0.023020 -3.998 0.999726 -80.75 0.999726 -80.75 0.023023 22.541
8.77075000 0.023006 -4.007 0.999727 -80.75 0.999727 -80.75 0.023009 22.546
8.77080000 0.022992 -4.015 0.999727 -80.75 0.999727 -80.75 0.022995 22.551
8.77085000 0.022978 -4.023 0.999727 -80.75 0.999727 -80.75 0.022981 22.557
8.77090000 0.022964 -4.031 0.999728 -80.75 0.999728 -80.75 0.022967 22.562
8.77095000 0.022950 -4.039 0.999728 -80.75 0.999728 -80.75 0.022953 22.567
8.77100000 0.022937 -4.047 0.999728 -80.76 0.999728 -80.76 0.022940 22.573
8.77105000 0.022923 -4.055 0.999729 -80.76 0.999729 -80.76 0.022926 22.578
8.77110000 0.022910 -4.063 0.999729 -80.76 0.999729 -80.76 0.022913 22.583
8.77115000 0.022896 -4.070 0.999729 -80.76 0.999729 -80.76 0.022899 22.588
8.77120000 0.022883 -4.078 0.999730 -80.76 0.999730 -80.76 0.022886 22.593
8.77125000 0.022870 -4.086 0.999730 -80.76 0.999730 -80.76 0.022873 22.599
8.77130000 0.022856 -4.094 0.999730 -80.76 0.999730 -80.76 0.022859 22.604
8.77135000 0.022843 -4.102 0.999731 -80.76 0.999731 -80.76 0.022846 22.609
8.77140000 0.022830 -4.109 0.999731 -80.77 0.999731 -80.77 0.022833 22.614
8.77145000 0.022817 -4.117 0.999731 -80.77 0.999731 -80.77 0.022820 22.619
8.77150000 0.022805 -4.125 0.999732 -80.77 0.999732 -80.77 0.022807 22.624
8.77155000 0.022792 -4.132 0.999732 -80.77 0.999732 -80.77 0.022795 22.629
8.77160000 0.022779 -4.140 0.999732 -80.77 0.999732 -80.77 0.022782 22.634
8.77165000 0.022766 -4.147 0.999733 -80.77 0.999733 -80.77 0.022769 22.640
8.77170000 0.022754 -4.155 0.999733 -80.77 0.999733 -80.77 0.022757 22.645
8.77175000 0.022741 -4.162 0.999733 -80.77 0.999733 -80.77 0.022744 22.650
8.77180000 0.022729 -4.170 0.999734 -80.77 0.999734 -80.77 0.022732 22.655
8.77185000 0.022716 -4.177 0.999734 -80.78 0.999734 -80.78 0.022719 22.660
8.77190000 0.022704 -4.185 0.999734 -80.78 0.999734 -80.78 0.022707 22.665
8.77195000 0.022692 -4.192 0.999735 -80.78 0.999735 -80.78 0.022695 22.670
8.77200000 0.022680 -4.200 0.999735 -80.78 0.999735 -80.78 0.022683 22.675
8.77205000 0.022668 -4.207 0.999735 -80.78 0.999735 -80.78 0.022670 22.679
8.77210000 0.022655 -4.214 0.999735 -80.78 0.999735 -80.78 0.022658 22.684
8.77215000 0.022643 -4.222 0.999736 -80.78 0.999736 -80.78 0.022646 22.689
8.77220000 0.022632 -4.229 0.999736 -80.78 0.999736 -80.78 0.022634 22.694
8.77225000 0.022620 -4.236 0.999736 -80.79 0.999736 -80.79 0.022622 22.699
8.77230000 0.022608 -4.244 0.999737 -80.79 0.999737 -80.79 0.022611 22.704
8.77235000 0.022596 -4.251 0.999737 -80.79 0.999737 -80.79 0.022599 22.709
8.77240000 0.022584 -4.258 0.999737 -80.79 0.999737 -80.79 0.022587 22.714
8.77245000 0.022573 -4.266 0.999737 -80.79 0.999737 -80.79 0.022575 22.719
8.77250000 0.022561 -4.273 0.999738 -80.79 0.999738 -80.79 0.022564 22.724
8.77255000 0.022549 -4.280 0.999738 -80.79 0.999738 -80.79 0.022552 22.728
8.77260000 0.022538 -4.287 0.999738 -80.79 0.999738 -80.79 0.022541 22.733
8.77265000 0.022526 -4.294 0.999739 -80.79 0.999739 -80.79 0.022529 22.738
8.77270000 0.022515 -4.301 0.999739 -80.80 0.999739 -80.80 0.022518 22.743
8.77275000 0.022503 -4.309 0.999739 -80.80 0.999739 -80.80 0.022506 22.748
8.77280000 0.022492 -4.316 0.999739 -80.80 0.999739 -80.80 0.022495 22.753
8.77285000 0.022481 -4.323 0.999740 -80.80 0.999740 -80.80 0.022484 22.757
8.77290000 0.022470 -4.330 0.999740 -80.80 0.999740 -80.80 0.022472 22.762
