! Sonnet Data File
! From: emgraph Version : 16.52
! From Project: 171117_Xmon_fullysym
! Data is De-embedded 
! Data File Written: 11/26/2017 21:44:47
!< HDATE 11/26/2017 17:24:49
!< MDATE 11/26/2017 17:24:49
!< PARAMS
!< Lj = 11.0
!< Gap = 1.0
!< Pwid = 2000.0
!< Airgap = 6.0
!< Width = 10.0
!< Lj1 = 11.0
!< END PARAMS
# GHZ S MA R 50.90000
8.600000000000001 0.0246987820083 -0.739677932459 0.9996914923281 -79.06489640312 0.9996914923280 -79.06489640340 0.0246998094236 22.621062843818
!< P1 F=8.6 Eeff=(6.44845572 -2.9799e-5) Z0=(50.9087207 1.17006e-4) R=0.0 C=0.0 
!< P2 F=8.6 Eeff=(6.44845572 -2.9799e-5) Z0=(50.9087207 1.17006e-4) R=0.0 C=0.0 
8.600200000000001 0.0246964406372 -0.743146728123 0.9996915492014 -79.06688796366 0.9996915492014 -79.06688796366 0.0246974685296 22.620553748911
8.600400000000000 0.0246940893741 -0.746620615638 0.9996916062781 -79.06888010257 0.9996916062781 -79.06888010257 0.0246951177269 22.620048599190
8.600600000000000 0.0246917281446 -0.750099599927 0.9996916635897 -79.07087282205 0.9996916635897 -79.07087282205 0.0246927569602 22.619547416445
8.600800000000001 0.0246893568921 -0.753583710377 0.9996917211374 -79.07286612537 0.9996917211374 -79.07286612537 0.0246903861732 22.619050224708
8.601000000000001 0.0246869755518 -0.757072981499 0.9996917789228 -79.07486001635 0.9996917789228 -79.07486001635 0.0246880053008 22.618557050316
8.601200000000000 0.0246845840630 -0.760567445142 0.9996918369472 -79.07685449850 0.9996918369472 -79.07685449850 0.0246856142827 22.618067918390
8.601400000000000 0.0246821823597 -0.764067135518 0.9996918952120 -79.07884957569 0.9996918952120 -79.07884957569 0.0246832130526 22.617582856782
8.601600000000001 0.0246797703817 -0.767572085146 0.9996919537187 -79.08084525142 0.9996919537187 -79.08084525142 0.0246808015505 22.617101889873
8.601800000000001 0.0246773480624 -0.771082328992 0.9996920124689 -79.08284152960 0.9996920124689 -79.08284152960 0.0246783797097 22.616625045098
8.602000000000000 0.0246749153362 -0.774597901247 0.9996920714640 -79.08483841404 0.9996920714640 -79.08483841404 0.0246759474647 22.616152350051
8.602200000000000 0.0246724721392 -0.778118835439 0.9996921307053 -79.08683590847 0.9996921307053 -79.08683590847 0.0246735047516 22.615683831347
8.602400000000001 0.0246700184049 -0.781645167112 0.9996921901945 -79.08883401678 0.9996921901945 -79.08883401678 0.0246710515040 22.615219516301
8.602600000000001 0.0246675540682 -0.785176930510 0.9996922499330 -79.09083274277 0.9996922499330 -79.09083274277 0.0246685876566 22.614759431924
8.602800000000000 0.0246650790604 -0.788714161623 0.9996923099224 -79.09283209045 0.9996923099224 -79.09283209045 0.0246661131409 22.614303606951
8.603000000000000 0.0246625933117 -0.792256897331 0.9996923701643 -79.09483206388 0.9996923701643 -79.09483206388 0.0246636278872 22.613852069956
8.603200000000001 0.0246600967580 -0.795805171414 0.9996924306600 -79.09683266682 0.9996924306600 -79.09683266682 0.0246611318313 22.613404848208
8.603400000000001 0.0246575893274 -0.799359022012 0.9996924914112 -79.09883390346 0.9996924914112 -79.09883390346 0.0246586249014 22.612961971005
8.603600000000000 0.0246550709506 -0.802918485745 0.9996925524197 -79.10083577784 0.9996925524197 -79.10083577784 0.0246561070281 22.612523467235
8.603800000000000 0.0246525415567 -0.806483599689 0.9996926136867 -79.10283829411 0.9996926136867 -79.10283829411 0.0246535781406 22.612089366645
8.604000000000001 0.0246500010758 -0.810054400990 0.9996926752141 -79.10484145633 0.9996926752141 -79.10484145633 0.0246510381690 22.611659698157
8.604200000000001 0.0246474494385 -0.813630926584 0.9996927370034 -79.10684526857 0.9996927370034 -79.10684526857 0.0246484870440 22.611234490536
8.604400000000000 0.0246448865676 -0.817213216464 0.9996927990561 -79.10884973534 0.9996927990561 -79.10884973534 0.0246459246884 22.610813776505
8.604600000000001 0.0246423123949 -0.820801307668 0.9996928613742 -79.11085486059 0.9996928613742 -79.11085486059 0.0246433510340 22.610397583533
8.604800000000001 0.0246397268435 -0.824395240201 0.9996929239590 -79.11286064885 0.9996929239590 -79.11286064885 0.0246407660039 22.609985944415
8.605000000000000 0.0246371298425 -0.827995051728 0.9996929868123 -79.11486710422 0.9996929868123 -79.11486710422 0.0246381695273 22.609578888518
8.605200000000000 0.0246345213118 -0.831600784544 0.9996930499359 -79.11687423141 0.9996930499359 -79.11687423141 0.0246355615241 22.609176449041
8.605400000000001 0.0246319011839 -0.835212474757 0.9996931133313 -79.11888203433 0.9996931133313 -79.11888203433 0.0246329419267 22.608778654397
8.605600000000001 0.0246292693727 -0.838830167746 0.9996931770006 -79.12089051803 0.9996931770006 -79.12089051803 0.0246303106492 22.608385539904
8.605800000000000 0.0246266258097 -0.842453899240 0.9996932409450 -79.12289968649 0.9996932409450 -79.12289968649 0.0246276676232 22.607997135215
8.606000000000000 0.0246239704110 -0.846083714448 0.9996933051668 -79.12490954462 0.9996933051668 -79.12490954462 0.0246250127646 22.607613474425
8.606200000000001 0.0246213031021 -0.849719652560 0.9996933696673 -79.12692009676 0.9996933696673 -79.12692009676 0.0246223459990 22.607234589110
8.606400000000001 0.0246186238018 -0.853361756458 0.9996934344486 -79.12893134766 0.9996934344486 -79.12893134766 0.0246196672453 22.606860513045
8.606600000000000 0.0246159324306 -0.857010068534 0.9996934995125 -79.13094330195 0.9996934995125 -79.13094330195 0.0246169764239 22.606491279417
8.606800000000000 0.0246132289075 -0.860664631533 0.9996935648606 -79.13295596437 0.9996935648606 -79.13295596437 0.0246142734540 22.606126922255
8.607000000000001 0.0246105131537 -0.864325487565 0.9996936304949 -79.13496933951 0.9996936304949 -79.13496933951 0.0246115582566 22.605767474520
8.607200000000001 0.0246077850822 -0.867992681687 0.9996936964170 -79.13698343245 0.9996936964170 -79.13698343245 0.0246088307452 22.605412973004
8.607400000000000 0.0246050446139 -0.871666257443 0.9996937626291 -79.13899824781 0.9996937626291 -79.13899824781 0.0246060908402 22.605063449933
8.607600000000000 0.0246022916631 -0.875346259609 0.9996938291331 -79.14101379059 0.9996938291331 -79.14101379059 0.0246033384561 22.604718941609
8.607800000000001 0.0245995261475 -0.879032731538 0.9996938959304 -79.14303006559 0.9996938959304 -79.14303006559 0.0246005735109 22.604379483093
8.608000000000001 0.0245967479783 -0.882725721116 0.9996939630236 -79.14504707801 0.9996939630236 -79.14504707801 0.0245977959153 22.604045110741
8.608200000000000 0.0245939570729 -0.886425272070 0.9996940304143 -79.14706483266 0.9996940304143 -79.14706483266 0.0245950055872 22.603715859459
8.608400000000001 0.0245911533397 -0.890131432450 0.9996940981043 -79.14908333489 0.9996940981043 -79.14908333489 0.0245922024349 22.603391767971
8.608600000000001 0.0245883366946 -0.893844247625 0.9996941660959 -79.15110258960 0.9996941660959 -79.15110258960 0.0245893863743 22.603072871258
8.608800000000000 0.0245855070493 -0.897563764420 0.9996942343909 -79.15312260196 0.9996942343909 -79.15312260196 0.0245865573170 22.602759206734
8.609000000000000 0.0245826643097 -0.901290032447 0.9996943029913 -79.15514337745 0.9996943029913 -79.15514337745 0.0245837151693 22.602450813702
8.609200000000001 0.0245798083901 -0.905023097934 0.9996943718992 -79.15716492108 0.9996943718992 -79.15716492108 0.0245808598452 22.602147728167
8.609400000000001 0.0245769391950 -0.908763011253 0.9996944411166 -79.15918723843 0.9996944411166 -79.15918723843 0.0245779912493 22.601849990372
8.609600000000000 0.0245740566395 -0.912509818311 0.9996945106456 -79.16121033444 0.9996945106456 -79.16121033444 0.0245751092968 22.601557635953
8.609800000000000 0.0245711606206 -0.916263573028 0.9996945804884 -79.16323421515 0.9996945804884 -79.16323421515 0.0245722138848 22.601270708356
8.610000000000001 0.0245682510511 -0.920024322427 0.9996946506468 -79.16525888562 0.9996946506468 -79.16525888562 0.0245693049259 22.600989244259
8.610200000000001 0.0245653278338 -0.923792118151 0.9996947211232 -79.16728435154 0.9996947211232 -79.16728435154 0.0245663823233 22.600713284504
8.610400000000000 0.0245623908744 -0.927567010631 0.9996947919197 -79.16931061841 0.9996947919197 -79.16931061841 0.0245634459824 22.600442869077
8.610600000000000 0.0245594400716 -0.931349053647 0.9996948630384 -79.17133769215 0.9996948630384 -79.17133769215 0.0245604958021 22.600178040244
8.610800000000001 0.0245564753336 -0.935138296471 0.9996949344815 -79.17336557812 0.9996949344815 -79.17336557812 0.0245575316906 22.599918837220
8.611000000000001 0.0245534965557 -0.938934794620 0.9996950062513 -79.17539428242 0.9996950062513 -79.17539428242 0.0245545535432 22.599665303747
8.611200000000000 0.0245505036431 -0.942738599312 0.9996950783500 -79.17742381060 0.9996950783500 -79.17742381060 0.0245515612653 22.599417479940
8.611400000000000 0.0245474964905 -0.946549766045 0.9996951507798 -79.17945416879 0.9996951507798 -79.17945416879 0.0245485547514 22.599175410366
8.611600000000001 0.0245444749996 -0.950368347445 0.9996952235429 -79.18148536275 0.9996952235429 -79.18148536275 0.0245455339035 22.598939136849
8.611800000000001 0.0245414390678 -0.954194399144 0.9996952966418 -79.18351739845 0.9996952966418 -79.18351739845 0.0245424986188 22.598708702070
8.612000000000000 0.0245383885888 -0.958027976835 0.9996953700786 -79.18555028211 0.9996953700786 -79.18555028211 0.0245394487911 22.598484151812
8.612200000000001 0.0245353234563 -0.961869137421 0.9996954438557 -79.18758401993 0.9996954438557 -79.18758401993 0.0245363843144 22.598265530751
8.612400000000001 0.0245322435698 -0.965717936167 0.9996955179757 -79.18961861777 0.9996955179757 -79.18961861777 0.0245333050879 22.598052880634
8.612600000000000 0.0245291488183 -0.969574430976 0.9996955924407 -79.19165408213 0.9996955924407 -79.19165408213 0.0245302110007 22.597846249456
8.612800000000000 0.0245260390922 -0.973438680908 0.9996956672534 -79.19369041939 0.9996956672534 -79.19369041939 0.0245271019435 22.597645683080
8.613000000000001 0.0245229142867 -0.977310742407 0.9996957424160 -79.19572763568 0.9996957424159 -79.19572763568 0.0245239778112 22.597451226132
8.613200000000001 0.0245197742885 -0.981190675658 0.9996958179309 -79.19776573760 0.9996958179309 -79.19776573760 0.0245208384908 22.597262926785
8.613400000000000 0.0245166189864 -0.985078540637 0.9996958938008 -79.19980473166 0.9996958938008 -79.19980473166 0.0245176838711 22.597080831974
8.613600000000000 0.0245134482674 -0.988974397956 0.9996959700282 -79.20184462445 0.9996959700282 -79.20184462445 0.0245145138389 22.596904989555
8.613800000000001 0.0245102620197 -0.992878306609 0.9996960466152 -79.20388542249 0.9996960466152 -79.20388542249 0.0245113282829 22.596735448029
8.614000000000001 0.0245070601263 -0.996790330531 0.9996961235650 -79.20592713262 0.9996961235650 -79.20592713262 0.0245081270858 22.596572255765
8.614200000000000 0.0245038424722 -1.000710531240 0.9996962008799 -79.20796976155 0.9996962008799 -79.20796976155 0.0245049101327 22.596415462090
8.614400000000000 0.0245006089377 -1.004638972553 0.9996962785624 -79.21001331628 0.9996962785624 -79.21001331628 0.0245016773040 22.596265118166
8.614600000000001 0.0244973594054 -1.008575717496 0.9996963566152 -79.21205780365 0.9996963566152 -79.21205780365 0.0244984284824 22.596121273861
8.614800000000001 0.0244940937569 -1.012520830051 0.9996964350411 -79.21410323057 0.9996964350411 -79.21410323057 0.0244951635495 22.595983979469
8.615000000000000 0.0244908118661 -1.016474377522 0.9996965138426 -79.21614960442 0.9996965138426 -79.21614960442 0.0244918823793 22.595853288622
8.615200000000000 0.0244875136160 -1.020436423197 0.9996965930226 -79.21819693202 0.9996965930226 -79.21819693202 0.0244885848546 22.595729251373
8.615400000000001 0.0244841988834 -1.024407033336 0.9996966725836 -79.22024522055 0.9996966725836 -79.22024522055 0.0244852708527 22.595611920249
8.615600000000001 0.0244808675394 -1.028386277349 0.9996967525287 -79.22229447756 0.9996967525287 -79.22229447756 0.0244819402443 22.595501349879
8.615800000000000 0.0244775194573 -1.032374223163 0.9996968328606 -79.22434471045 0.9996968328606 -79.22434471045 0.0244785929030 22.595397594473
8.616000000000000 0.0244741545130 -1.036370937574 0.9996969135820 -79.22639592644 0.9996969135820 -79.22639592644 0.0244752287047 22.595300707479
8.616200000000001 0.0244707725722 -1.040376492692 0.9996969946957 -79.22844813339 0.9996969946957 -79.22844813339 0.0244718475152 22.595210745828
8.616400000000001 0.0244673735083 -1.044390957088 0.9996970762048 -79.23050133868 0.9996970762048 -79.23050133868 0.0244684492080 22.595127763640
8.616600000000000 0.0244639571892 -1.048414402050 0.9996971581122 -79.23255555004 0.9996971581122 -79.23255555004 0.0244650336509 22.595051817596
8.616800000000001 0.0244605234788 -1.052446900933 0.9996972404209 -79.23461077540 0.9996972404209 -79.23461077540 0.0244616007079 22.594982965399
8.617000000000001 0.0244570722478 -1.056488523016 0.9996973231334 -79.23666702232 0.9996973231334 -79.23666702232 0.0244581502499 22.594921263552
8.617200000000000 0.0244536033540 -1.060539345369 0.9996974062533 -79.23872429910 0.9996974062533 -79.23872429910 0.0244546821346 22.594866771894
8.617400000000000 0.0244501166621 -1.064599442021 0.9996974897838 -79.24078261364 0.9996974897838 -79.24078261364 0.0244511962266 22.594819547919
8.617600000000001 0.0244466120312 -1.068668886853 0.9996975737272 -79.24284197417 0.9996975737272 -79.24284197417 0.0244476923855 22.594779653799
8.617800000000001 0.0244430893237 -1.072747755970 0.9996976580871 -79.24490238872 0.9996976580871 -79.24490238872 0.0244441704735 22.594747147283
8.618000000000000 0.0244395483961 -1.076836126084 0.9996977428665 -79.24696386567 0.9996977428665 -79.24696386567 0.0244406303472 22.594722090680
8.618200000000000 0.0244359891026 -1.080934076307 0.9996978280686 -79.24902641353 0.9996978280686 -79.24902641353 0.0244370718609 22.594704546016
8.618400000000001 0.0244324112963 -1.085041686169 0.9996979136969 -79.25109004088 0.9996979136969 -79.25109004088 0.0244334948677 22.594694576304
8.618600000000001 0.0244288148352 -1.089159032519 0.9996979997542 -79.25315475603 0.9996979997542 -79.25315475603 0.0244298992256 22.594692243281
8.618800000000000 0.0244251995658 -1.093286198146 0.9996980862440 -79.25522056791 0.9996980862440 -79.25522056791 0.0244262847813 22.594697612473
8.619000000000000 0.0244215653402 -1.097423263180 0.9996981731695 -79.25728748518 0.9996981731695 -79.25728748518 0.0244226513871 22.594710747930
8.619200000000001 0.0244179120068 -1.101570310119 0.9996982605342 -79.25935551668 0.9996982605342 -79.25935551668 0.0244189988911 22.594731714614
8.619400000000001 0.0244142394088 -1.105727423731 0.9996983483414 -79.26142467158 0.9996983483414 -79.26142467158 0.0244153271368 22.594760580000
8.619600000000000 0.0244105473931 -1.109894687251 0.9996984365946 -79.26349495881 0.9996984365946 -79.26349495881 0.0244116359711 22.594797410116
8.619800000000000 0.0244068358020 -1.114072186289 0.9996985252974 -79.26556638758 0.9996985252974 -79.26556638758 0.0244079252364 22.594842273056
8.620000000000001 0.0244031044734 -1.118260007755 0.9996986144527 -79.26763896735 0.9996986144527 -79.26763896735 0.0244041947709 22.594895239342
8.620200000000001 0.0243993532516 -1.122458238042 0.9996987040649 -79.26971270723 0.9996987040649 -79.26971270723 0.0244004444184 22.594956375051
8.620400000000000 0.0243955819687 -1.126666966241 0.9996987941367 -79.27178761700 0.9996987941367 -79.27178761700 0.0243966740116 22.595025754135
8.620600000000001 0.0243917904622 -1.130886282274 0.9996988846723 -79.27386370618 0.9996988846723 -79.27386370618 0.0243928833878 22.595103445707
8.620800000000001 0.0243879785662 -1.135116275367 0.9996989756751 -79.27594098443 0.9996989756751 -79.27594098443 0.0243890723814 22.595189522348
8.621000000000000 0.0243841461122 -1.139357038106 0.9996990671490 -79.27801946160 0.9996990671490 -79.27801946160 0.0243852408238 22.595284056176
8.621200000000000 0.0243802929268 -1.143608663744 0.9996991590976 -79.28009914782 0.9996991590976 -79.28009914782 0.0243813885417 22.595387123071
8.621400000000001 0.0243764188405 -1.147871244916 0.9996992515245 -79.28218005298 0.9996992515245 -79.28218005298 0.0243775153658 22.595498796379
8.621600000000001 0.0243725236783 -1.152144877846 0.9996993444340 -79.28426218732 0.9996993444340 -79.28426218732 0.0243736211210 22.595619151168
8.621800000000000 0.0243686072641 -1.156429657250 0.9996994378294 -79.28634556110 0.9996994378294 -79.28634556110 0.0243697056313 22.595748265143
8.622000000000000 0.0243646694149 -1.160725683167 0.9996995317150 -79.28843018502 0.9996995317150 -79.28843018502 0.0243657687140 22.595886216691
8.622200000000001 0.0243607099589 -1.165033049925 0.9996996260946 -79.29051606910 0.9996996260946 -79.29051606910 0.0243618101972 22.596033081034
8.622400000000001 0.0243567287054 -1.169351860452 0.9996997209721 -79.29260322449 0.9996997209721 -79.29260322449 0.0243578298904 22.596188941287
8.622600000000000 0.0243527254725 -1.173682215902 0.9996998163521 -79.29469166182 0.9996998163521 -79.29469166182 0.0243538276114 22.596353875187
8.622800000000000 0.0243487000738 -1.178024215968 0.9996999122379 -79.29678139195 0.9996999122379 -79.29678139195 0.0243498031745 22.596527965723
8.623000000000001 0.0243446523153 -1.182377967484 0.9997000086340 -79.29887242624 0.9997000086340 -79.29887242624 0.0243457563854 22.596711296377
8.623200000000001 0.0243405820144 -1.186743570603 0.9997001055445 -79.30096477533 0.9997001055445 -79.30096477533 0.0243416870618 22.596903947119
8.623400000000000 0.0243364889672 -1.191121135917 0.9997002029737 -79.30305845114 0.9997002029737 -79.30305845114 0.0243375949997 22.597106006915
8.623600000000000 0.0243323729835 -1.195510768903 0.9997003009260 -79.30515346478 0.9997003009260 -79.30515346478 0.0243334800090 22.597317557902
8.623800000000001 0.0243282338614 -1.199912579203 0.9997003994057 -79.30724982804 0.9997003994057 -79.30724982804 0.0243293418880 22.597538688845
8.624000000000001 0.0243240714042 -1.204326674337 0.9997004984168 -79.30934755240 0.9997004984168 -79.30934755240 0.0243251804401 22.597769486282
8.624200000000000 0.0243198854022 -1.208753169577 0.9997005979641 -79.31144665011 0.9997005979641 -79.31144665011 0.0243209954556 22.598010040970
8.624400000000001 0.0243156756545 -1.213192174765 0.9997006980519 -79.31354713292 0.9997006980519 -79.31354713292 0.0243167867338 22.598260441643
8.624600000000001 0.0243114419509 -1.217643805706 0.9997007986849 -79.31564901309 0.9997007986849 -79.31564901309 0.0243125540646 22.598520779586
8.624800000000000 0.0243071840806 -1.222108177886 0.9997008998676 -79.31775230293 0.9997008998676 -79.31775230293 0.0243082972371 22.598791147353
8.625000000000000 0.0243029018280 -1.226585409190 0.9997010016046 -79.31985701505 0.9997010016046 -79.31985701505 0.0243040160361 22.599071639876
8.625200000000001 0.0242985949803 -1.231075617552 0.9997011039008 -79.32196316186 0.9997011039008 -79.32196316186 0.0242997102487 22.599362349651
8.625400000000001 0.0242942633162 -1.235578922694 0.9997012067602 -79.32407075629 0.9997012067602 -79.32407075629 0.0242953796540 22.599663375571
8.625600000000000 0.0242899066112 -1.240095449347 0.9997013101885 -79.32617981146 0.9997013101885 -79.32617981146 0.0242910240274 22.599974814692
8.625800000000000 0.0242855246478 -1.244625318529 0.9997014141906 -79.32829034008 0.9997014141906 -79.32829034008 0.0242866431512 22.600296762249
8.626000000000001 0.0242811171934 -1.249168656063 0.9997015187707 -79.33040235572 0.9997015187707 -79.33040235572 0.0242822367934 22.600629321909
8.626200000000001 0.0242766840191 -1.253725588425 0.9997016239342 -79.33251587175 0.9997016239342 -79.33251587175 0.0242778047250 22.600972594172
8.626400000000000 0.0242722248930 -1.258296244138 0.9997017296861 -79.33463090172 0.9997017296861 -79.33463090172 0.0242733467143 22.601326680680
