! Sonnet Data File
! From: emgraph Version : 16.52
! From Project: 171117_Xmon_fullysym
! Data is De-embedded 
! Data File Written: 11/26/2017 17:14:23
!< HDATE 11/22/2017 16:48:52
!< MDATE 11/23/2017 10:16:42
!< PARAMS
!< Lj = 11.0
!< Gap = 1.0
!< Pwid = 2000.0
!< Airgap = 6.0
!< Width = 10.0
!< Lj1 = 9.0
!< END PARAMS
# GHZ S MA R 50.90000
8.750000000000000 0.0240794320232 -2.929492852194 0.9997059330139 -80.49270982394 0.9997059330156 -80.49270982378 0.0240808157183 21.958363633524
!< P1 F=8.75 Eeff=(6.44841643 -2.9796e-5) Z0=(50.9085185 1.17018e-4) R=0.0 C=0.0 
!< P2 F=8.75 Eeff=(6.44841643 -2.9796e-5) Z0=(50.9085185 1.17018e-4) R=0.0 C=0.0 
8.750100000000000 0.0240750682647 -2.933311457031 0.9997060346179 -80.49389368565 0.9997060346179 -80.49389368565 0.0240764537318 21.959832240469
8.750200000000001 0.0240706874060 -2.937141415727 0.9997061365961 -80.49507855576 0.9997061365961 -80.49507855576 0.0240720746537 21.961310270555
8.750300000000001 0.0240662893466 -2.940982790509 0.9997062389506 -80.49626444003 0.9997062389506 -80.49626444003 0.0240676783851 21.962797791470
8.750400000000001 0.0240618739809 -2.944835655600 0.9997063416830 -80.49745134471 0.9997063416830 -80.49745134471 0.0240632648207 21.964294868723
8.750500000000001 0.0240574411967 -2.948700090124 0.9997064447955 -80.49863927641 0.9997064447955 -80.49863927641 0.0240588338484 21.965801570139
8.750600000000000 0.0240529909133 -2.952576155841 0.9997065482898 -80.49982823993 0.9997065482898 -80.49982823993 0.0240543853876 21.967317947112
8.750700000000000 0.0240485230256 -2.956463928829 0.9997066521683 -80.50101824148 0.9997066521683 -80.50101824148 0.0240499193332 21.968844063545
8.750800000000000 0.0240440374246 -2.960363488419 0.9997067564337 -80.50220928752 0.9997067564337 -80.50220928752 0.0240454355760 21.970379984863
8.750900000000000 0.0240395340166 -2.964274901571 0.9997068610868 -80.50340138357 0.9997068610868 -80.50340138357 0.0240409340227 21.971925772036
8.751000000000001 0.0240350126843 -2.968198252256 0.9997069661302 -80.50459453657 0.9997069661302 -80.50459453657 0.0240364145564 21.973481495321
8.751100000000001 0.0240304733492 -2.972133601816 0.9997070715659 -80.50578875117 0.9997070715659 -80.50578875117 0.0240318770981 21.975047205493
8.751200000000001 0.0240259158861 -2.976081037444 0.9997071773959 -80.50698403478 0.9997071773959 -80.50698403478 0.0240273215232 21.976622978900
8.751300000000001 0.0240213401902 -2.980040638953 0.9997072836236 -80.50818039360 0.9997072836236 -80.50818039360 0.0240227477263 21.978208877600
8.751400000000000 0.0240167461750 -2.984012468877 0.9997073902494 -80.50937783275 0.9997073902494 -80.50937783275 0.0240181556216 21.979804960360
8.751500000000000 0.0240121337100 -2.987996620182 0.9997074972763 -80.51057635994 0.9997074972763 -80.51057635994 0.0240135450785 21.981411304860
8.751600000000000 0.0240075026955 -2.991993165521 0.9997076047056 -80.51177598106 0.9997076047056 -80.51177598106 0.0240089159976 21.983027975151
8.751700000000001 0.0240028530224 -2.996002188810 0.9997077125415 -80.51297670260 0.9997077125415 -80.51297670260 0.0240042682692 21.984655035321
8.751800000000001 0.0239981845902 -3.000023760701 0.9997078207841 -80.51417853047 0.9997078207841 -80.51417853047 0.0239996017938 21.986292552564
8.751900000000001 0.0239934972684 -3.004057975615 0.9997079294366 -80.51538147241 0.9997079294366 -80.51538147241 0.0239949164404 21.987940604675
8.752000000000001 0.0239887909603 -3.008104906763 0.9997080385012 -80.51658553413 0.9997080385012 -80.51658553413 0.0239902121127 21.989599253137
8.752100000000000 0.0239840655607 -3.012164631274 0.9997081479797 -80.51779072187 0.9997081479797 -80.51779072187 0.0239854887054 21.991268565543
8.752200000000000 0.0239793209430 -3.016237241401 0.9997082578748 -80.51899704311 0.9997082578748 -80.51899704311 0.0239807460920 21.992948618286
8.752300000000000 0.0239745569990 -3.020322817003 0.9997083681888 -80.52020450425 0.9997083681888 -80.52020450425 0.0239759841645 21.994639479968
8.752400000000000 0.0239697736026 -3.024421448281 0.9997084789235 -80.52141311275 0.9997084789235 -80.52141311275 0.0239712027970 21.996341229286
8.752500000000001 0.0239649706595 -3.028533209759 0.9997085900820 -80.52262287421 0.9997085900820 -80.52262287421 0.0239664018950 21.998053925655
8.752600000000001 0.0239601480359 -3.032658194569 0.9997087016655 -80.52383379653 0.9997087016655 -80.52383379653 0.0239615813252 21.999777653977
8.752700000000001 0.0239553056178 -3.036796491189 0.9997088136780 -80.52504588646 0.9997088136780 -80.52504588646 0.0239567409731 22.001512482461
8.752800000000001 0.0239504432881 -3.040948182942 0.9997089261205 -80.52625915092 0.9997089261205 -80.52625915092 0.0239518807224 22.003258487738
8.752900000000000 0.0239455609271 -3.045113359896 0.9997090389960 -80.52747359702 0.9997090389960 -80.52747359702 0.0239470004529 22.005015743765
8.753000000000000 0.0239406584155 -3.049292108126 0.9997091523060 -80.52868923180 0.9997091523060 -80.52868923180 0.0239421000461 22.006784327529
8.753100000000000 0.0239357356307 -3.053484520529 0.9997092660540 -80.52990606251 0.9997092660540 -80.52990606251 0.0239371793789 22.008564313981
8.753200000000001 0.0239307924604 -3.057690681023 0.9997093802420 -80.53112409583 0.9997093802420 -80.53112409583 0.0239322383393 22.010355775834
8.753300000000001 0.0239258287585 -3.061910695705 0.9997094948732 -80.53234334038 0.9997094948732 -80.53234334038 0.0239272767810 22.012158801508
8.753400000000001 0.0239208444109 -3.066144647492 0.9997096099487 -80.53356380290 0.9997096099487 -80.53356380290 0.0239222945908 22.013973467056
8.753500000000001 0.0239158393010 -3.070392626192 0.9997097254716 -80.53478549032 0.9997097254716 -80.53478549032 0.0239172916515 22.015799845527
8.753600000000000 0.0239108132960 -3.074654730244 0.9997098414450 -80.53600841050 0.9997098414450 -80.53600841050 0.0239122678306 22.017638019428
8.753700000000000 0.0239057662628 -3.078931056185 0.9997099578708 -80.53723257130 0.9997099578708 -80.53723257130 0.0239072229953 22.019488073933
8.753800000000000 0.0239006980842 -3.083221692599 0.9997100747512 -80.53845797967 0.9997100747512 -80.53845797967 0.0239021570284 22.021350084751
8.753900000000000 0.0238956086219 -3.087526743680 0.9997101920901 -80.53968464380 0.9997101920901 -80.53968464380 0.0238970697915 22.023224136450
8.754000000000001 0.0238904977529 -3.091846298348 0.9997103098883 -80.54091257096 0.9997103098883 -80.54091257096 0.0238919611621 22.025110311530
8.754100000000001 0.0238853653413 -3.096180460498 0.9997104281499 -80.54214176920 0.9997104281499 -80.54214176920 0.0238868310041 22.027008692927
8.754200000000001 0.0238802112558 -3.100529326002 0.9997105468765 -80.54337224630 0.9997105468765 -80.54337224630 0.0238816791867 22.028919366547
8.754300000000001 0.0238750353365 -3.104893011650 0.9997106660716 -80.54460401171 0.9997106660716 -80.54460401171 0.0238765055498 22.030842430118
8.754400000000000 0.0238698374997 -3.109271587079 0.9997107857369 -80.54583707040 0.9997107857369 -80.54583707040 0.0238713100099 22.032777943584
8.754500000000000 0.0238646175658 -3.113665181721 0.9997109058765 -80.54707143301 0.9997109058765 -80.54707143301 0.0238660923873 22.034726015091
8.754600000000000 0.0238593754152 -3.118073885209 0.9997110264917 -80.54830710660 0.9997110264917 -80.54830710660 0.0238608525630 22.036686725355
8.754700000000000 0.0238541109182 -3.122497797127 0.9997111475856 -80.54954409887 0.9997111475856 -80.54954409887 0.0238555904072 22.038660157428
8.754800000000001 0.0238488239143 -3.126937035554 0.9997112691616 -80.55078241931 0.9997112691616 -80.55078241931 0.0238503057594 22.040646410864
8.754900000000001 0.0238435142792 -3.131391695161 0.9997113912218 -80.55202207529 0.9997113912218 -80.55202207529 0.0238449984956 22.042645568189
8.755000000000001 0.0238381818629 -3.135861886987 0.9997115137691 -80.55326307568 0.9997115137691 -80.55326307568 0.0238396684659 22.044657725151
8.755100000000001 0.0238328265319 -3.140347713182 0.9997116368060 -80.55450542840 0.9997116368060 -80.55450542840 0.0238343155370 22.046682968388
8.755200000000000 0.0238274481290 -3.144849290050 0.9997117603358 -80.55574914275 0.9997117603358 -80.55574914275 0.0238289395518 22.048721397369
8.755300000000000 0.0238220465149 -3.149366725782 0.9997118843621 -80.55699422699 0.9997118843621 -80.55699422699 0.0238235403707 22.050773100431
8.755400000000000 0.0238166215377 -3.153900130933 0.9997120088867 -80.55824069010 0.9997120088867 -80.55824069010 0.0238181178425 22.052838177685
8.755500000000001 0.0238111730634 -3.158449609399 0.9997121339124 -80.55948854003 0.9997121339124 -80.55948854003 0.0238126718331 22.054916716712
8.755600000000001 0.0238057009313 -3.163015281256 0.9997122594426 -80.56073778629 0.9997122594426 -80.56073778629 0.0238072021821 22.057008819303
8.755700000000001 0.0238002049931 -3.167597256795 0.9997123854794 -80.56198843766 0.9997123854794 -80.56198843766 0.0238017087414 22.059114583669
8.755800000000001 0.0237946850962 -3.172195655511 0.9997125120274 -80.56324050319 0.9997125120274 -80.56324050319 0.0237961913582 22.061234104465
8.755900000000000 0.0237891410865 -3.176810591203 0.9997126390886 -80.56449399200 0.9997126390886 -80.56449399200 0.0237906498786 22.063367484107
8.756000000000000 0.0237835728165 -3.181442176240 0.9997127666657 -80.56574891283 0.9997127666657 -80.56574891283 0.0237850841556 22.065514819289
8.756100000000000 0.0237779801286 -3.186090531083 0.9997128947623 -80.56700527502 0.9997128947623 -80.56700527502 0.0237794940313 22.067676211095
8.756200000000000 0.0237723628571 -3.190755778885 0.9997130233810 -80.56826308837 0.9997130233810 -80.56826308837 0.0237738793407 22.069851767243
8.756300000000001 0.0237667208502 -3.195438036915 0.9997131525253 -80.56952236189 0.9997131525253 -80.56952236189 0.0237682399317 22.072041586561
8.756400000000001 0.0237610539549 -3.200137421903 0.9997132821978 -80.57078310464 0.9997132821978 -80.57078310464 0.0237625756515 22.074245770240
8.756500000000001 0.0237553619908 -3.204854069579 0.9997134124026 -80.57204532730 0.9997134124026 -80.57204532730 0.0237568863200 22.076464431939
8.756600000000001 0.0237496448199 -3.209588086316 0.9997135431415 -80.57330903804 0.9997135431415 -80.57330903804 0.0237511717994 22.078697667424
8.756700000000000 0.0237439022611 -3.214339611102 0.9997136744192 -80.57457424762 0.9997136744192 -80.57457424762 0.0237454319084 22.080945589524
8.756800000000000 0.0237381341512 -3.219108765113 0.9997138062376 -80.57584096568 0.9997138062376 -80.57584096568 0.0237396664844 22.083208308706
8.756900000000000 0.0237323403317 -3.223895672826 0.9997139386005 -80.57710920162 0.9997139386005 -80.57710920162 0.0237338753690 22.085485927888
8.757000000000000 0.0237265206264 -3.228700467787 0.9997140715114 -80.57837896588 0.9997140715114 -80.57837896588 0.0237280583857 22.087778561728
8.757100000000001 0.0237206748650 -3.233523278284 0.9997142049729 -80.57965026855 0.9997142049729 -80.57965026855 0.0237222153651 22.090086323445
8.757200000000001 0.0237148028825 -3.238364234190 0.9997143389890 -80.58092311942 0.9997143389890 -80.58092311942 0.0237163461417 22.092409320258
8.757300000000001 0.0237089045075 -3.243223464797 0.9997144735622 -80.58219752863 0.9997144735622 -80.58219752863 0.0237104505448 22.094747667219
8.757400000000001 0.0237029795618 -3.248101108588 0.9997146086969 -80.58347350675 0.9997146086968 -80.58347350675 0.0237045283959 22.097101478951
8.757500000000000 0.0236970278730 -3.252997297698 0.9997147443960 -80.58475106400 0.9997147443960 -80.58475106400 0.0236985795229 22.099470870547
8.757600000000000 0.0236910492520 -3.257912173534 0.9997148806624 -80.58603021157 0.9997148806624 -80.58603021157 0.0236926037374 22.101855967011
8.757700000000000 0.0236850435334 -3.262845867286 0.9997150174999 -80.58731095927 0.9997150174999 -80.58731095927 0.0236866008736 22.104256878113
8.757800000000001 0.0236790105349 -3.267798518983 0.9997151549120 -80.58859331792 0.9997151549120 -80.58859331792 0.0236805707496 22.106673724381
8.757900000000001 0.0236729500650 -3.272770277177 0.9997152929033 -80.58987729886 0.9997152929033 -80.58987729886 0.0236745131737 22.109106629206
8.758000000000001 0.0236668619492 -3.277761274615 0.9997154314759 -80.59116291243 0.9997154314759 -80.59116291243 0.0236684279721 22.111555712754
8.758100000000001 0.0236607460003 -3.282771655356 0.9997155706331 -80.59245016972 0.9997155706331 -80.59245016972 0.0236623149577 22.114021099430
8.758200000000000 0.0236546020267 -3.287801569328 0.9997157103797 -80.59373908210 0.9997157103797 -80.59373908210 0.0236561739389 22.116502913710
8.758300000000000 0.0236484298545 -3.292851151863 0.9997158507183 -80.59502965988 0.9997158507183 -80.59502965988 0.0236500047421 22.119001274983
8.758400000000000 0.0236422292772 -3.297920562830 0.9997159916538 -80.59632191530 0.9997159916538 -80.59632191530 0.0236438071607 22.121516316524
8.758500000000000 0.0236360001109 -3.303009942425 0.9997161331883 -80.59761585925 0.9997161331883 -80.59761585925 0.0236375810116 22.124048165491
8.758600000000001 0.0236297421525 -3.308119449694 0.9997162753267 -80.59891150379 0.9997162753267 -80.59891150379 0.0236313260915 22.126596953902
8.758700000000001 0.0236234552208 -3.313249225782 0.9997164180717 -80.60020885964 0.9997164180717 -80.60020885964 0.0236250422196 22.129162806776
8.758800000000001 0.0236171391056 -3.318399434824 0.9997165614284 -80.60150793929 0.9997165614284 -80.60150793929 0.0236187291855 22.131745860817
8.758900000000001 0.0236107936195 -3.323570223244 0.9997167053998 -80.60280875383 0.9997167053998 -80.60280875383 0.0236123868022 22.134346244589
8.759000000000000 0.0236044185470 -3.328761754355 0.9997168499889 -80.60411131603 0.9997168499889 -80.60411131603 0.0236060148550 22.136964102855
8.759100000000000 0.0235980136972 -3.333974182193 0.9997169952008 -80.60541563724 0.9997169952008 -80.60541563724 0.0235996131526 22.139599563002
8.759200000000000 0.0235915788682 -3.339207664726 0.9997171410390 -80.60672172942 0.9997171410390 -80.60672172942 0.0235931814932 22.142252761556
8.759300000000001 0.0235851138404 -3.344462371091 0.9997172875077 -80.60802960559 0.9997172875077 -80.60802960559 0.0235867196575 22.144923845045
8.759400000000001 0.0235786184111 -3.349738461332 0.9997174346108 -80.60933927777 0.9997174346108 -80.60933927777 0.0235802274432 22.147612950741
8.759500000000001 0.0235720923795 -3.355036093610 0.9997175823517 -80.61065075787 0.9997175823517 -80.61065075787 0.0235737046498 22.150320216486
8.759600000000001 0.0235655355171 -3.360355444232 0.9997177307348 -80.61196405944 0.9997177307347 -80.61196405944 0.0235671510488 22.153045794817
8.759700000000000 0.0235589476265 -3.365696670273 0.9997178797633 -80.61327919418 0.9997178797633 -80.61327919418 0.0235605664435 22.155789822574
8.759800000000000 0.0235523284779 -3.371059954203 0.9997180294433 -80.61459617574 0.9997180294433 -80.61459617574 0.0235539506034 22.158552450150
8.759900000000000 0.0235456778649 -3.376445457278 0.9997181797774 -80.61591501635 0.9997181797774 -80.61591501635 0.0235473033231 22.161333822279
8.760000000000000 0.0235389955576 -3.381853358790 0.9997183307699 -80.61723572965 0.9997183307699 -80.61723572965 0.0235406243727 22.164134094150
8.760100000000001 0.0235322813332 -3.387283834658 0.9997184824249 -80.61855832885 0.9997184824249 -80.61855832885 0.0235339135299 22.166953417277
8.760200000000001 0.0235255349698 -3.392737063171 0.9997186347477 -80.61988282713 0.9997186347477 -80.61988282713 0.0235271705723 22.169791941054
8.760300000000001 0.0235187562502 -3.398213214091 0.9997187877410 -80.62120923736 0.9997187877410 -80.62120923736 0.0235203952838 22.172649818202
8.760400000000001 0.0235119449300 -3.403712478454 0.9997189414096 -80.62253757403 0.9997189414096 -80.62253757403 0.0235135874201 22.175527213292
8.760500000000000 0.0235051007890 -3.409235036393 0.9997190957589 -80.62386785024 0.9997190957589 -80.62386785024 0.0235067467605 22.178424275384
8.760600000000000 0.0234982235945 -3.414781067472 0.9997192507915 -80.62520007976 0.9997192507915 -80.62520007976 0.0234998730736 22.181341168374
8.760700000000000 0.0234913131017 -3.420350767716 0.9997194065131 -80.62653427713 0.9997194065131 -80.62653427713 0.0234929661142 22.184278056070
8.760800000000000 0.0234843690768 -3.425944322818 0.9997195629278 -80.62787045622 0.9997195629279 -80.62787045622 0.0234860256489 22.187235100532
8.760900000000001 0.0234773912878 -3.431561919660 0.9997197200404 -80.62920863081 0.9997197200404 -80.62920863081 0.0234790514459 22.190212461761
8.761000000000001 0.0234703794935 -3.437203748632 0.9997198778545 -80.63054881520 0.9997198778545 -80.63054881520 0.0234720432644 22.193210307870
8.761100000000001 0.0234633334394 -3.442870013101 0.9997200363757 -80.63189102450 0.9997200363757 -80.63189102450 0.0234650008500 22.196228811197
8.761200000000001 0.0234562528779 -3.448560907536 0.9997201956074 -80.63323527338 0.9997201956074 -80.63323527338 0.0234579239559 22.199268145310
8.761300000000000 0.0234491375815 -3.454276621036 0.9997203555552 -80.63458157538 0.9997203555552 -80.63458157538 0.0234508123541 22.202328468099
8.761400000000000 0.0234419872681 -3.460017372154 0.9997205162235 -80.63592994721 0.9997205162235 -80.63592994721 0.0234436657634 22.205409971985
8.761500000000000 0.0234348017081 -3.465783352547 0.9997206776181 -80.63728040253 0.9997206776181 -80.63728040253 0.0234364839536 22.208512817113
8.761600000000001 0.0234275806184 -3.471574779218 0.9997208397419 -80.63863295811 0.9997208397419 -80.63863295811 0.0234292666431 22.211637200896
8.761700000000001 0.0234203237746 -3.477391839815 0.9997210025996 -80.63998762729 0.9997210025996 -80.63998762729 0.0234220136074 22.214783283815
8.761800000000001 0.0234130308925 -3.483234760663 0.9997211661972 -80.64134442693 0.9997211661972 -80.64134442693 0.0234147245623 22.217951258770
8.761900000000001 0.0234057017232 -3.489103745738 0.9997213305397 -80.64270337182 0.9997213305397 -80.64270337182 0.0234073992592 22.221141300964
8.762000000000000 0.0233983359936 -3.494999014294 0.9997214956322 -80.64406447819 0.9997214956322 -80.64406447819 0.0234000374250 22.224353600166
8.762100000000000 0.0233909334303 -3.500920781773 0.9997216614780 -80.64542776222 0.9997216614780 -80.64542776222 0.0233926387876 22.227588350972
8.762200000000000 0.0233834937522 -3.506869278902 0.9997218280842 -80.64679324064 0.9997218280842 -80.64679324064 0.0233852030652 22.230845744313
8.762300000000000 0.0233760167002 -3.512844714020 0.9997219954542 -80.64816092881 0.9997219954542 -80.64816092881 0.0233777299997 22.234125968241
8.762400000000001 0.0233685020001 -3.518847311150 0.9997221635934 -80.64953084302 0.9997221635934 -80.64953084302 0.0233702193172 22.237429214746
8.762500000000001 0.0233609493671 -3.524877302228 0.9997223325078 -80.65090300020 0.9997223325077 -80.65090300020 0.0233626707327 22.240755681909
8.762600000000001 0.0233533585093 -3.530934920766 0.9997225022019 -80.65227741766 0.9997225022019 -80.65227741766 0.0233550839549 22.244105575873
8.762700000000001 0.0233457291535 -3.537020392656 0.9997226726815 -80.65365411164 0.9997226726815 -80.65365411164 0.0233474587109 22.247479090123
8.762800000000000 0.0233380610040 -3.543133955761 0.9997228439513 -80.65503309969 0.9997228439513 -80.65503309969 0.0233397947055 22.250876433962
8.762900000000000 0.0233303537792 -3.549275840295 0.9997230160160 -80.65641439853 0.9997230160160 -80.65641439853 0.0233320916576 22.254297809509
8.763000000000000 0.0233226071805 -3.555446292543 0.9997231888823 -80.65779802592 0.9997231888823 -80.65779802592 0.0233243492684 22.257743424837
8.763100000000000 0.0233148209057 -3.561645557965 0.9997233625556 -80.65918399980 0.9997233625556 -80.65918399980 0.0233165672361 22.261213494240
8.763200000000001 0.0233069946530 -3.567873880515 0.9997235370404 -80.66057233807 0.9997235370404 -80.66057233807 0.0233087452598 22.264708234589
