! Sonnet Data File
! From: emgraph Version : 16.52
! From Project: 171117_Xmon_fullysym
! Data is De-embedded 
! Data File Written: 11/26/2017 17:14:22
!< HDATE 11/22/2017 16:48:52
!< MDATE 11/23/2017 10:16:42
!< PARAMS
!< Lj = 11.0
!< Gap = 1.0
!< Pwid = 2000.0
!< Airgap = 6.0
!< Width = 10.0
!< Lj1 = 10.15
!< END PARAMS
# GHZ S MA R 50.90000
8.680000000000000 0.0252012554630 -1.452616591628 0.9996790096227 -79.77768276245 0.9996790096212 -79.77768276233 0.0252022609639 21.907831328225
!< P1 F=8.68 Eeff=(6.44843488 -2.9797e-5) Z0=(50.9086135 1.17022e-4) R=0.0 C=0.0 
!< P2 F=8.68 Eeff=(6.44843488 -2.9797e-5) Z0=(50.9086135 1.17022e-4) R=0.0 C=0.0 
8.680100000000001 0.0252005666339 -1.454154848735 0.9996790265649 -79.77865049446 0.9996790265649 -79.77865049446 0.0252015722796 21.907435289248
8.680200000000001 0.0251998765327 -1.455693835351 0.9996790435379 -79.77961830097 0.9996790435379 -79.77961830097 0.0252008823251 21.907039841261
8.680300000000001 0.0251991851529 -1.457233560539 0.9996790605423 -79.78058618230 0.9996790605423 -79.78058618230 0.0252001910923 21.906644987033
8.680400000000001 0.0251984924910 -1.458774027199 0.9996790775783 -79.78155413865 0.9996790775783 -79.78155413865 0.0251994985779 21.906250727410
8.680500000000000 0.0251977985434 -1.460315237089 0.9996790946460 -79.78252217024 0.9996790946460 -79.78252217024 0.0251988047780 21.905857064600
8.680600000000000 0.0251971033070 -1.461857191791 0.9996791117453 -79.78349027724 0.9996791117453 -79.78349027724 0.0251981096897 21.905464000271
8.680700000000000 0.0251964067796 -1.463399893315 0.9996791288766 -79.78445845978 0.9996791288766 -79.78445845978 0.0251974133108 21.905071534905
8.680800000000001 0.0251957089574 -1.464943343340 0.9996791460396 -79.78542671809 0.9996791460396 -79.78542671809 0.0251967156375 21.904679670979
8.680900000000001 0.0251950098377 -1.466487543735 0.9996791632345 -79.78639505233 0.9996791632345 -79.78639505233 0.0251960166670 21.904288409626
8.681000000000001 0.0251943094180 -1.468032495924 0.9996791804614 -79.78736346264 0.9996791804614 -79.78736346264 0.0251953163969 21.903897752161
8.681100000000001 0.0251936076952 -1.469578202010 0.9996791977203 -79.78833194921 0.9996791977203 -79.78833194921 0.0251946148241 21.903507699835
8.681200000000000 0.0251929046639 -1.471124665011 0.9996792150115 -79.78930051236 0.9996792150115 -79.78930051236 0.0251939119431 21.903118255383
8.681300000000000 0.0251922003235 -1.472671885369 0.9996792323348 -79.79026915211 0.9996792323348 -79.79026915211 0.0251932077534 21.902729419223
8.681400000000000 0.0251914946697 -1.474219865991 0.9996792496905 -79.79123786873 0.9996792496905 -79.79123786873 0.0251925022506 21.902341193110
8.681500000000000 0.0251907876983 -1.475768608771 0.9996792670785 -79.79220666246 0.9996792670785 -79.79220666246 0.0251917954306 21.901953579555
8.681600000000001 0.0251900794090 -1.477318114224 0.9996792844989 -79.79317553332 0.9996792844989 -79.79317553332 0.0251910872931 21.901566578625
8.681700000000001 0.0251893697956 -1.478868386323 0.9996793019520 -79.79414448167 0.9996793019520 -79.79414448167 0.0251903778318 21.901180192941
8.681800000000001 0.0251886588578 -1.480419425010 0.9996793194376 -79.79511350752 0.9996793194376 -79.79511350752 0.0251896670465 21.900794423065
8.681900000000001 0.0251879465892 -1.481971233828 0.9996793369557 -79.79608261126 0.9996793369557 -79.79608261126 0.0251889549309 21.900409272121
8.682000000000000 0.0251872329882 -1.483523814600 0.9996793545069 -79.79705179299 0.9996793545069 -79.79705179299 0.0251882414831 21.900024740382
8.682100000000000 0.0251865180520 -1.485077167820 0.9996793720906 -79.79802105286 0.9996793720906 -79.79802105286 0.0251875267006 21.899640830248
8.682200000000000 0.0251858017771 -1.486631296618 0.9996793897073 -79.79899039108 0.9996793897073 -79.79899039108 0.0251868105798 21.899257542474
8.682300000000000 0.0251850841599 -1.488186202910 0.9996794073570 -79.79995980787 0.9996794073570 -79.79995980787 0.0251860931170 21.898874879115
8.682400000000001 0.0251843651973 -1.489741888362 0.9996794250397 -79.80092930340 0.9996794250397 -79.80092930340 0.0251853743092 21.898492841779
8.682500000000001 0.0251836448858 -1.491298355264 0.9996794427556 -79.80189887788 0.9996794427556 -79.80189887788 0.0251846541528 21.898111432121
8.682600000000001 0.0251829232224 -1.492855605170 0.9996794605046 -79.80286853149 0.9996794605046 -79.80286853149 0.0251839326450 21.897730651728
8.682700000000001 0.0251822002043 -1.494413640282 0.9996794782870 -79.80383826439 0.9996794782870 -79.80383826439 0.0251832097828 21.897350501694
8.682800000000000 0.0251814758262 -1.495972463341 0.9996794961027 -79.80480807690 0.9996794961027 -79.80480807690 0.0251824855611 21.896970984757
8.682900000000000 0.0251807500886 -1.497532074288 0.9996795139518 -79.80577796899 0.9996795139518 -79.80577796899 0.0251817599802 21.896592100889
8.683000000000000 0.0251800229838 -1.499092477822 0.9996795318346 -79.80674794110 0.9996795318346 -79.80674794110 0.0251810330324 21.896213853352
8.683100000000001 0.0251792945108 -1.500653674180 0.9996795497508 -79.80771799330 0.9996795497508 -79.80771799330 0.0251803047168 21.895836243258
8.683200000000001 0.0251785646664 -1.502215665638 0.9996795677008 -79.80868812578 0.9996795677008 -79.80868812578 0.0251795750303 21.895459271772
8.683300000000001 0.0251778334458 -1.503778455030 0.9996795856846 -79.80965833881 0.9996795856846 -79.80965833881 0.0251788439680 21.895082941241
8.683400000000001 0.0251771008462 -1.505342043937 0.9996796037021 -79.81062863257 0.9996796037021 -79.81062863257 0.0251781115270 21.894707253166
8.683500000000000 0.0251763668647 -1.506906434303 0.9996796217537 -79.81159900722 0.9996796217537 -79.81159900722 0.0251773777045 21.894332208879
8.683600000000000 0.0251756314999 -1.508471626824 0.9996796398391 -79.81256946285 0.9996796398391 -79.81256946285 0.0251766424991 21.893957809468
8.683700000000000 0.0251748947431 -1.510037626783 0.9996796579587 -79.81353999996 0.9996796579587 -79.81353999996 0.0251759059021 21.893584058531
8.683800000000000 0.0251741565959 -1.511604433361 0.9996796761124 -79.81451061846 0.9996796761124 -79.81451061846 0.0251751679152 21.893210955623
8.683900000000001 0.0251734170521 -1.513172049831 0.9996796943003 -79.81548131873 0.9996796943003 -79.81548131873 0.0251744285320 21.892838504122
8.684000000000001 0.0251726761107 -1.514740477388 0.9996797125225 -79.81645210081 0.9996797125225 -79.81645210081 0.0251736877516 21.892466704066
8.684100000000001 0.0251719337646 -1.516309720294 0.9996797307793 -79.81742296513 0.9996797307793 -79.81742296513 0.0251729455669 21.892095558680
8.684200000000001 0.0251711900145 -1.517879777669 0.9996797490704 -79.81839391165 0.9996797490704 -79.81839391165 0.0251722019785 21.891725068526
8.684300000000000 0.0251704448530 -1.519450654322 0.9996797673962 -79.81936494079 0.9996797673962 -79.81936494079 0.0251714569792 21.891355236419
8.684400000000000 0.0251696982796 -1.521022350556 0.9996797857565 -79.82033605259 0.9996797857565 -79.82033605259 0.0251707105685 21.890986062894
8.684500000000000 0.0251689502888 -1.522594869374 0.9996798041516 -79.82130724737 0.9996798041516 -79.82130724737 0.0251699627407 21.890617550843
8.684600000000000 0.0251682008781 -1.524168212691 0.9996798225815 -79.82227852528 0.9996798225815 -79.82227852528 0.0251692134934 21.890249701218
8.684700000000001 0.0251674500442 -1.525742382376 0.9996798410462 -79.82324988652 0.9996798410462 -79.82324988652 0.0251684628233 21.889882515769
8.684800000000001 0.0251666977823 -1.527317381471 0.9996798595461 -79.82422133136 0.9996798595461 -79.82422133136 0.0251677107256 21.889515996601
8.684900000000001 0.0251659440903 -1.528893210987 0.9996798780809 -79.82519285993 0.9996798780809 -79.82519285993 0.0251669571983 21.889150145104
8.685000000000000 0.0251651889638 -1.530469873854 0.9996798966510 -79.82616447250 0.9996798966510 -79.82616447250 0.0251662022367 21.888784963238
8.685100000000000 0.0251644323995 -1.532047371691 0.9996799152562 -79.82713616924 0.9996799152562 -79.82713616924 0.0251654458379 21.888420452807
8.685200000000000 0.0251636743933 -1.533625707116 0.9996799338966 -79.82810795041 0.9996799338966 -79.82810795041 0.0251646879975 21.888056615782
8.685300000000000 0.0251629149441 -1.535204881301 0.9996799525726 -79.82907981607 0.9996799525726 -79.82907981607 0.0251639287146 21.887693452423
8.685400000000001 0.0251621540435 -1.536784898711 0.9996799712841 -79.83005176671 0.9996799712841 -79.83005176671 0.0251631679807 21.887330967047
8.685500000000001 0.0251613916916 -1.538365759759 0.9996799900312 -79.83102380233 0.9996799900312 -79.83102380233 0.0251624057958 21.886969159580
8.685600000000001 0.0251606278844 -1.539947466075 0.9996800088137 -79.83199592316 0.9996800088137 -79.83199592316 0.0251616421561 21.886608032513
8.685700000000001 0.0251598626173 -1.541530021295 0.9996800276320 -79.83296812947 0.9996800276320 -79.83296812947 0.0251608770570 21.886247587278
8.685800000000000 0.0251590958873 -1.543113427191 0.9996800464863 -79.83394042145 0.9996800464863 -79.83394042145 0.0251601104953 21.885887825643
8.685900000000000 0.0251583276895 -1.544697686183 0.9996800653764 -79.83491279937 0.9996800653764 -79.83491279937 0.0251593424663 21.885528750180
8.686000000000000 0.0251575580219 -1.546282799911 0.9996800843026 -79.83588526336 0.9996800843026 -79.83588526336 0.0251585729679 21.885170361771
8.686100000000000 0.0251567868798 -1.547868771096 0.9996801032648 -79.83685781370 0.9996801032648 -79.83685781370 0.0251578019953 21.884812662776
8.686200000000001 0.0251560142595 -1.549455601995 0.9996801222632 -79.83783045059 0.9996801222632 -79.83783045059 0.0251570295451 21.884455654874
8.686300000000001 0.0251552401568 -1.551043295139 0.9996801412979 -79.83880317429 0.9996801412979 -79.83880317429 0.0251562556128 21.884099340239
8.686400000000001 0.0251544645706 -1.552631851366 0.9996801603689 -79.83977598486 0.9996801603689 -79.83977598486 0.0251554801975 21.883743719484
8.686500000000001 0.0251536874923 -1.554221275209 0.9996801794763 -79.84074888281 0.9996801794763 -79.84074888281 0.0251547032905 21.883388796954
8.686600000000000 0.0251529089231 -1.555811567054 0.9996801986204 -79.84172186807 0.9996801986204 -79.84172186807 0.0251539248930 21.883034571601
8.686700000000000 0.0251521288571 -1.557402729752 0.9996802178009 -79.84269494099 0.9996802178009 -79.84269494099 0.0251531449991 21.882681046813
8.686800000000000 0.0251513472890 -1.558994766237 0.9996802370181 -79.84366810186 0.9996802370181 -79.84366810186 0.0251523636037 21.882328225131
8.686900000000001 0.0251505642179 -1.560587678210 0.9996802562723 -79.84464135077 0.9996802562723 -79.84464135077 0.0251515807055 21.881976106444
8.687000000000001 0.0251497796388 -1.562181467625 0.9996802755633 -79.84561468798 0.9996802755633 -79.84561468798 0.0251507962999 21.881624693993
8.687100000000001 0.0251489935466 -1.563776138080 0.9996802948913 -79.84658811381 0.9996802948913 -79.84658811381 0.0251500103816 21.881273989626
8.687200000000001 0.0251482059389 -1.565371690653 0.9996803142563 -79.84756162839 0.9996803142563 -79.84756162839 0.0251492229482 21.880923995219
8.687300000000000 0.0251474168119 -1.566968128031 0.9996803336584 -79.84853523196 0.9996803336584 -79.84853523196 0.0251484339960 21.880574712128
8.687400000000000 0.0251466261605 -1.568565453267 0.9996803530979 -79.84950892480 0.9996803530979 -79.84950892480 0.0251476435198 21.880226142916
8.687500000000000 0.0251458339828 -1.570163667167 0.9996803725745 -79.85048270704 0.9996803725745 -79.85048270704 0.0251468515177 21.879878289062
8.687600000000000 0.0251450402734 -1.571762773790 0.9996803920888 -79.85145657897 0.9996803920888 -79.85145657897 0.0251460579844 21.879531152136
8.687700000000001 0.0251442450281 -1.573362774908 0.9996804116405 -79.85243054088 0.9996804116405 -79.85243054088 0.0251452629156 21.879184735223
8.687800000000001 0.0251434482437 -1.574963672503 0.9996804312298 -79.85340459292 0.9996804312298 -79.85340459292 0.0251444663082 21.878839039670
8.687900000000001 0.0251426499165 -1.576565469547 0.9996804508569 -79.85437873533 0.9996804508569 -79.85437873533 0.0251436681584 21.878494066859
8.688000000000001 0.0251418500431 -1.578168167495 0.9996804705217 -79.85535296830 0.9996804705217 -79.85535296830 0.0251428684628 21.878149818988
8.688100000000000 0.0251410486172 -1.579771770115 0.9996804902244 -79.85632729219 0.9996804902244 -79.85632729219 0.0251420672152 21.877806298973
8.688200000000000 0.0251402456364 -1.581376279081 0.9996805099651 -79.85730170717 0.9996805099651 -79.85730170717 0.0251412644132 21.877463508024
8.688300000000000 0.0251394410960 -1.582981697367 0.9996805297440 -79.85827621350 0.9996805297440 -79.85827621350 0.0251404600520 21.877121448320
8.688400000000000 0.0251386349938 -1.584588026176 0.9996805495609 -79.85925081130 0.9996805495609 -79.85925081130 0.0251396541294 21.876780121189
8.688500000000001 0.0251378273242 -1.586195268868 0.9996805694162 -79.86022550092 0.9996805694162 -79.86022550092 0.0251388466400 21.876439529215
8.688600000000001 0.0251370180839 -1.587803427264 0.9996805893096 -79.86120028254 0.9996805893096 -79.86120028254 0.0251380375803 21.876099674475
8.688700000000001 0.0251362072667 -1.589412505511 0.9996806092417 -79.86217515652 0.9996806092417 -79.86217515652 0.0251372269441 21.875760559257
8.688800000000001 0.0251353948721 -1.591022503929 0.9996806292122 -79.86315012291 0.9996806292122 -79.86315012291 0.0251364147310 21.875422184397
8.688900000000000 0.0251345808925 -1.592633426835 0.9996806492215 -79.86412518214 0.9996806492215 -79.86412518214 0.0251356009334 21.875084553368
8.689000000000000 0.0251337653271 -1.594245275272 0.9996806692695 -79.86510033427 0.9996806692695 -79.86510033427 0.0251347855503 21.874747666494
8.689100000000000 0.0251329481690 -1.595858052665 0.9996806893563 -79.86607557970 0.9996806893563 -79.86607557970 0.0251339685751 21.874411527610
8.689200000000001 0.0251321294158 -1.597471761058 0.9996807094821 -79.86705091856 0.9996807094821 -79.86705091856 0.0251331500052 21.874076137588
8.689300000000001 0.0251313090632 -1.599086402708 0.9996807296469 -79.86802635112 0.9996807296469 -79.86802635112 0.0251323298364 21.873741498784
8.689400000000001 0.0251304871058 -1.600701981253 0.9996807498508 -79.86900187769 0.9996807498508 -79.86900187769 0.0251315080632 21.873407613479
8.689500000000001 0.0251296635411 -1.602318497957 0.9996807700940 -79.86997749842 0.9996807700940 -79.86997749842 0.0251306846833 21.873074483221
8.689600000000000 0.0251288383631 -1.603935956260 0.9996807903764 -79.87095321366 0.9996807903764 -79.87095321366 0.0251298596905 21.872742111183
8.689700000000000 0.0251280115705 -1.605554357977 0.9996808106984 -79.87192902349 0.9996808106984 -79.87192902349 0.0251290330835 21.872410497282
8.689800000000000 0.0251271831559 -1.607173706542 0.9996808310598 -79.87290492834 0.9996808310598 -79.87290492834 0.0251282048550 21.872079645770
8.689900000000000 0.0251263531167 -1.608794003868 0.9996808514609 -79.87388092836 0.9996808514609 -79.87388092836 0.0251273750024 21.871749557859
8.690000000000001 0.0251255214485 -1.610415252655 0.9996808719017 -79.87485702382 0.9996808719017 -79.87485702382 0.0251265435213 21.871420235722
8.690100000000001 0.0251246881466 -1.612037455668 0.9996808923822 -79.87583321500 0.9996808923822 -79.87583321500 0.0251257104070 21.871091681771
8.690200000000001 0.0251238532063 -1.613660616077 0.9996809129028 -79.87680950216 0.9996809129028 -79.87680950216 0.0251248756547 21.870763897884
8.690300000000001 0.0251230166242 -1.615284735453 0.9996809334633 -79.87778588551 0.9996809334633 -79.87778588551 0.0251240392612 21.870436886436
8.690400000000000 0.0251221783959 -1.616909817022 0.9996809540640 -79.87876236531 0.9996809540640 -79.87876236531 0.0251232012219 21.870110649048
8.690500000000000 0.0251213385184 -1.618535862568 0.9996809747049 -79.87973894173 0.9996809747049 -79.87973894173 0.0251223615338 21.869785187385
8.690600000000000 0.0251204969851 -1.620162875628 0.9996809953860 -79.88071561516 0.9996809953860 -79.88071561516 0.0251215201906 21.869460504864
8.690700000000001 0.0251196537921 -1.621790858925 0.9996810161076 -79.88169238584 0.9996810161076 -79.88169238584 0.0251206771880 21.869136603363
8.690800000000001 0.0251188089340 -1.623419816013 0.9996810368700 -79.88266925408 0.9996810368700 -79.88266925408 0.0251198325208 21.868813484981
8.690900000000001 0.0251179624105 -1.625049746535 0.9996810576727 -79.88364621990 0.9996810576727 -79.88364621990 0.0251189861887 21.868491150977
8.691000000000001 0.0251171142142 -1.626680655476 0.9996810785163 -79.88462328372 0.9996810785163 -79.88462328372 0.0251181381844 21.868169604098
8.691100000000000 0.0251162643402 -1.628312545585 0.9996810994007 -79.88560044585 0.9996810994007 -79.88560044585 0.0251172885028 21.867848847111
8.691200000000000 0.0251154127855 -1.629945418656 0.9996811203260 -79.88657770646 0.9996811203260 -79.88657770646 0.0251164371410 21.867528881639
8.691300000000000 0.0251145595448 -1.631579278027 0.9996811412924 -79.88755506586 0.9996811412924 -79.88755506586 0.0251155840936 21.867209710157
8.691400000000000 0.0251137046136 -1.633214126163 0.9996811622999 -79.88853252431 0.9996811622999 -79.88853252431 0.0251147293564 21.866891335058
8.691500000000001 0.0251128479893 -1.634849965428 0.9996811833487 -79.88951008198 0.9996811833487 -79.88951008198 0.0251138729265 21.866573757213
8.691600000000001 0.0251119896633 -1.636486800123 0.9996812044389 -79.89048773935 0.9996812044389 -79.89048773935 0.0251130147953 21.866256981397
8.691700000000001 0.0251111296353 -1.638124630936 0.9996812255704 -79.89146549646 0.9996812255704 -79.89146549646 0.0251121549628 21.865941007589
8.691800000000001 0.0251102678992 -1.639763461707 0.9996812467436 -79.89244335366 0.9996812467436 -79.89244335366 0.0251112934226 21.865625838636
8.691900000000000 0.0251094044497 -1.641403295333 0.9996812679585 -79.89342131126 0.9996812679585 -79.89342131126 0.0251104301695 21.865311477401
8.692000000000000 0.0251085392830 -1.643044134191 0.9996812892150 -79.89439936949 0.9996812892150 -79.89439936949 0.0251095651997 21.864997925857
8.692100000000000 0.0251076723951 -1.644685981046 0.9996813105136 -79.89537752858 0.9996813105136 -79.89537752858 0.0251086985092 21.864685185640
8.692200000000000 0.0251068037806 -1.646328839021 0.9996813318541 -79.89635578885 0.9996813318541 -79.89635578885 0.0251078300926 21.864373259645
8.692300000000001 0.0251059334333 -1.647972711727 0.9996813532368 -79.89733415066 0.9996813532368 -79.89733415066 0.0251069599439 21.864062150824
8.692400000000001 0.0251050613525 -1.649617600107 0.9996813746617 -79.89831261406 0.9996813746617 -79.89831261406 0.0251060880620 21.863751859612
8.692500000000001 0.0251041875305 -1.651263508227 0.9996813961289 -79.89929117950 0.9996813961289 -79.89929117950 0.0251052144394 21.863442390084
8.692600000000001 0.0251033119635 -1.652910438682 0.9996814176385 -79.90026984720 0.9996814176385 -79.90026984720 0.0251043390724 21.863133743803
8.692700000000000 0.0251024346477 -1.654558393921 0.9996814391906 -79.90124861739 0.9996814391906 -79.90124861739 0.0251034619572 21.862825922859
8.692800000000000 0.0251015555764 -1.656207377826 0.9996814607854 -79.90222749046 0.9996814607854 -79.90222749046 0.0251025830868 21.862518930535
8.692900000000000 0.0251006747455 -1.657857392936 0.9996814824230 -79.90320646665 0.9996814824230 -79.90320646665 0.0251017024575 21.862212768797
8.693000000000001 0.0250997921525 -1.659508441211 0.9996815041035 -79.90418554611 0.9996815041035 -79.90418554611 0.0251008200665 21.861907438901
8.693100000000001 0.0250989077903 -1.661160526504 0.9996815258269 -79.90516472926 0.9996815258269 -79.90516472926 0.0250999359070 21.861602944382
8.693200000000001 0.0250980216542 -1.662813651915 0.9996815475935 -79.90614401638 0.9996815475935 -79.90614401638 0.0250990499739 21.861299287612
