! Sonnet Data File
! From: emgraph Version : 16.52
! From Project: 171117_Xmon_fullysym
! Data is De-embedded 
! Data File Written: 11/26/2017 21:44:46
!< HDATE 11/26/2017 17:24:49
!< MDATE 11/26/2017 17:24:49
!< PARAMS
!< Lj = 11.0
!< Gap = 1.0
!< Pwid = 2000.0
!< Airgap = 6.0
!< Width = 10.0
!< Lj1 = 10.2
!< END PARAMS
# GHZ S MA R 50.90000
8.600000000000001 0.0254901188080 -0.369920998354 0.9996718118570 -79.01882035680 0.9996718118569 -79.01882035708 0.0254910561061 22.342312434113
!< P1 F=8.6 Eeff=(6.44845572 -2.9799e-5) Z0=(50.9087207 1.17006e-4) R=0.0 C=0.0 
!< P2 F=8.6 Eeff=(6.44845572 -2.9799e-5) Z0=(50.9087207 1.17006e-4) R=0.0 C=0.0 
8.600200000000001 0.0254897490232 -0.372427749473 0.9996718211220 -79.02069702051 0.9996718211220 -79.02069702051 0.0254906864388 22.341066526176
8.600400000000000 0.0254893780441 -0.374935199021 0.9996718303919 -79.02257375543 0.9996718303919 -79.02257375543 0.0254903155569 22.339821134828
8.600600000000000 0.0254890058368 -0.377443319420 0.9996718396928 -79.02445056137 0.9996718396928 -79.02445056137 0.0254899434470 22.338576274223
8.600800000000001 0.0254886323992 -0.379952111828 0.9996718490245 -79.02632743844 0.9996718490245 -79.02632743844 0.0254895701069 22.337331945525
8.601000000000001 0.0254882577273 -0.382461578549 0.9996718583873 -79.02820438686 0.9996718583873 -79.02820438686 0.0254891955328 22.336088150363
8.601200000000000 0.0254878818184 -0.384971721067 0.9996718677811 -79.03008140681 0.9996718677811 -79.03008140681 0.0254888197219 22.334844890068
8.601400000000000 0.0254875046684 -0.387482541603 0.9996718772061 -79.03195849852 0.9996718772061 -79.03195849852 0.0254884426701 22.333602166550
8.601600000000001 0.0254871262740 -0.389994042283 0.9996718866624 -79.03383566219 0.9996718866624 -79.03383566219 0.0254880643741 22.332359981205
8.601800000000001 0.0254867466325 -0.392506224617 0.9996718961501 -79.03571289798 0.9996718961501 -79.03571289798 0.0254876848311 22.331118335307
8.602000000000000 0.0254863657391 -0.395019091144 0.9996719056692 -79.03759020617 0.9996719056692 -79.03759020617 0.0254873040366 22.329877230983
8.602200000000000 0.0254859835921 -0.397532642979 0.9996719152198 -79.03946758685 0.9996719152198 -79.03946758685 0.0254869219886 22.328636669104
8.602400000000001 0.0254856001861 -0.400046883208 0.9996719248020 -79.04134504034 0.9996719248020 -79.04134504034 0.0254865386818 22.327396651987
8.602600000000001 0.0254852155193 -0.402561812804 0.9996719344159 -79.04322256676 0.9996719344159 -79.04322256676 0.0254861541144 22.326157180556
8.602800000000000 0.0254848295874 -0.405077434253 0.9996719440617 -79.04510016635 0.9996719440617 -79.04510016635 0.0254857682822 22.324918256729
8.603000000000000 0.0254844423874 -0.407593749312 0.9996719537392 -79.04697783929 0.9996719537392 -79.04697783929 0.0254853811819 22.323679881884
8.603200000000001 0.0254840539151 -0.410110760281 0.9996719634488 -79.04885558583 0.9996719634488 -79.04885558583 0.0254849928096 22.322442057890
8.603400000000001 0.0254836641673 -0.412628468842 0.9996719731903 -79.05073340614 0.9996719731903 -79.05073340614 0.0254846031622 22.321204786310
8.603600000000000 0.0254832731408 -0.415146877105 0.9996719829640 -79.05261130044 0.9996719829640 -79.05261130044 0.0254842122361 22.319968068515
8.603800000000000 0.0254828808313 -0.417665987487 0.9996719927699 -79.05448926895 0.9996719927699 -79.05448926895 0.0254838200273 22.318731906359
8.604000000000001 0.0254824872360 -0.420185801398 0.9996720026081 -79.05636731186 0.9996720026081 -79.05636731186 0.0254834265329 22.317496301386
8.604200000000001 0.0254820923515 -0.422706320951 0.9996720124787 -79.05824542935 0.9996720124787 -79.05824542935 0.0254830317495 22.316261254904
8.604400000000000 0.0254816961728 -0.425227548918 0.9996720223818 -79.06012362172 0.9996720223818 -79.06012362172 0.0254826356721 22.315026769253
8.604600000000001 0.0254812986983 -0.427749486185 0.9996720323174 -79.06200188908 0.9996720323174 -79.06200188908 0.0254822382991 22.313792845305
8.604800000000001 0.0254808999224 -0.430272136069 0.9996720422858 -79.06388023173 0.9996720422858 -79.06388023173 0.0254818396249 22.312559485299
8.605000000000000 0.0254804998431 -0.432795499657 0.9996720522868 -79.06575864981 0.9996720522868 -79.06575864981 0.0254814396475 22.311326690421
8.605200000000000 0.0254800984555 -0.435319579544 0.9996720623207 -79.06763714359 0.9996720623207 -79.06763714359 0.0254810383622 22.310094462807
8.605400000000001 0.0254796957571 -0.437844377508 0.9996720723875 -79.06951571324 0.9996720723875 -79.06951571324 0.0254806357661 22.308862803659
8.605600000000001 0.0254792917428 -0.440369896236 0.9996720824873 -79.07139435904 0.9996720824873 -79.07139435904 0.0254802318544 22.307631715083
8.605800000000000 0.0254788864107 -0.442896136819 0.9996720926203 -79.07327308111 0.9996720926203 -79.07327308111 0.0254798266252 22.306401198238
8.606000000000000 0.0254784797551 -0.445423102590 0.9996721027864 -79.07515187979 0.9996721027864 -79.07515187979 0.0254794200726 22.305171255499
8.606200000000001 0.0254780717737 -0.447950794840 0.9996721129859 -79.07703075520 0.9996721129858 -79.07703075520 0.0254790121944 22.303941888013
8.606400000000001 0.0254776624625 -0.450479215834 0.9996721232187 -79.07890970758 0.9996721232187 -79.07890970758 0.0254786029867 22.302713097609
8.606600000000000 0.0254772518176 -0.453008367853 0.9996721334850 -79.08078873717 0.9996721334850 -79.08078873717 0.0254781924455 22.301484885986
8.606800000000000 0.0254768398350 -0.455538253024 0.9996721437848 -79.08266784419 0.9996721437848 -79.08266784419 0.0254777805668 22.300257255093
8.607000000000001 0.0254764265113 -0.458068873466 0.9996721541183 -79.08454702885 0.9996721541183 -79.08454702885 0.0254773673472 22.299030206402
8.607200000000001 0.0254760118425 -0.460600231389 0.9996721644856 -79.08642629138 0.9996721644856 -79.08642629138 0.0254769527828 22.297803741665
8.607400000000000 0.0254755958251 -0.463132328811 0.9996721748868 -79.08830563199 0.9996721748868 -79.08830563199 0.0254765368700 22.296577862643
8.607600000000000 0.0254751784550 -0.465665168047 0.9996721853218 -79.09018505092 0.9996721853218 -79.09018505092 0.0254761196047 22.295352571117
8.607800000000001 0.0254747597284 -0.468198751353 0.9996721957910 -79.09206454838 0.9996721957909 -79.09206454838 0.0254757009831 22.294127868739
8.608000000000001 0.0254743396410 -0.470733081012 0.9996722062942 -79.09394412464 0.9996722062942 -79.09394412464 0.0254752810011 22.292903757574
8.608200000000000 0.0254739181899 -0.473268158889 0.9996722168317 -79.09582377987 0.9996722168317 -79.09582377987 0.0254748596554 22.291680238944
8.608400000000001 0.0254734953706 -0.475803987391 0.9996722274035 -79.09770351432 0.9996722274035 -79.09770351432 0.0254744369418 22.290457314933
8.608600000000001 0.0254730711794 -0.478340568808 0.9996722380097 -79.09958332822 0.9996722380097 -79.09958332822 0.0254740128566 22.289234987072
8.608800000000000 0.0254726456119 -0.480877905442 0.9996722486504 -79.10146322182 0.9996722486504 -79.10146322182 0.0254735873953 22.288013257550
8.609000000000000 0.0254722186647 -0.483415999358 0.9996722593258 -79.10334319533 0.9996722593258 -79.10334319533 0.0254731605545 22.286792127812
8.609200000000001 0.0254717903339 -0.485954852882 0.9996722700359 -79.10522324897 0.9996722700359 -79.10522324897 0.0254727323303 22.285571599656
8.609400000000001 0.0254713606149 -0.488494468511 0.9996722807808 -79.10710338302 0.9996722807808 -79.10710338302 0.0254723027181 22.284351675143
8.609600000000000 0.0254709295047 -0.491034847856 0.9996722915605 -79.10898359764 0.9996722915605 -79.10898359764 0.0254718717151 22.283132355860
8.609800000000000 0.0254704969981 -0.493575994087 0.9996723023753 -79.11086389314 0.9996723023753 -79.11086389314 0.0254714393159 22.281913643867
8.610000000000001 0.0254700630922 -0.496117908796 0.9996723132252 -79.11274426971 0.9996723132252 -79.11274426971 0.0254710055175 22.280695540773
8.610200000000001 0.0254696277827 -0.498660594526 0.9996723241103 -79.11462472758 0.9996723241103 -79.11462472758 0.0254705703158 22.279478048253
8.610400000000000 0.0254691910652 -0.501204053641 0.9996723350307 -79.11650526701 0.9996723350307 -79.11650526701 0.0254701337063 22.278261168628
8.610600000000000 0.0254687529357 -0.503748288534 0.9996723459865 -79.11838588825 0.9996723459865 -79.11838588825 0.0254696956851 22.277044903481
8.610800000000001 0.0254683133901 -0.506293301472 0.9996723569778 -79.12026659153 0.9996723569778 -79.12026659153 0.0254692562481 22.275829254754
8.611000000000001 0.0254678724248 -0.508839094568 0.9996723680047 -79.12214737706 0.9996723680047 -79.12214737706 0.0254688153916 22.274614224179
8.611200000000000 0.0254674300349 -0.511385670744 0.9996723790674 -79.12402824513 0.9996723790674 -79.12402824513 0.0254683731106 22.273399813892
8.611400000000000 0.0254669862171 -0.513933031716 0.9996723901658 -79.12590919594 0.9996723901658 -79.12590919594 0.0254679294020 22.272186025441
8.611600000000001 0.0254665409670 -0.516481179969 0.9996724013001 -79.12779022974 0.9996724013001 -79.12779022974 0.0254674842614 22.270972860888
8.611800000000001 0.0254660942800 -0.519030118384 0.9996724124705 -79.12967134681 0.9996724124705 -79.12967134681 0.0254670376841 22.269760322183
8.612000000000000 0.0254656461521 -0.521579848963 0.9996724236769 -79.13155254737 0.9996724236769 -79.13155254737 0.0254665896662 22.268548411347
8.612200000000001 0.0254651965791 -0.524130374201 0.9996724349196 -79.13343383168 0.9996724349196 -79.13343383168 0.0254661402034 22.267337130230
8.612400000000001 0.0254647455570 -0.526681696586 0.9996724461986 -79.13531519997 0.9996724461986 -79.13531519997 0.0254656892917 22.266126480574
8.612600000000000 0.0254642930819 -0.529233818102 0.9996724575140 -79.13719665246 0.9996724575140 -79.13719665246 0.0254652369274 22.264916464264
8.612800000000000 0.0254638391487 -0.531786741800 0.9996724688660 -79.13907818947 0.9996724688660 -79.13907818947 0.0254647831051 22.263707083630
8.613000000000001 0.0254633837542 -0.534340469503 0.9996724802545 -79.14095981117 0.9996724802545 -79.14095981117 0.0254643278218 22.262498340104
8.613200000000001 0.0254629268929 -0.536895004379 0.9996724916799 -79.14284151790 0.9996724916799 -79.14284151790 0.0254638710719 22.261290236185
8.613400000000000 0.0254624685610 -0.539450348557 0.9996725031421 -79.14472330987 0.9996725031421 -79.14472330987 0.0254634128517 22.260082773594
8.613600000000000 0.0254620087547 -0.542006504166 0.9996725146412 -79.14660518730 0.9996725146412 -79.14660518730 0.0254629531573 22.258875954222
8.613800000000001 0.0254615474691 -0.544563474094 0.9996725261773 -79.14848715049 0.9996725261773 -79.14848715049 0.0254624919839 22.257669780203
8.614000000000001 0.0254610847002 -0.547121260642 0.9996725377507 -79.15036919966 0.9996725377507 -79.15036919966 0.0254620293274 22.256464253312
8.614200000000000 0.0254606204433 -0.549679866566 0.9996725493613 -79.15225133511 0.9996725493613 -79.15225133511 0.0254615651832 22.255259375753
8.614400000000000 0.0254601546937 -0.552239294310 0.9996725610093 -79.15413355709 0.9996725610093 -79.15413355709 0.0254610995466 22.254055149762
8.614600000000001 0.0254596874475 -0.554799546400 0.9996725726948 -79.15601586584 0.9996725726948 -79.15601586584 0.0254606324135 22.252851576999
8.614800000000001 0.0254592187007 -0.557360625039 0.9996725844179 -79.15789826160 0.9996725844179 -79.15789826160 0.0254601637802 22.251648659342
8.615000000000000 0.0254587484476 -0.559922533334 0.9996725961787 -79.15978074469 0.9996725961787 -79.15978074469 0.0254596936409 22.250446399389
8.615200000000000 0.0254582766855 -0.562485273071 0.9996726079773 -79.16166331529 0.9996726079773 -79.16166331529 0.0254592219927 22.249244798499
8.615400000000001 0.0254578034082 -0.565048847719 0.9996726198138 -79.16354597375 0.9996726198138 -79.16354597375 0.0254587488297 22.248043859322
8.615600000000001 0.0254573286120 -0.567613259442 0.9996726316884 -79.16542872030 0.9996726316884 -79.16542872030 0.0254582741478 22.246843583710
8.615800000000000 0.0254568522923 -0.570178510684 0.9996726436011 -79.16731155518 0.9996726436011 -79.16731155518 0.0254577979430 22.245643973678
8.616000000000000 0.0254563744447 -0.572744604210 0.9996726555521 -79.16919447869 0.9996726555521 -79.16919447869 0.0254573202103 22.244445031374
8.616200000000001 0.0254558950641 -0.575311542813 0.9996726675415 -79.17107749109 0.9996726675415 -79.17107749109 0.0254568409450 22.243246758941
8.616400000000001 0.0254554141473 -0.577879328429 0.9996726795693 -79.17296059260 0.9996726795693 -79.17296059260 0.0254563601437 22.242049157972
8.616600000000000 0.0254549316875 -0.580447964810 0.9996726916358 -79.17484378360 0.9996726916358 -79.17484378360 0.0254558777997 22.240852231636
8.616800000000001 0.0254544476821 -0.583017453540 0.9996727037409 -79.17672706425 0.9996727037409 -79.17672706425 0.0254553939104 22.239655981023
8.617000000000001 0.0254539621255 -0.585587797903 0.9996727158849 -79.17861043487 0.9996727158849 -79.17861043487 0.0254549084702 22.238460408709
8.617200000000000 0.0254534750134 -0.588159000439 0.9996727280678 -79.18049389573 0.9996727280678 -79.18049389573 0.0254544214745 22.237265516682
8.617400000000000 0.0254529863408 -0.590731063805 0.9996727402898 -79.18237744711 0.9996727402898 -79.18237744711 0.0254539329188 22.236071307195
8.617600000000001 0.0254524961033 -0.593303990459 0.9996727525509 -79.18426108928 0.9996727525509 -79.18426108928 0.0254534427985 22.234877782518
8.617800000000001 0.0254520042958 -0.595877783612 0.9996727648513 -79.18614482252 0.9996727648513 -79.18614482252 0.0254529511083 22.233684944677
8.618000000000000 0.0254515109137 -0.598452445801 0.9996727771912 -79.18802864712 0.9996727771912 -79.18802864712 0.0254524578439 22.232492795829
8.618200000000000 0.0254510159531 -0.601027979175 0.9996727895705 -79.18991256330 0.9996727895705 -79.18991256330 0.0254519630012 22.231301338080
8.618400000000001 0.0254505194080 -0.603604387159 0.9996728019894 -79.19179657141 0.9996728019894 -79.19179657141 0.0254514665744 22.230110573854
8.618600000000001 0.0254500212737 -0.606181672752 0.9996728144482 -79.19368067174 0.9996728144482 -79.19368067174 0.0254509685586 22.228920505309
8.618800000000000 0.0254495215465 -0.608759837822 0.9996728269467 -79.19556486449 0.9996728269467 -79.19556486449 0.0254504689501 22.227731134357
8.619000000000000 0.0254490202204 -0.611338885781 0.9996728394853 -79.19744915002 0.9996728394853 -79.19744915002 0.0254499677431 22.226542463629
8.619200000000001 0.0254485172913 -0.613918819233 0.9996728520640 -79.19933352857 0.9996728520640 -79.19933352857 0.0254494649332 22.225354495016
8.619400000000001 0.0254480127544 -0.616499640692 0.9996728646829 -79.20121800042 0.9996728646829 -79.20121800042 0.0254489605160 22.224167230754
8.619600000000000 0.0254475066044 -0.619081353303 0.9996728773421 -79.20310256589 0.9996728773421 -79.20310256589 0.0254484544859 22.222980673299
8.619800000000000 0.0254469988359 -0.621663960283 0.9996728900419 -79.20498722529 0.9996728900419 -79.20498722529 0.0254479468375 22.221794825012
8.620000000000001 0.0254464894441 -0.624247464182 0.9996729027822 -79.20687197890 0.9996729027822 -79.20687197890 0.0254474375661 22.220609688230
8.620200000000001 0.0254459784250 -0.626831867506 0.9996729155633 -79.20875682696 0.9996729155633 -79.20875682696 0.0254469266678 22.219425264636
8.620400000000000 0.0254454657735 -0.629417173011 0.9996729283851 -79.21064176977 0.9996729283851 -79.21064176977 0.0254464141372 22.218241556895
8.620600000000001 0.0254449514834 -0.632003384376 0.9996729412479 -79.21252680769 0.9996729412479 -79.21252680769 0.0254458999684 22.217058567551
8.620800000000001 0.0254444355509 -0.634590503674 0.9996729541518 -79.21441194094 0.9996729541518 -79.21441194094 0.0254453841575 22.215876298514
8.621000000000000 0.0254439179703 -0.637178534320 0.9996729670969 -79.21629716987 0.9996729670969 -79.21629716987 0.0254448666987 22.214694752384
8.621200000000000 0.0254433987371 -0.639767478921 0.9996729800833 -79.21818249473 0.9996729800833 -79.21818249473 0.0254443475877 22.213513931083
8.621400000000001 0.0254428778457 -0.642357340515 0.9996729931112 -79.22006791585 0.9996729931112 -79.22006791585 0.0254438268187 22.212333837488
8.621600000000001 0.0254423552909 -0.644948122383 0.9996730061806 -79.22195343355 0.9996730061806 -79.22195343355 0.0254433043866 22.211154473683
8.621800000000000 0.0254418310674 -0.647539827249 0.9996730192918 -79.22383904812 0.9996730192918 -79.22383904812 0.0254427802862 22.209975842260
8.622000000000000 0.0254413051714 -0.650132457555 0.9996730324448 -79.22572475979 0.9996730324448 -79.22572475979 0.0254422545135 22.208797944988
8.622200000000001 0.0254407775962 -0.652726017011 0.9996730456397 -79.22761056897 0.9996730456397 -79.22761056897 0.0254417270619 22.207620784939
8.622400000000001 0.0254402483376 -0.655320508108 0.9996730588767 -79.22949647588 0.9996730588767 -79.22949647588 0.0254411979272 22.206444364075
8.622600000000000 0.0254397173896 -0.657915934448 0.9996730721560 -79.23138248090 0.9996730721560 -79.23138248090 0.0254406671033 22.205268684998
8.622800000000000 0.0254391847475 -0.660512298360 0.9996730854775 -79.23326858428 0.9996730854775 -79.23326858428 0.0254401345857 22.204093750130
8.623000000000001 0.0254386504055 -0.663109603601 0.9996730988416 -79.23515478639 0.9996730988416 -79.23515478639 0.0254396003684 22.202919561877
8.623200000000001 0.0254381143593 -0.665707852263 0.9996731122481 -79.23704108745 0.9996731122481 -79.23704108745 0.0254390644474 22.201746122568
8.623400000000000 0.0254375766024 -0.668307048412 0.9996731256975 -79.23892748786 0.9996731256975 -79.23892748786 0.0254385268158 22.200573434845
8.623600000000000 0.0254370371306 -0.670907194336 0.9996731391897 -79.24081398787 0.9996731391897 -79.24081398787 0.0254379874698 22.199401500788
8.623800000000001 0.0254364959373 -0.673508293903 0.9996731527249 -79.24270058786 0.9996731527249 -79.24270058786 0.0254374464024 22.198230323407
8.624000000000001 0.0254359530182 -0.676110349516 0.9996731663033 -79.24458728808 0.9996731663033 -79.24458728808 0.0254369036096 22.197059904772
8.624200000000000 0.0254354083675 -0.678713364464 0.9996731799248 -79.24647408889 0.9996731799248 -79.24647408889 0.0254363590855 22.195890247641
8.624400000000001 0.0254348619795 -0.681317342125 0.9996731935898 -79.24836099059 0.9996731935898 -79.24836099059 0.0254358128244 22.194721354422
8.624600000000001 0.0254343138486 -0.683922285856 0.9996732072983 -79.25024799355 0.9996732072983 -79.25024799355 0.0254352648207 22.193553227741
8.624800000000000 0.0254337639708 -0.686528197844 0.9996732210504 -79.25213509797 0.9996732210504 -79.25213509797 0.0254347150704 22.192385869538
8.625000000000000 0.0254332123384 -0.689135082370 0.9996732348464 -79.25402230432 0.9996732348464 -79.25402230432 0.0254341635659 22.191219283336
8.625200000000001 0.0254326589481 -0.691742941692 0.9996732486863 -79.25590961280 0.9996732486863 -79.25590961280 0.0254336103037 22.190053470598
8.625400000000001 0.0254321037931 -0.694351779324 0.9996732625701 -79.25779702379 0.9996732625701 -79.25779702379 0.0254330552771 22.188888434716
8.625600000000000 0.0254315468673 -0.696961599076 0.9996732764982 -79.25968453766 0.9996732764982 -79.25968453766 0.0254324984802 22.187724178123
8.625800000000000 0.0254309881661 -0.699572403591 0.9996732904707 -79.26157215468 0.9996732904707 -79.26157215468 0.0254319399080 22.186560703214
8.626000000000001 0.0254304276834 -0.702184196323 0.9996733044876 -79.26345987521 0.9996733044876 -79.26345987521 0.0254313795547 22.185398012682
8.626200000000001 0.0254298654140 -0.704796980167 0.9996733185491 -79.26534769955 0.9996733185491 -79.26534769955 0.0254308174150 22.184236109136
8.626400000000000 0.0254293013519 -0.707410758687 0.9996733326554 -79.26723562806 0.9996733326554 -79.26723562806 0.0254302534830 22.183074995127
