! Sonnet Data File
! From: emgraph Version : 16.52
! From Project: 171117_Xmon_fullysym
! Data is De-embedded 
! Data File Written: 11/26/2017 17:14:23
!< HDATE 11/22/2017 16:48:52
!< MDATE 11/23/2017 10:16:42
!< PARAMS
!< Lj = 11.0
!< Gap = 1.0
!< Pwid = 2000.0
!< Airgap = 6.0
!< Width = 10.0
!< Lj1 = 10.5
!< END PARAMS
# GHZ S MA R 50.90000
8.680000000000000 0.0250454258276 -1.525260366091 0.9996829142620 -79.78675566748 0.9996829142605 -79.78675566736 0.0250464400795 21.962444684281
!< P1 F=8.68 Eeff=(6.44843488 -2.9797e-5) Z0=(50.9086135 1.17022e-4) R=0.0 C=0.0 
!< P2 F=8.68 Eeff=(6.44843488 -2.9797e-5) Z0=(50.9086135 1.17022e-4) R=0.0 C=0.0 
8.680100000000001 0.0250446755920 -1.526829782956 0.9996829326442 -79.78772697778 0.9996829326442 -79.78772697778 0.0250456899869 21.962072643544
8.680200000000001 0.0250439241222 -1.528399914761 0.9996829510560 -79.78869836037 0.9996829510560 -79.78869836037 0.0250449386622 21.961701184242
8.680300000000001 0.0250431714124 -1.529970770839 0.9996829694978 -79.78966981553 0.9996829694978 -79.78966981553 0.0250441860978 21.961330308548
8.680400000000001 0.0250424174594 -1.531542353797 0.9996829879702 -79.79064134343 0.9996829879702 -79.79064134343 0.0250434322905 21.960960017218
8.680500000000000 0.0250416622601 -1.533114665302 0.9996830064730 -79.79161294427 0.9996830064730 -79.79161294427 0.0250426772371 21.960590312247
8.680600000000000 0.0250409058115 -1.534687706780 0.9996830250062 -79.79258461822 0.9996830250062 -79.79258461822 0.0250419209350 21.960221195286
8.680700000000000 0.0250401481119 -1.536261480052 0.9996830435701 -79.79355636537 0.9996830435701 -79.79355636537 0.0250411633821 21.959852666669
8.680800000000001 0.0250393891581 -1.537835986545 0.9996830621645 -79.79452818594 0.9996830621645 -79.79452818594 0.0250404045753 21.959484728688
8.680900000000001 0.0250386289469 -1.539411228276 0.9996830807896 -79.79550008008 0.9996830807896 -79.79550008008 0.0250396445115 21.959117382515
8.681000000000001 0.0250378674769 -1.540987206212 0.9996830994454 -79.79647204789 0.9996830994454 -79.79647204789 0.0250388831893 21.958750629163
8.681100000000001 0.0250371047450 -1.542563922492 0.9996831181320 -79.79744408956 0.9996831181320 -79.79744408956 0.0250381206054 21.958384469925
8.681200000000000 0.0250363407464 -1.544141379811 0.9996831368495 -79.79841620536 0.9996831368495 -79.79841620536 0.0250373567552 21.958018907250
8.681300000000000 0.0250355754805 -1.545719578569 0.9996831555980 -79.79938839533 0.9996831555980 -79.79938839533 0.0250365916381 21.957653941585
8.681400000000000 0.0250348089438 -1.547298521369 0.9996831743775 -79.80036065968 0.9996831743775 -79.80036065968 0.0250358252503 21.957289574470
8.681500000000000 0.0250340411319 -1.548878210121 0.9996831931881 -79.80133299866 0.9996831931881 -79.80133299866 0.0250350575880 21.956925808303
8.681600000000001 0.0250332720453 -1.550458645085 0.9996832120297 -79.80230541225 0.9996832120297 -79.80230541225 0.0250342886511 21.956562643041
8.681700000000001 0.0250325016781 -1.552039830005 0.9996832309027 -79.80327790080 0.9996832309027 -79.80327790080 0.0250335184339 21.956200081171
8.681800000000001 0.0250317300302 -1.553621764744 0.9996832498069 -79.80425046430 0.9996832498069 -79.80425046430 0.0250327469365 21.955838123122
8.681900000000001 0.0250309570956 -1.555204452702 0.9996832687423 -79.80522310311 0.9996832687423 -79.80522310311 0.0250319741527 21.955476771921
8.682000000000000 0.0250301828729 -1.556787895539 0.9996832877094 -79.80619581733 0.9996832877094 -79.80619581733 0.0250312000811 21.955116027703
8.682100000000000 0.0250294073600 -1.558372093407 0.9996833067076 -79.80716860705 0.9996833067076 -79.80716860705 0.0250304247198 21.954755892671
8.682200000000000 0.0250286305535 -1.559957049500 0.9996833257375 -79.80814147250 0.9996833257375 -79.80814147250 0.0250296480651 21.954396367600
8.682300000000000 0.0250278524504 -1.561542765340 0.9996833447991 -79.80911441385 0.9996833447991 -79.80911441385 0.0250288701142 21.954037454257
8.682400000000001 0.0250270730477 -1.563129242630 0.9996833638923 -79.81008743127 0.9996833638923 -79.81008743127 0.0250280908640 21.953679154223
8.682500000000001 0.0250262923422 -1.564716483439 0.9996833830172 -79.81106052495 0.9996833830172 -79.81106052495 0.0250273103114 21.953321469033
8.682600000000001 0.0250255103317 -1.566304489035 0.9996834021739 -79.81203369501 0.9996834021739 -79.81203369501 0.0250265284542 21.952964400016
8.682700000000001 0.0250247270132 -1.567893261650 0.9996834213625 -79.81300694165 0.9996834213625 -79.81300694165 0.0250257452893 21.952607948343
8.682800000000000 0.0250239423825 -1.569482803507 0.9996834405831 -79.81398026510 0.9996834405831 -79.81398026510 0.0250249608125 21.952252116384
8.682900000000000 0.0250231564397 -1.571073114759 0.9996834598356 -79.81495366537 0.9996834598356 -79.81495366537 0.0250241750241 21.951896904157
8.683000000000000 0.0250223691782 -1.572664199619 0.9996834791204 -79.81592714283 0.9996834791204 -79.81592714283 0.0250233879171 21.951542314635
8.683100000000001 0.0250215805965 -1.574256058455 0.9996834984372 -79.81690069758 0.9996834984372 -79.81690069758 0.0250225994904 21.951188349043
8.683200000000001 0.0250207906926 -1.575848693073 0.9996835177862 -79.81787432972 0.9996835177862 -79.81787432972 0.0250218097420 21.950835008132
8.683300000000001 0.0250199994617 -1.577442106277 0.9996835371676 -79.81884803956 0.9996835371676 -79.81884803956 0.0250210186668 21.950482294302
8.683400000000001 0.0250192069015 -1.579036299454 0.9996835565813 -79.81982182722 0.9996835565813 -79.81982182722 0.0250202262627 21.950130208789
8.683500000000000 0.0250184130093 -1.580631274382 0.9996835760275 -79.82079569286 0.9996835760275 -79.82079569286 0.0250194325269 21.949778752917
8.683600000000000 0.0250176177843 -1.582227031541 0.9996835955060 -79.82176963653 0.9996835955060 -79.82176963653 0.0250186374587 21.949427927507
8.683700000000000 0.0250168212181 -1.583823575978 0.9996836150173 -79.82274365872 0.9996836150173 -79.82274365872 0.0250178410497 21.949077736114
8.683800000000000 0.0250160233125 -1.585420906888 0.9996836345611 -79.82371775933 0.9996836345611 -79.82371775933 0.0250170433016 21.948728178227
8.683900000000001 0.0250152240619 -1.587019027223 0.9996836541376 -79.82469193869 0.9996836541376 -79.82469193869 0.0250162442089 21.948379256851
8.684000000000001 0.0250144234658 -1.588617937954 0.9996836737469 -79.82566619682 0.9996836737469 -79.82566619682 0.0250154437711 21.948030972022
8.684100000000001 0.0250136215174 -1.590217643144 0.9996836933892 -79.82664053413 0.9996836933892 -79.82664053413 0.0250146419813 21.947683326850
8.684200000000001 0.0250128182174 -1.591818141924 0.9996837130643 -79.82761495057 0.9996837130643 -79.82761495057 0.0250138388403 21.947336321771
8.684300000000000 0.0250120135595 -1.593419438669 0.9996837327724 -79.82858944653 0.9996837327724 -79.82858944653 0.0250130343418 21.946989959297
8.684400000000000 0.0250112075431 -1.595021533647 0.9996837525136 -79.82956402202 0.9996837525136 -79.82956402202 0.0250122284851 21.946644240007
8.684500000000000 0.0250104001630 -1.596624429780 0.9996837722879 -79.83053867736 0.9996837722879 -79.83053867736 0.0250114212651 21.946299166633
8.684600000000000 0.0250095914177 -1.598228128453 0.9996837920954 -79.83151341264 0.9996837920954 -79.83151341264 0.0250106126803 21.945954739814
8.684700000000001 0.0250087813037 -1.599832631633 0.9996838119362 -79.83248822806 0.9996838119362 -79.83248822806 0.0250098027272 21.945610961303
8.684800000000001 0.0250079698171 -1.601437942006 0.9996838318105 -79.83346312386 0.9996838318105 -79.83346312386 0.0250089914018 21.945267832985
8.684900000000001 0.0250071569559 -1.603044060484 0.9996838517181 -79.83443810015 0.9996838517181 -79.83443810015 0.0250081787022 21.944925356171
8.685000000000000 0.0250063427159 -1.604650989764 0.9996838716593 -79.83541315717 0.9996838716593 -79.83541315717 0.0250073646242 21.944583532692
8.685100000000000 0.0250055270947 -1.606258731367 0.9996838916340 -79.83638829508 0.9996838916340 -79.83638829508 0.0250065491653 21.944242364111
8.685200000000000 0.0250047100883 -1.607867287580 0.9996839116423 -79.83736351409 0.9996839116423 -79.83736351409 0.0250057323217 21.943901852314
8.685300000000000 0.0250038916960 -1.609476659519 0.9996839316844 -79.83833881427 0.9996839316844 -79.83833881427 0.0250049140925 21.943561997442
8.685400000000001 0.0250030719103 -1.611086851205 0.9996839517603 -79.83931419604 0.9996839517603 -79.83931419604 0.0250040944703 21.943222803476
8.685500000000001 0.0250022507309 -1.612697863159 0.9996839718702 -79.84028965944 0.9996839718702 -79.84028965944 0.0250032734547 21.942884270469
8.685600000000001 0.0250014281547 -1.614309696698 0.9996839920137 -79.84126520462 0.9996839920138 -79.84126520462 0.0250024510428 21.942546400569
8.685700000000001 0.0250006041779 -1.615922355052 0.9996840121915 -79.84224083183 0.9996840121915 -79.84224083183 0.0250016272307 21.942209195055
8.685800000000000 0.0249997787971 -1.617535840108 0.9996840324034 -79.84321654126 0.9996840324034 -79.84321654126 0.0250008020149 21.941872655619
8.685900000000000 0.0249989520083 -1.619150153991 0.9996840526494 -79.84419233316 0.9996840526494 -79.84419233316 0.0249999753915 21.941536784724
8.686000000000000 0.0249981238100 -1.620765297996 0.9996840729297 -79.84516820759 0.9996840729297 -79.84516820759 0.0249991473590 21.941201582936
8.686100000000000 0.0249972941976 -1.622381274802 0.9996840932443 -79.84614416485 0.9996840932443 -79.84614416485 0.0249983179127 21.940867052654
8.686200000000001 0.0249964631681 -1.623998086411 0.9996841135934 -79.84712020510 0.9996841135934 -79.84712020510 0.0249974870498 21.940533195230
8.686300000000001 0.0249956307177 -1.625615735091 0.9996841339769 -79.84809632857 0.9996841339769 -79.84809632857 0.0249966547664 21.940200012773
8.686400000000001 0.0249947968455 -1.627234221538 0.9996841543950 -79.84907253530 0.9996841543950 -79.84907253530 0.0249958210615 21.939867505779
8.686500000000001 0.0249939615437 -1.628853550088 0.9996841748476 -79.85004882577 0.9996841748476 -79.85004882577 0.0249949859275 21.939535678257
8.686600000000000 0.0249931248138 -1.630473720837 0.9996841953350 -79.85102519989 0.9996841953350 -79.85102519989 0.0249941493657 21.939204529183
8.686700000000000 0.0249922866500 -1.632094736586 0.9996842158572 -79.85200165798 0.9996842158572 -79.85200165798 0.0249933113704 21.938874061737
8.686800000000000 0.0249914470482 -1.633716599801 0.9996842364142 -79.85297820030 0.9996842364142 -79.85297820030 0.0249924719376 21.938544278206
8.686900000000001 0.0249906060072 -1.635339312201 0.9996842570063 -79.85395482692 0.9996842570063 -79.85395482692 0.0249916310659 21.938215178464
8.687000000000001 0.0249897635228 -1.636962875467 0.9996842776333 -79.85493153808 0.9996842776333 -79.85493153808 0.0249907887512 21.937886765464
8.687100000000001 0.0249889195903 -1.638587293023 0.9996842982955 -79.85590833407 0.9996842982955 -79.85590833407 0.0249899449888 21.937559041014
8.687200000000001 0.0249880742078 -1.640212565547 0.9996843189928 -79.85688521498 0.9996843189928 -79.85688521498 0.0249890997768 21.937232006720
8.687300000000000 0.0249872273717 -1.641838695817 0.9996843397253 -79.85786218104 0.9996843397253 -79.85786218104 0.0249882531116 21.936905663851
8.687400000000000 0.0249863790778 -1.643465686291 0.9996843604933 -79.85883923249 0.9996843604933 -79.85883923249 0.0249874049891 21.936580014687
8.687500000000000 0.0249855293241 -1.645093537923 0.9996843812965 -79.85981636945 0.9996843812965 -79.85981636945 0.0249865554072 21.936255060715
8.687600000000000 0.0249846781062 -1.646722254379 0.9996844021354 -79.86079359219 0.9996844021354 -79.86079359219 0.0249857043613 21.935930803227
8.687700000000001 0.0249838254201 -1.648351837084 0.9996844230098 -79.86177090092 0.9996844230098 -79.86177090092 0.0249848518478 21.935607245147
8.687800000000001 0.0249829712631 -1.649982288059 0.9996844439198 -79.86274829582 0.9996844439198 -79.86274829582 0.0249839978638 21.935284387602
8.687900000000001 0.0249821156319 -1.651613609892 0.9996844648657 -79.86372577708 0.9996844648657 -79.86372577708 0.0249831424059 21.934962231943
8.688000000000001 0.0249812585235 -1.653245803930 0.9996844858473 -79.86470334487 0.9996844858473 -79.86470334487 0.0249822854713 21.934640780174
8.688100000000000 0.0249803999325 -1.654878873582 0.9996845068649 -79.86568099952 0.9996845068649 -79.86568099952 0.0249814270544 21.934320034900
8.688200000000000 0.0249795398565 -1.656512820398 0.9996845279184 -79.86665874116 0.9996845279184 -79.86665874116 0.0249805671530 21.933999997251
8.688300000000000 0.0249786782915 -1.658147647033 0.9996845490080 -79.86763657003 0.9996845490080 -79.86763657003 0.0249797057630 21.933680669240
8.688400000000000 0.0249778152360 -1.659783354406 0.9996845701337 -79.86861448622 0.9996845701337 -79.86861448622 0.0249788428828 21.933362051960
8.688500000000001 0.0249769506843 -1.661419945953 0.9996845912957 -79.86959249006 0.9996845912957 -79.86959249006 0.0249779785070 21.933044147951
8.688600000000001 0.0249760846337 -1.663057423128 0.9996846124938 -79.87057058172 0.9996846124938 -79.87057058172 0.0249771126327 21.932726959014
8.688700000000001 0.0249752170790 -1.664695789648 0.9996846337285 -79.87154876150 0.9996846337285 -79.87154876150 0.0249762452546 21.932410487325
8.688800000000001 0.0249743480195 -1.666335045880 0.9996846549996 -79.87252702943 0.9996846549996 -79.87252702943 0.0249753763722 21.932094733503
8.688900000000000 0.0249734774491 -1.667975195531 0.9996846763073 -79.87350538589 0.9996846763073 -79.87350538589 0.0249745059793 21.931779700667
8.689000000000000 0.0249726053664 -1.669616239810 0.9996846976517 -79.87448383096 0.9996846976517 -79.87448383096 0.0249736340745 21.931465389302
8.689100000000000 0.0249717317652 -1.671258181836 0.9996847190327 -79.87546236498 0.9996847190327 -79.87546236498 0.0249727606517 21.931151802934
8.689200000000001 0.0249708566442 -1.672901023151 0.9996847404506 -79.87644098806 0.9996847404506 -79.87644098806 0.0249718857094 21.930838942129
8.689300000000001 0.0249699799991 -1.674544766071 0.9996847619053 -79.87741970043 0.9996847619053 -79.87741970043 0.0249710092435 21.930526809175
8.689400000000001 0.0249691018249 -1.676189413950 0.9996847833970 -79.87839850240 0.9996847833970 -79.87839850240 0.0249701312489 21.930215406244
8.689500000000001 0.0249682221200 -1.677834967678 0.9996848049258 -79.87937739405 0.9996848049258 -79.87937739405 0.0249692517241 21.929904734529
8.689600000000000 0.0249673408789 -1.679481430466 0.9996848264917 -79.88035637572 0.9996848264917 -79.88035637572 0.0249683706635 21.929594796993
8.689700000000000 0.0249664581003 -1.681128803967 0.9996848480950 -79.88133544747 0.9996848480950 -79.88133544747 0.0249674880658 21.929285593679
8.689800000000000 0.0249655737778 -1.682777091382 0.9996848697355 -79.88231460969 0.9996848697355 -79.88231460969 0.0249666039246 21.928977128371
8.689900000000000 0.0249646879090 -1.684426294394 0.9996848914134 -79.88329386251 0.9996848914134 -79.88329386251 0.0249657182376 21.928669402192
8.690000000000001 0.0249638004904 -1.686076415294 0.9996849131288 -79.88427320615 0.9996849131288 -79.88427320615 0.0249648310012 21.928362417041
8.690100000000001 0.0249629115174 -1.687727456837 0.9996849348817 -79.88525264087 0.9996849348817 -79.88525264087 0.0249639422108 21.928056175221
8.690200000000001 0.0249620209861 -1.689379421717 0.9996849566724 -79.88623216690 0.9996849566724 -79.88623216690 0.0249630518626 21.927750678442
8.690300000000001 0.0249611288936 -1.691032311394 0.9996849785007 -79.88721178442 0.9996849785007 -79.88721178442 0.0249621599536 21.927445928761
8.690400000000000 0.0249602352358 -1.692686128822 0.9996850003670 -79.88819149366 0.9996850003670 -79.88819149366 0.0249612664798 21.927141927773
8.690500000000000 0.0249593400102 -1.694340875598 0.9996850222712 -79.88917129478 0.9996850222712 -79.88917129478 0.0249603714385 21.926838676958
8.690600000000000 0.0249584432111 -1.695996554899 0.9996850442133 -79.89015118811 0.9996850442133 -79.89015118811 0.0249594748243 21.926536179396
8.690700000000001 0.0249575448347 -1.697653169280 0.9996850661935 -79.89113117386 0.9996850661935 -79.89113117387 0.0249585766332 21.926234436827
8.690800000000001 0.0249566448768 -1.699310721818 0.9996850882122 -79.89211125231 0.9996850882122 -79.89211125231 0.0249576768609 21.925933451107
8.690900000000001 0.0249557433367 -1.700969212222 0.9996851102688 -79.89309142346 0.9996851102688 -79.89309142346 0.0249567755071 21.925633223447
8.691000000000001 0.0249548402081 -1.702628645076 0.9996851323640 -79.89407168772 0.9996851323640 -79.89407168772 0.0249558725651 21.925333756356
8.691100000000000 0.0249539354867 -1.704289022838 0.9996851544976 -79.89505204532 0.9996851544976 -79.89505204532 0.0249549680307 21.925035052274
8.691200000000000 0.0249530291698 -1.705950347093 0.9996851766698 -79.89603249642 0.9996851766698 -79.89603249642 0.0249540619013 21.924737112730
8.691300000000000 0.0249521212527 -1.707612620911 0.9996851988806 -79.89701304131 0.9996851988806 -79.89701304131 0.0249531541722 21.924439939972
8.691400000000000 0.0249512117316 -1.709275846452 0.9996852211300 -79.89799368020 0.9996852211300 -79.89799368020 0.0249522448395 21.924143536226
8.691500000000001 0.0249503006043 -1.710940025871 0.9996852434184 -79.89897441323 0.9996852434184 -79.89897441323 0.0249513339010 21.923847902113
8.691600000000001 0.0249493878629 -1.712605163055 0.9996852657456 -79.89995524086 0.9996852657456 -79.89995524086 0.0249504213491 21.923553042126
8.691700000000001 0.0249484735073 -1.714271258697 0.9996852881118 -79.90093616310 0.9996852881118 -79.90093616310 0.0249495071833 21.923258956313
8.691800000000001 0.0249475575322 -1.715938316249 0.9996853105172 -79.90191718025 0.9996853105172 -79.90191718025 0.0249485913984 21.922965647107
8.691900000000000 0.0249466399331 -1.717606338219 0.9996853329617 -79.90289829260 0.9996853329617 -79.90289829260 0.0249476739900 21.922673117154
8.692000000000000 0.0249457207062 -1.719275326910 0.9996853554455 -79.90387950035 0.9996853554455 -79.90387950035 0.0249467549543 21.922381368303
8.692100000000000 0.0249447998486 -1.720945284676 0.9996853779687 -79.90486080368 0.9996853779687 -79.90486080368 0.0249458342883 21.922090401927
8.692200000000000 0.0249438773553 -1.722616214352 0.9996854005313 -79.90584220288 0.9996854005313 -79.90584220288 0.0249449119871 21.921800220684
8.692300000000001 0.0249429532208 -1.724288119290 0.9996854231336 -79.90682369828 0.9996854231336 -79.90682369828 0.0249439880452 21.921510827355
8.692400000000001 0.0249420274443 -1.725961000388 0.9996854457755 -79.90780528993 0.9996854457755 -79.90780528993 0.0249430624616 21.921222222344
8.692500000000001 0.0249411000194 -1.727634861096 0.9996854684571 -79.90878697820 0.9996854684571 -79.90878697820 0.0249421352303 21.920934409215
8.692600000000001 0.0249401709425 -1.729309704005 0.9996854911786 -79.90976876331 0.9996854911785 -79.90976876331 0.0249412063474 21.920647389583
8.692700000000000 0.0249392402107 -1.730985531103 0.9996855139399 -79.91075064542 0.9996855139399 -79.91075064542 0.0249402758100 21.920361165064
8.692800000000000 0.0249383078176 -1.732662346078 0.9996855367413 -79.91173262491 0.9996855367413 -79.91173262491 0.0249393436118 21.920075738883
8.692900000000000 0.0249373737599 -1.734340151111 0.9996855595829 -79.91271470198 0.9996855595829 -79.91271470198 0.0249384097496 21.919791112752
8.693000000000001 0.0249364380355 -1.736018947935 0.9996855824646 -79.91369687675 0.9996855824646 -79.91369687675 0.0249374742210 21.919507287763
8.693100000000001 0.0249355006380 -1.737698740139 0.9996856053867 -79.91467914960 0.9996856053867 -79.91467914960 0.0249365370198 21.919224267176
8.693200000000001 0.0249345615631 -1.739379530537 0.9996856283493 -79.91566152078 0.9996856283493 -79.91566152078 0.0249355981418 21.918942053196
