! Sonnet Data File
! From: emgraph Version : 16.52
! From Project: 171117_Xmon_fullysym
! Data is De-embedded 
! Data File Written: 11/26/2017 17:14:23
!< HDATE 11/22/2017 16:48:52
!< MDATE 11/23/2017 10:16:42
!< PARAMS
!< Lj = 11.0
!< Gap = 1.0
!< Pwid = 2000.0
!< Airgap = 6.0
!< Width = 10.0
!< Lj1 = 10.2
!< END PARAMS
# GHZ S MA R 50.90000
8.680000000000000 0.0251871074294 -1.459180181713 0.9996793656459 -79.77850643966 0.9996793656444 -79.77850643954 0.0251881135412 21.912755704583
!< P1 F=8.68 Eeff=(6.44843488 -2.9797e-5) Z0=(50.9086135 1.17022e-4) R=0.0 C=0.0 
!< P2 F=8.68 Eeff=(6.44843488 -2.9797e-5) Z0=(50.9086135 1.17022e-4) R=0.0 C=0.0 
8.680100000000001 0.0251864157471 -1.460719977639 0.9996793826518 -79.77947433801 0.9996793826518 -79.77947433801 0.0251874220032 21.912360866701
8.680200000000001 0.0251857228003 -1.462260499794 0.9996793996883 -79.78044231044 0.9996793996883 -79.78044231044 0.0251867292026 21.911966617424
8.680300000000001 0.0251850285824 -1.463801757271 0.9996794167560 -79.78141035724 0.9996794167560 -79.78141035724 0.0251860351313 21.911572959499
8.680400000000001 0.0251843330900 -1.465343752918 0.9996794338551 -79.78237847862 0.9996794338551 -79.78237847862 0.0251853397858 21.911179893741
8.680500000000000 0.0251836363196 -1.466886488492 0.9996794509857 -79.78334667479 0.9996794509857 -79.78334667479 0.0251846431626 21.910787422351
8.680600000000000 0.0251829382679 -1.468429965567 0.9996794681477 -79.78431494593 0.9996794681477 -79.78431494593 0.0251839452586 21.910395546994
8.680700000000000 0.0251822389331 -1.469974186130 0.9996794853414 -79.78528329216 0.9996794853414 -79.78528329216 0.0251832460717 21.910004268134
8.680800000000001 0.0251815383112 -1.471519151839 0.9996795025666 -79.78625171370 0.9996795025666 -79.78625171370 0.0251825455981 21.909613588236
8.680900000000001 0.0251808363994 -1.473064864568 0.9996795198236 -79.78722021073 0.9996795198236 -79.78722021073 0.0251818438351 21.909223508429
8.681000000000001 0.0251801331955 -1.474611325702 0.9996795371123 -79.78818878337 0.9996795371123 -79.78818878337 0.0251811407802 21.908834030001
8.681100000000001 0.0251794286964 -1.476158537349 0.9996795544329 -79.78915743182 0.9996795544329 -79.78915743182 0.0251804364305 21.908445154210
8.681200000000000 0.0251787228965 -1.477706502491 0.9996795717854 -79.79012615638 0.9996795717854 -79.79012615638 0.0251797307805 21.908056883758
8.681300000000000 0.0251780157955 -1.479255221574 0.9996795891699 -79.79109495709 0.9996795891699 -79.79109495709 0.0251790238296 21.907669219074
8.681400000000000 0.0251773073890 -1.480804697477 0.9996796065866 -79.79206383421 0.9996796065866 -79.79206383421 0.0251783155735 21.907282161891
8.681500000000000 0.0251765976728 -1.482354932071 0.9996796240354 -79.79303278797 0.9996796240354 -79.79303278797 0.0251776060082 21.906895714693
8.681600000000001 0.0251758866468 -1.483905925866 0.9996796415163 -79.79400181838 0.9996796415163 -79.79400181838 0.0251768951335 21.906509877548
8.681700000000001 0.0251751743046 -1.485457682808 0.9996796590297 -79.79497092583 0.9996796590297 -79.79497092583 0.0251761829429 21.906124653064
8.681800000000001 0.0251744606462 -1.487010202838 0.9996796765753 -79.79594011031 0.9996796765753 -79.79594011031 0.0251754694365 21.905740041793
8.681900000000001 0.0251737456651 -1.488563489488 0.9996796941534 -79.79690937220 0.9996796941534 -79.79690937220 0.0251747546078 21.905356046852
8.682000000000000 0.0251730293597 -1.490117544537 0.9996797117642 -79.79787871161 0.9996797117642 -79.79787871161 0.0251740384550 21.904972668483
8.682100000000000 0.0251723117272 -1.491672368477 0.9996797294073 -79.79884812868 0.9996797294073 -79.79884812868 0.0251733209757 21.904589909081
8.682200000000000 0.0251715927643 -1.493227964412 0.9996797470832 -79.79981762363 0.9996797470832 -79.79981762363 0.0251726021663 21.904207769387
8.682300000000000 0.0251708724673 -1.494784334276 0.9996797647919 -79.80078719666 0.9996797647919 -79.80078719666 0.0251718820231 21.903826251468
8.682400000000001 0.0251701508332 -1.496341479680 0.9996797825334 -79.80175684795 0.9996797825334 -79.80175684795 0.0251711605432 21.903445356886
8.682500000000001 0.0251694278585 -1.497899402911 0.9996798003078 -79.80272657771 0.9996798003078 -79.80272657771 0.0251704377231 21.903065087297
8.682600000000001 0.0251687035402 -1.499458105513 0.9996798181152 -79.80369638611 0.9996798181152 -79.80369638611 0.0251697135599 21.902685444276
8.682700000000001 0.0251679778756 -1.501017589672 0.9996798359556 -79.80466627332 0.9996798359556 -79.80466627332 0.0251689880506 21.902306428913
8.682800000000000 0.0251672508595 -1.502577858076 0.9996798538292 -79.80563623963 0.9996798538292 -79.80563623963 0.0251682611902 21.901928043904
8.682900000000000 0.0251665224923 -1.504138910702 0.9996798717360 -79.80660628504 0.9996798717360 -79.80660628504 0.0251675329791 21.901550289240
8.683000000000000 0.0251657927664 -1.505700752185 0.9996798896761 -79.80757640997 0.9996798896762 -79.80757640997 0.0251668034097 21.901173168143
8.683100000000001 0.0251650616807 -1.507263382786 0.9996799076496 -79.80854661450 0.9996799076496 -79.80854661450 0.0251660724810 21.900796681742
8.683200000000001 0.0251643292323 -1.508826804740 0.9996799256565 -79.80951689880 0.9996799256564 -79.80951689880 0.0251653401898 21.900420831166
8.683300000000001 0.0251635954163 -1.510391020857 0.9996799436969 -79.81048726316 0.9996799436969 -79.81048726316 0.0251646065315 21.900045618752
8.683400000000001 0.0251628602299 -1.511956032737 0.9996799617710 -79.81145770774 0.9996799617710 -79.81145770774 0.0251638715031 21.899671046004
8.683500000000000 0.0251621236703 -1.513521842267 0.9996799798787 -79.81242823270 0.9996799798787 -79.81242823270 0.0251631351019 21.899297114222
8.683600000000000 0.0251613857360 -1.515088450138 0.9996799980201 -79.81339883814 0.9996799980201 -79.81339883814 0.0251623973265 21.898923824479
8.683700000000000 0.0251606464186 -1.516655861613 0.9996800161955 -79.81436952455 0.9996800161955 -79.81436952455 0.0251616581682 21.898551180372
8.683800000000000 0.0251599057195 -1.518224075890 0.9996800344048 -79.81534029185 0.9996800344048 -79.81534029185 0.0251609176288 21.898179181461
8.683900000000001 0.0251591636326 -1.519793096170 0.9996800526480 -79.81631114038 0.9996800526480 -79.81631114038 0.0251601757019 21.897807831059
8.684000000000001 0.0251584201571 -1.521362923660 0.9996800709252 -79.81728207022 0.9996800709252 -79.81728207022 0.0251594323867 21.897437129227
8.684100000000001 0.0251576752857 -1.522933562598 0.9996800892368 -79.81825308177 0.9996800892368 -79.81825308177 0.0251586876761 21.897067079175
8.684200000000001 0.0251569290191 -1.524505012090 0.9996801075825 -79.81922417501 0.9996801075825 -79.81922417501 0.0251579415708 21.896697681444
8.684300000000000 0.0251561813502 -1.526077276929 0.9996801259626 -79.82019535034 0.9996801259625 -79.82019535034 0.0251571940634 21.896328938836
8.684400000000000 0.0251554322785 -1.527650357379 0.9996801443770 -79.82116660781 0.9996801443770 -79.82116660781 0.0251564451537 21.895960851865
8.684500000000000 0.0251546817983 -1.529224256480 0.9996801628259 -79.82213794773 0.9996801628259 -79.82213794773 0.0251556948359 21.895593423443
8.684600000000000 0.0251539299074 -1.530798976058 0.9996801813094 -79.82310937026 0.9996801813094 -79.82310937026 0.0251549431077 21.895226654459
8.684700000000001 0.0251531766023 -1.532374518017 0.9996801998275 -79.82408087557 0.9996801998275 -79.82408087557 0.0251541899658 21.894860546689
8.684800000000001 0.0251524218784 -1.533950885339 0.9996802183805 -79.82505246396 0.9996802183805 -79.82505246396 0.0251534354055 21.894495102191
8.684900000000001 0.0251516657337 -1.535528079045 0.9996802369681 -79.82602413554 0.9996802369681 -79.82602413554 0.0251526794248 21.894130322365
8.685000000000000 0.0251509081636 -1.537106102034 0.9996802555908 -79.82699589057 0.9996802555908 -79.82699589057 0.0251519220190 21.893766209152
8.685100000000000 0.0251501491651 -1.538684955916 0.9996802742483 -79.82796772925 0.9996802742483 -79.82796772925 0.0251511631853 21.893402764333
8.685200000000000 0.0251493887339 -1.540264643292 0.9996802929409 -79.82893965180 0.9996802929409 -79.82893965180 0.0251504029194 21.893039989882
8.685300000000000 0.0251486268692 -1.541845165309 0.9996803116687 -79.82991165830 0.9996803116687 -79.82991165830 0.0251496412203 21.892677886033
8.685400000000001 0.0251478635624 -1.543426526416 0.9996803304318 -79.83088374923 0.9996803304318 -79.83088374923 0.0251488780795 21.892316457092
8.685500000000001 0.0251470988137 -1.545008726983 0.9996803492302 -79.83185592459 0.9996803492302 -79.83185592459 0.0251481134972 21.891955702955
8.685600000000001 0.0251463326192 -1.546591768676 0.9996803680638 -79.83282818461 0.9996803680638 -79.83282818461 0.0251473474696 21.891595626129
8.685700000000001 0.0251455649744 -1.548175655059 0.9996803869330 -79.83380052956 0.9996803869330 -79.83380052956 0.0251465799921 21.891236228007
8.685800000000000 0.0251447958762 -1.549760387911 0.9996804058379 -79.83477295961 0.9996804058379 -79.83477295961 0.0251458110615 21.890877510352
8.685900000000000 0.0251440253198 -1.551345969637 0.9996804247783 -79.83574547505 0.9996804247783 -79.83574547505 0.0251450406732 21.890519475727
8.686000000000000 0.0251432533033 -1.552932401832 0.9996804437545 -79.83671807600 0.9996804437545 -79.83671807600 0.0251442688251 21.890162124982
8.686100000000000 0.0251424798218 -1.554519687219 0.9996804627665 -79.83769076272 0.9996804627665 -79.83769076272 0.0251434955126 21.889805460480
8.686200000000001 0.0251417048720 -1.556107828043 0.9996804818145 -79.83866353544 0.9996804818145 -79.83866353544 0.0251427207321 21.889449483882
8.686300000000001 0.0251409284495 -1.557696826787 0.9996805008984 -79.83963639439 0.9996805008984 -79.83963639439 0.0251419444794 21.889094197335
8.686400000000001 0.0251401505532 -1.559286684301 0.9996805200185 -79.84060933965 0.9996805200185 -79.84060933965 0.0251411667533 21.888739601460
8.686500000000001 0.0251393711748 -1.560877405081 0.9996805391746 -79.84158237171 0.9996805391746 -79.84158237171 0.0251403875455 21.888385700562
8.686600000000000 0.0251385903153 -1.562468989484 0.9996805583671 -79.84255549051 0.9996805583671 -79.84255549051 0.0251396068570 21.888032493590
8.686700000000000 0.0251378079688 -1.564061440367 0.9996805775959 -79.84352869638 0.9996805775959 -79.84352869638 0.0251388246820 21.887679983920
8.686800000000000 0.0251370241304 -1.565654760619 0.9996805968610 -79.84450198963 0.9996805968610 -79.84450198963 0.0251380410155 21.887328174068
8.686900000000001 0.0251362387988 -1.567248951935 0.9996806161629 -79.84547537033 0.9996806161629 -79.84547537033 0.0251372558562 21.886977063918
8.687000000000001 0.0251354519693 -1.568844016260 0.9996806355013 -79.84644883875 0.9996806355013 -79.84644883875 0.0251364691995 21.886626656696
8.687100000000001 0.0251346636370 -1.570439957141 0.9996806548764 -79.84742239519 0.9996806548764 -79.84742239519 0.0251356810403 21.886276954220
8.687200000000001 0.0251338737991 -1.572036775671 0.9996806742883 -79.84839603981 0.9996806742883 -79.84839603981 0.0251348913760 21.885927958378
8.687300000000000 0.0251330824521 -1.573634474492 0.9996806937370 -79.84936977280 0.9996806937370 -79.84936977280 0.0251341002031 21.885579670482
8.687400000000000 0.0251322895910 -1.575233056638 0.9996807132228 -79.85034359448 0.9996807132228 -79.85034359448 0.0251333075165 21.885232093091
8.687500000000000 0.0251314952137 -1.576832522910 0.9996807327455 -79.85131750496 0.9996807327455 -79.85131750496 0.0251325133142 21.884885227674
8.687600000000000 0.0251306993152 -1.578432877334 0.9996807523055 -79.85229150454 0.9996807523055 -79.85229150454 0.0251317175910 21.884539075778
8.687700000000001 0.0251299018910 -1.580034121659 0.9996807719027 -79.85326559348 0.9996807719027 -79.85326559348 0.0251309203426 21.884193640476
8.687800000000001 0.0251291029382 -1.581636257873 0.9996807915372 -79.85423977195 0.9996807915372 -79.85423977195 0.0251301215660 21.883848923103
8.687900000000001 0.0251283024529 -1.583239288891 0.9996808112092 -79.85521404018 0.9996808112092 -79.85521404018 0.0251293212574 21.883504925017
8.688000000000001 0.0251275004319 -1.584843216183 0.9996808309187 -79.85618839837 0.9996808309187 -79.85618839837 0.0251285194135 21.883161648417
8.688100000000000 0.0251266968690 -1.586448043448 0.9996808506658 -79.85716284686 0.9996808506658 -79.85716284686 0.0251277160281 21.882819096166
8.688200000000000 0.0251258917618 -1.588053772383 0.9996808704506 -79.85813738582 0.9996808704506 -79.85813738582 0.0251269110989 21.882477269493
8.688300000000000 0.0251250851054 -1.589660405935 0.9996808902732 -79.85911201551 0.9996808902732 -79.85911201551 0.0251261046210 21.882136170558
8.688400000000000 0.0251242768981 -1.591267945252 0.9996809101337 -79.86008673606 0.9996809101337 -79.86008673606 0.0251252965925 21.881795800650
8.688500000000001 0.0251234671340 -1.592876393720 0.9996809300322 -79.86106154780 0.9996809300322 -79.86106154780 0.0251244870078 21.881456162364
8.688600000000001 0.0251226558098 -1.594485753111 0.9996809499686 -79.86203645091 0.9996809499686 -79.86203645091 0.0251236758635 21.881117257739
8.688700000000001 0.0251218429197 -1.596096027551 0.9996809699433 -79.86301144576 0.9996809699433 -79.86301144576 0.0251228631536 21.880779089065
8.688800000000001 0.0251210284628 -1.597707217374 0.9996809899562 -79.86398653239 0.9996809899562 -79.86398653239 0.0251220488774 21.880441657167
8.688900000000000 0.0251202124320 -1.599319326804 0.9996810100075 -79.86496171122 0.9996810100075 -79.86496171122 0.0251212330278 21.880104965459
8.689000000000000 0.0251193948262 -1.600932356927 0.9996810300974 -79.86593698231 0.9996810300974 -79.86593698231 0.0251204156036 21.879769014298
8.689100000000000 0.0251185756386 -1.602546311132 0.9996810502257 -79.86691234606 0.9996810502257 -79.86691234606 0.0251195965981 21.879433807485
8.689200000000001 0.0251177548670 -1.604161191411 0.9996810703927 -79.86788780261 0.9996810703927 -79.86788780261 0.0251187760090 21.879099345860
8.689300000000001 0.0251169325070 -1.605777000037 0.9996810905983 -79.86886335221 0.9996810905983 -79.86886335221 0.0251179538320 21.878765631784
8.689400000000001 0.0251161085533 -1.607393740606 0.9996811108429 -79.86983899517 0.9996811108429 -79.86983899517 0.0251171300618 21.878432667510
8.689500000000001 0.0251152830035 -1.609011414366 0.9996811311263 -79.87081473163 0.9996811311263 -79.87081473163 0.0251163046959 21.878100454572
8.689600000000000 0.0251144558516 -1.610630024727 0.9996811514487 -79.87179056196 0.9996811514487 -79.87179056196 0.0251154777284 21.877768996116
8.689700000000000 0.0251136270962 -1.612249573482 0.9996811718105 -79.87276648622 0.9996811718105 -79.87276648622 0.0251146491579 21.877438292061
8.689800000000000 0.0251127967302 -1.613870064078 0.9996811922113 -79.87374250485 0.9996811922113 -79.87374250485 0.0251138189772 21.877108346646
8.689900000000000 0.0251119647509 -1.615491498363 0.9996812126515 -79.87471861799 0.9996812126515 -79.87471861799 0.0251129871837 21.876779161043
8.690000000000001 0.0251111311540 -1.617113879021 0.9996812331311 -79.87569482590 0.9996812331311 -79.87569482590 0.0251121537731 21.876450737413
8.690100000000001 0.0251102959348 -1.618737208812 0.9996812536501 -79.87667112887 0.9996812536501 -79.87667112887 0.0251113187406 21.876123078159
8.690200000000001 0.0251094590887 -1.620361490870 0.9996812742089 -79.87764752714 0.9996812742089 -79.87764752714 0.0251104820817 21.875796185144
8.690300000000001 0.0251086206122 -1.621986726742 0.9996812948073 -79.87862402094 0.9996812948073 -79.87862402094 0.0251096437930 21.875470060709
8.690400000000000 0.0251077805012 -1.623612919624 0.9996813154455 -79.87960061051 0.9996813154455 -79.87960061051 0.0251088038701 21.875144706463
8.690500000000000 0.0251069387525 -1.625240071325 0.9996813361237 -79.88057729603 0.9996813361237 -79.88057729603 0.0251079623101 21.874820124090
8.690600000000000 0.0251060953598 -1.626868185306 0.9996813568418 -79.88155407787 0.9996813568418 -79.88155407787 0.0251071191065 21.874496316940
8.690700000000001 0.0251052503190 -1.628497264283 0.9996813776001 -79.88253095629 0.9996813776001 -79.88253095629 0.0251062742553 21.874173286890
8.690800000000001 0.0251044036249 -1.630127311780 0.9996813983987 -79.88350793157 0.9996813983987 -79.88350793157 0.0251054277513 21.873851036025
8.690900000000001 0.0251035552771 -1.631758327442 0.9996814192375 -79.88448500374 0.9996814192375 -79.88448500374 0.0251045795942 21.873529565592
8.691000000000001 0.0251027052685 -1.633390316214 0.9996814401168 -79.88546217324 0.9996814401168 -79.88546217324 0.0251037297766 21.873208878321
8.691100000000000 0.0251018535941 -1.635023280815 0.9996814610366 -79.88643944034 0.9996814610366 -79.88643944034 0.0251028782937 21.872888976942
8.691200000000000 0.0251010002509 -1.636657223032 0.9996814819970 -79.88741680522 0.9996814819970 -79.88741680522 0.0251020251425 21.872569863080
8.691300000000000 0.0251001452336 -1.638292146156 0.9996815029981 -79.88839426820 0.9996815029981 -79.88839426820 0.0251011703178 21.872251539172
8.691400000000000 0.0250992885380 -1.639928052656 0.9996815240400 -79.88937182952 0.9996815240400 -79.88937182952 0.0251003138152 21.871934007618
8.691500000000001 0.0250984301613 -1.641564944853 0.9996815451230 -79.89034948935 0.9996815451230 -79.89034948935 0.0250994556321 21.871617269253
8.691600000000001 0.0250975700951 -1.643202827019 0.9996815662469 -79.89132724819 0.9996815662469 -79.89132724819 0.0250985957599 21.871301328829
8.691700000000001 0.0250967083391 -1.644841699844 0.9996815874119 -79.89230510605 0.9996815874119 -79.89230510605 0.0250977341984 21.870986186331
8.691800000000001 0.0250958448872 -1.646481567128 0.9996816086183 -79.89328306328 0.9996816086183 -79.89328306328 0.0250968709415 21.870671844569
8.691900000000000 0.0250949797342 -1.648122431740 0.9996816298660 -79.89426112020 0.9996816298660 -79.89426112020 0.0250960059841 21.870358306389
8.692000000000000 0.0250941128764 -1.649764296039 0.9996816511550 -79.89523927702 0.9996816511550 -79.89523927702 0.0250951393222 21.870045573747
8.692100000000000 0.0250932443098 -1.651407162761 0.9996816724857 -79.89621753399 0.9996816724857 -79.89621753399 0.0250942709522 21.869733648259
8.692200000000000 0.0250923740290 -1.653051035005 0.9996816938581 -79.89719589140 0.9996816938581 -79.89719589140 0.0250934008684 21.869422532801
8.692300000000001 0.0250915020280 -1.654695916368 0.9996817152722 -79.89817434963 0.9996817152722 -79.89817434963 0.0250925290650 21.869112230317
8.692400000000001 0.0250906283059 -1.656341807767 0.9996817367283 -79.89915290872 0.9996817367283 -79.89915290872 0.0250916555409 21.868802741222
8.692500000000001 0.0250897528552 -1.657988713224 0.9996817582263 -79.90013156912 0.9996817582263 -79.90013156912 0.0250907802888 21.868494069553
8.692600000000001 0.0250888756723 -1.659636635334 0.9996817797664 -79.90111033103 0.9996817797664 -79.90111033103 0.0250899033050 21.868186216878
8.692700000000000 0.0250879967532 -1.661285576507 0.9996818013487 -79.90208919469 0.9996818013487 -79.90208919469 0.0250890245855 21.867879185249
8.692800000000000 0.0250871160914 -1.662935540601 0.9996818229733 -79.90306816050 0.9996818229733 -79.90306816050 0.0250881441237 21.867572977936
8.692900000000000 0.0250862336828 -1.664586530128 0.9996818446403 -79.90404722867 0.9996818446403 -79.90404722867 0.0250872619158 21.867267596887
8.693000000000001 0.0250853495249 -1.666238547025 0.9996818663499 -79.90502639936 0.9996818663499 -79.90502639936 0.0250863779590 21.866963043343
8.693100000000001 0.0250844636109 -1.667891595136 0.9996818881022 -79.90600567299 0.9996818881022 -79.90600567299 0.0250854922466 21.866659320821
8.693200000000001 0.0250835759358 -1.669545677496 0.9996819098972 -79.90698504983 0.9996819098972 -79.90698504983 0.0250846047737 21.866356431652
