! Sonnet Data File
! From: emgraph Version : 16.52
! From Project: 171117_Xmon_fullysym
! Data is De-embedded 
! Data File Written: 11/26/2017 21:44:45
!< HDATE 11/26/2017 17:24:49
!< MDATE 11/26/2017 17:24:49
!< PARAMS
!< Lj = 11.0
!< Gap = 1.0
!< Pwid = 2000.0
!< Airgap = 6.0
!< Width = 10.0
!< Lj1 = 8.4
!< END PARAMS
# GHZ S MA R 50.90000
8.600000000000001 0.0256425659689 -0.300956911382 0.9996679189247 -79.00994882670 0.9996679189246 -79.00994882698 0.0256434967238 22.291008148295
!< P1 F=8.6 Eeff=(6.44845572 -2.9799e-5) Z0=(50.9087207 1.17006e-4) R=0.0 C=0.0 
!< P2 F=8.6 Eeff=(6.44845572 -2.9799e-5) Z0=(50.9087207 1.17006e-4) R=0.0 C=0.0 
8.600200000000001 0.0256422584915 -0.303432826764 0.9996679266460 -79.01182185640 0.9996679266460 -79.01182185640 0.0256431893624 22.289738652937
8.600400000000000 0.0256419497966 -0.305909446112 0.9996679343731 -79.01369495866 0.9996679343731 -79.01369495866 0.0256428807633 22.288469676865
8.600600000000000 0.0256416398489 -0.308386742386 0.9996679421319 -79.01556813335 0.9996679421319 -79.01556813335 0.0256425709115 22.287201234872
8.600800000000001 0.0256413286458 -0.310864716924 0.9996679499224 -79.01744138063 0.9996679499224 -79.01744138063 0.0256422598047 22.285933328234
8.601000000000001 0.0256410161832 -0.313343372122 0.9996679577449 -79.01931470073 0.9996679577449 -79.01931470073 0.0256419474385 22.284665958663
8.601200000000000 0.0256407024581 -0.315822709590 0.9996679655993 -79.02118809383 0.9996679655993 -79.02118809383 0.0256416338100 22.283399127596
8.601400000000000 0.0256403874661 -0.318302731670 0.9996679734857 -79.02306156019 0.9996679734857 -79.02306156019 0.0256413189148 22.282132836999
8.601600000000001 0.0256400712033 -0.320783440670 0.9996679814043 -79.02493510003 0.9996679814043 -79.02493510003 0.0256410027491 22.280867088429
8.601800000000001 0.0256397536670 -0.323264838151 0.9996679893551 -79.02680871353 0.9996679893551 -79.02680871353 0.0256406853100 22.279601883207
8.602000000000000 0.0256394348520 -0.325746926831 0.9996679973382 -79.02868240097 0.9996679973382 -79.02868240097 0.0256403665926 22.278337223568
8.602200000000000 0.0256391147564 -0.328229707935 0.9996680053538 -79.03055616248 0.9996680053538 -79.03055616248 0.0256400465946 22.277073110450
8.602400000000001 0.0256387933742 -0.330713184732 0.9996680134019 -79.03242999840 0.9996680134019 -79.03242999840 0.0256397253104 22.275809546323
8.602600000000001 0.0256384707036 -0.333197358272 0.9996680214826 -79.03430390884 0.9996680214826 -79.03430390884 0.0256394027379 22.274546532178
8.602800000000000 0.0256381467398 -0.335682231214 0.9996680295961 -79.03617789409 0.9996680295961 -79.03617789409 0.0256390788724 22.273284070034
8.603000000000000 0.0256378214795 -0.338167805378 0.9996680377423 -79.03805195433 0.9996680377423 -79.03805195433 0.0256387537107 22.272022161333
8.603200000000001 0.0256374949182 -0.340654083316 0.9996680459215 -79.03992608983 0.9996680459215 -79.03992608983 0.0256384272482 22.270760808104
8.603400000000001 0.0256371670526 -0.343141066742 0.9996680541335 -79.04180030079 0.9996680541335 -79.04180030079 0.0256380994815 22.269500011985
8.603600000000000 0.0256368378788 -0.345628757932 0.9996680623787 -79.04367458742 0.9996680623787 -79.04367458742 0.0256377704070 22.268239774437
8.603800000000000 0.0256365073924 -0.348117159458 0.9996680706572 -79.04554895000 0.9996680706572 -79.04554895000 0.0256374400200 22.266980097394
8.604000000000001 0.0256361755901 -0.350606272854 0.9996680789688 -79.04742338871 0.9996680789688 -79.04742338871 0.0256371083174 22.265720982547
8.604200000000001 0.0256358424684 -0.353096100391 0.9996680873139 -79.04929790376 0.9996680873139 -79.04929790376 0.0256367752956 22.264462431302
8.604400000000000 0.0256355080218 -0.355586644978 0.9996680956925 -79.05117249548 0.9996680956925 -79.05117249548 0.0256364409491 22.263204446052
8.604600000000001 0.0256351722485 -0.358077907594 0.9996681041045 -79.05304716396 0.9996681041045 -79.05304716396 0.0256361052762 22.261947027828
8.604800000000001 0.0256348351425 -0.360569891768 0.9996681125504 -79.05492190957 0.9996681125504 -79.05492190957 0.0256357682707 22.260690178935
8.605000000000000 0.0256344967013 -0.363062598697 0.9996681210299 -79.05679673243 0.9996681210299 -79.05679673243 0.0256354299304 22.259433900681
8.605200000000000 0.0256341569202 -0.365556031072 0.9996681295434 -79.05867163285 0.9996681295434 -79.05867163285 0.0256350902502 22.258178195279
8.605400000000001 0.0256338157955 -0.368050190935 0.9996681380908 -79.06054661102 0.9996681380908 -79.06054661102 0.0256347492269 22.256923064115
8.605600000000001 0.0256334733226 -0.370545080980 0.9996681466723 -79.06242166723 0.9996681466723 -79.06242166723 0.0256344068554 22.255668509308
8.605800000000000 0.0256331294989 -0.373040702532 0.9996681552879 -79.06429680162 0.9996681552879 -79.06429680162 0.0256340631334 22.254414532158
8.606000000000000 0.0256327843182 -0.375537059039 0.9996681639378 -79.06617201455 0.9996681639378 -79.06617201455 0.0256337180547 22.253161135157
8.606200000000001 0.0256324377781 -0.378034151947 0.9996681726222 -79.06804730617 0.9996681726222 -79.06804730617 0.0256333716168 22.251908319553
8.606400000000001 0.0256320898742 -0.380531983651 0.9996681813409 -79.06992267674 0.9996681813409 -79.06992267674 0.0256330238153 22.250656087274
8.606600000000000 0.0256317406023 -0.383030556603 0.9996681900943 -79.07179812650 0.9996681900943 -79.07179812650 0.0256326746459 22.249404440140
8.606800000000000 0.0256313899579 -0.385529873052 0.9996681988823 -79.07367365572 0.9996681988823 -79.07367365572 0.0256323241045 22.248153380202
8.607000000000001 0.0256310379372 -0.388029935320 0.9996682077051 -79.07554926461 0.9996682077051 -79.07554926461 0.0256319721869 22.246902909071
8.607200000000001 0.0256306845362 -0.390530745731 0.9996682165629 -79.07742495342 0.9996682165629 -79.07742495342 0.0256316188892 22.245653028526
8.607400000000000 0.0256303297507 -0.393032306437 0.9996682254556 -79.07930072239 0.9996682254556 -79.07930072239 0.0256312642073 22.244403740532
8.607600000000000 0.0256299735764 -0.395534619907 0.9996682343833 -79.08117657178 0.9996682343833 -79.08117657178 0.0256309081368 22.243155046940
8.607800000000001 0.0256296160090 -0.398037688624 0.9996682433464 -79.08305250182 0.9996682433464 -79.08305250182 0.0256305506735 22.241906949513
8.608000000000001 0.0256292570441 -0.400541514941 0.9996682523446 -79.08492851280 0.9996682523446 -79.08492851280 0.0256301918129 22.240659450453
8.608200000000000 0.0256288966781 -0.403046100933 0.9996682613784 -79.08680460490 0.9996682613784 -79.08680460490 0.0256298315514 22.239412551202
8.608400000000001 0.0256285349064 -0.405551449080 0.9996682704475 -79.08868077841 0.9996682704475 -79.08868077841 0.0256294698846 22.238166253880
8.608600000000001 0.0256281717249 -0.408057561927 0.9996682795524 -79.09055703358 0.9996682795524 -79.09055703358 0.0256291068080 22.236920560213
8.608800000000000 0.0256278071286 -0.410564441914 0.9996682886930 -79.09243337067 0.9996682886930 -79.09243337067 0.0256287423170 22.235675472506
8.609000000000000 0.0256274411141 -0.413072091198 0.9996682978694 -79.09430978991 0.9996682978694 -79.09430978991 0.0256283764080 22.234430992248
8.609200000000001 0.0256270736768 -0.415580512343 0.9996683070817 -79.09618629156 0.9996683070817 -79.09618629156 0.0256280090764 22.233187121426
8.609400000000001 0.0256267048119 -0.418089707965 0.9996683163302 -79.09806287589 0.9996683163302 -79.09806287589 0.0256276403175 22.231943862174
8.609600000000000 0.0256263345159 -0.420599679863 0.9996683256147 -79.09993954312 0.9996683256147 -79.09993954312 0.0256272701278 22.230701216277
8.609800000000000 0.0256259627833 -0.423110431341 0.9996683349355 -79.10181629357 0.9996683349355 -79.10181629357 0.0256268985017 22.229459185805
8.610000000000001 0.0256255896109 -0.425621964157 0.9996683442927 -79.10369312743 0.9996683442927 -79.10369312743 0.0256265254360 22.228217772549
8.610200000000001 0.0256252149939 -0.428134281036 0.9996683536864 -79.10557004497 0.9996683536864 -79.10557004497 0.0256261509260 22.226976978280
8.610400000000000 0.0256248389274 -0.430647384511 0.9996683631167 -79.10744704649 0.9996683631167 -79.10744704649 0.0256257749668 22.225736805476
8.610600000000000 0.0256244614074 -0.433161277093 0.9996683725836 -79.10932413222 0.9996683725836 -79.10932413222 0.0256253975542 22.224497255785
8.610800000000001 0.0256240824290 -0.435675961305 0.9996683820875 -79.11120130245 0.9996683820875 -79.11120130245 0.0256250186836 22.223258331345
8.611000000000001 0.0256237019886 -0.438191439305 0.9996683916282 -79.11307855739 0.9996683916282 -79.11307855739 0.0256246383511 22.222020033925
8.611200000000000 0.0256233200804 -0.440707714310 0.9996684012060 -79.11495589738 0.9996684012060 -79.11495589738 0.0256242565512 22.220782365878
8.611400000000000 0.0256229367011 -0.443224788089 0.9996684108209 -79.11683332261 0.9996684108209 -79.11683332261 0.0256238732804 22.219545328774
8.611600000000001 0.0256225518460 -0.445742663368 0.9996684204730 -79.11871083337 0.9996684204730 -79.11871083337 0.0256234885340 22.218308924859
8.611800000000001 0.0256221655096 -0.448261343229 0.9996684301626 -79.12058842996 0.9996684301626 -79.12058842996 0.0256231023067 22.217073156248
8.612000000000000 0.0256217776879 -0.450780829800 0.9996684398897 -79.12246611263 0.9996684398897 -79.12246611263 0.0256227145942 22.215838025025
8.612200000000001 0.0256213883763 -0.453301125717 0.9996684496543 -79.12434388165 0.9996684496543 -79.12434388165 0.0256223253921 22.214603533148
8.612400000000001 0.0256209975700 -0.455822233715 0.9996684594568 -79.12622173729 0.9996684594568 -79.12622173729 0.0256219346957 22.213369682587
8.612600000000000 0.0256206052653 -0.458344155892 0.9996684692970 -79.12809967979 0.9996684692970 -79.12809967979 0.0256215425010 22.212136475258
8.612800000000000 0.0256202114562 -0.460866895493 0.9996684791751 -79.12997770948 0.9996684791751 -79.12997770948 0.0256211488022 22.210903913657
8.613000000000001 0.0256198161393 -0.463390454517 0.9996684890914 -79.13185582657 0.9996684890914 -79.13185582657 0.0256207535959 22.209671999346
8.613200000000001 0.0256194193086 -0.465914836350 0.9996684990458 -79.13373403141 0.9996684990458 -79.13373403141 0.0256203568760 22.208440734965
8.613400000000000 0.0256190209599 -0.468440043270 0.9996685090386 -79.13561232424 0.9996685090386 -79.13561232424 0.0256199586384 22.207210122361
8.613600000000000 0.0256186210891 -0.470966077528 0.9996685190697 -79.13749070532 0.9996685190697 -79.13749070532 0.0256195588789 22.205980163537
8.613800000000001 0.0256182196907 -0.473492942328 0.9996685291394 -79.13936917495 0.9996685291394 -79.13936917495 0.0256191575921 22.204750860786
8.614000000000001 0.0256178167604 -0.476020640032 0.9996685392477 -79.14124773339 0.9996685392477 -79.14124773339 0.0256187547738 22.203522215998
8.614200000000000 0.0256174122930 -0.478549173640 0.9996685493949 -79.14312638096 0.9996685493949 -79.14312638096 0.0256183504185 22.202294231535
8.614400000000000 0.0256170062834 -0.481078545753 0.9996685595809 -79.14500511794 0.9996685595809 -79.14500511794 0.0256179445214 22.201066909755
8.614600000000001 0.0256165987273 -0.483608759113 0.9996685698059 -79.14688394459 0.9996685698059 -79.14688394459 0.0256175370779 22.199840252446
8.614800000000001 0.0256161896202 -0.486139816073 0.9996685800701 -79.14876286117 0.9996685800701 -79.14876286117 0.0256171280839 22.198614261623
8.615000000000000 0.0256157789562 -0.488671719915 0.9996685903735 -79.15064186803 0.9996685903735 -79.15064186803 0.0256167175331 22.197388940011
8.615200000000000 0.0256153667319 -0.491204472640 0.9996686007163 -79.15252096537 0.9996686007163 -79.15252096537 0.0256163054223 22.196164289123
8.615400000000001 0.0256149529406 -0.493738077964 0.9996686110987 -79.15440015359 0.9996686110987 -79.15440015359 0.0256158917448 22.194940311787
8.615600000000001 0.0256145375783 -0.496272538168 0.9996686215206 -79.15627943291 0.9996686215206 -79.15627943291 0.0256154764965 22.193717009960
8.615800000000000 0.0256141206401 -0.498807855869 0.9996686319823 -79.15815880363 0.9996686319823 -79.15815880363 0.0256150596727 22.192494385779
8.616000000000000 0.0256137021208 -0.501344034097 0.9996686424838 -79.16003826605 0.9996686424838 -79.16003826605 0.0256146412680 22.191272441568
8.616200000000001 0.0256132820153 -0.503881075777 0.9996686530254 -79.16191782047 0.9996686530254 -79.16191782047 0.0256142212773 22.190051179564
8.616400000000001 0.0256128603196 -0.506418983048 0.9996686636070 -79.16379746711 0.9996686636070 -79.16379746711 0.0256137996969 22.188830601525
8.616600000000000 0.0256124370264 -0.508957759926 0.9996686742289 -79.16567720643 0.9996686742289 -79.16567720643 0.0256133765192 22.187610710829
8.616800000000001 0.0256120121331 -0.511497408060 0.9996686848912 -79.16755703856 0.9996686848912 -79.16755703856 0.0256129517416 22.186391508607
8.617000000000001 0.0256115856331 -0.514037931115 0.9996686955939 -79.16943696389 0.9996686955939 -79.16943696389 0.0256125253576 22.185172997670
8.617200000000000 0.0256111575219 -0.516579331675 0.9996687063374 -79.17131698270 0.9996687063374 -79.17131698270 0.0256120973627 22.183955180072
8.617400000000000 0.0256107277941 -0.519121612628 0.9996687171215 -79.17319709528 0.9996687171215 -79.17319709528 0.0256116677515 22.182738058292
8.617600000000001 0.0256102964448 -0.521664776654 0.9996687279465 -79.17507730194 0.9996687279465 -79.17507730194 0.0256112365190 22.181521634675
8.617800000000001 0.0256098634682 -0.524208827204 0.9996687388125 -79.17695760301 0.9996687388125 -79.17695760301 0.0256108036596 22.180305911465
8.618000000000000 0.0256094288595 -0.526753767004 0.9996687497197 -79.17883799877 0.9996687497197 -79.17883799877 0.0256103691684 22.179090890923
8.618200000000000 0.0256089926142 -0.529299598337 0.9996687606681 -79.18071848949 0.9996687606681 -79.18071848949 0.0256099330408 22.177876575314
8.618400000000001 0.0256085547261 -0.531846324849 0.9996687716579 -79.18259907554 0.9996687716579 -79.18259907554 0.0256094952707 22.176662967202
8.618600000000001 0.0256081151895 -0.534393949866 0.9996687826893 -79.18447975724 0.9996687826893 -79.18447975724 0.0256090558524 22.175450068946
8.618800000000000 0.0256076740006 -0.536942475310 0.9996687937623 -79.18636053482 0.9996687937623 -79.18636053482 0.0256086147821 22.174237882540
8.619000000000000 0.0256072311528 -0.539491904904 0.9996688048770 -79.18824140866 0.9996688048770 -79.18824140866 0.0256081720533 22.173026410825
8.619200000000001 0.0256067866415 -0.542042241435 0.9996688160338 -79.19012237905 0.9996688160338 -79.19012237905 0.0256077276612 22.171815655831
8.619400000000001 0.0256063404616 -0.544593487566 0.9996688272325 -79.19200344626 0.9996688272325 -79.19200344626 0.0256072816008 22.170605619921
8.619600000000000 0.0256058926071 -0.547145646738 0.9996688384734 -79.19388461068 0.9996688384734 -79.19388461068 0.0256068338661 22.169396305766
8.619800000000000 0.0256054430721 -0.549698722374 0.9996688497567 -79.19576587262 0.9996688497567 -79.19576587262 0.0256063844512 22.168187715863
8.620000000000001 0.0256049918514 -0.552252717232 0.9996688610824 -79.19764723241 0.9996688610824 -79.19764723241 0.0256059333508 22.166979852682
8.620200000000001 0.0256045389405 -0.554807634004 0.9996688724508 -79.19952869030 0.9996688724508 -79.19952869030 0.0256054805606 22.165772718100
8.620400000000000 0.0256040843337 -0.557363475665 0.9996688838618 -79.20141024662 0.9996688838618 -79.20141024663 0.0256050260749 22.164566314888
8.620600000000001 0.0256036280244 -0.559920246149 0.9996688953157 -79.20329190178 0.9996688953157 -79.20329190178 0.0256045698869 22.163360645817
8.620800000000001 0.0256031700084 -0.562477947711 0.9996689068126 -79.20517365601 0.9996689068126 -79.20517365601 0.0256041119924 22.162155712906
8.621000000000000 0.0256027102791 -0.565036584027 0.9996689183526 -79.20705550970 0.9996689183526 -79.20705550970 0.0256036523851 22.160951518987
8.621200000000000 0.0256022488320 -0.567596157874 0.9996689299359 -79.20893746311 0.9996689299359 -79.20893746311 0.0256031910602 22.159748066038
8.621400000000001 0.0256017856606 -0.570156672567 0.9996689415626 -79.21081951664 0.9996689415626 -79.21081951664 0.0256027280113 22.158545357195
8.621600000000001 0.0256013207592 -0.572718131596 0.9996689532329 -79.21270167060 0.9996689532329 -79.21270167060 0.0256022632328 22.157343394696
8.621800000000000 0.0256008541223 -0.575280537925 0.9996689649469 -79.21458392533 0.9996689649469 -79.21458392533 0.0256017967189 22.156142181278
8.622000000000000 0.0256003857453 -0.577843894128 0.9996689767047 -79.21646628108 0.9996689767047 -79.21646628108 0.0256013284655 22.154941718826
8.622200000000001 0.0255999156210 -0.580408204297 0.9996689885064 -79.21834873830 0.9996689885064 -79.21834873830 0.0256008584649 22.153742010711
8.622400000000001 0.0255994437448 -0.582973471036 0.9996690003523 -79.22023129725 0.9996690003523 -79.22023129725 0.0256003867127 22.152543058932
8.622600000000000 0.0255989701099 -0.585539698230 0.9996690122425 -79.22211395831 0.9996690122425 -79.22211395831 0.0255999132022 22.151344866372
8.622800000000000 0.0255984947113 -0.588106888438 0.9996690241770 -79.22399672180 0.9996690241770 -79.22399672180 0.0255994379284 22.150147435556
8.623000000000001 0.0255980175427 -0.590675045618 0.9996690361561 -79.22587958808 0.9996690361561 -79.22587958808 0.0255989608848 22.148950769042
8.623200000000001 0.0255975385991 -0.593244172151 0.9996690481798 -79.22776255744 0.9996690481798 -79.22776255744 0.0255984820666 22.147754869428
8.623400000000000 0.0255970578735 -0.595814272303 0.9996690602484 -79.22964563029 0.9996690602484 -79.22964563029 0.0255980014667 22.146559739423
8.623600000000000 0.0255965753614 -0.598385348580 0.9996690723620 -79.23152880690 0.9996690723620 -79.23152880690 0.0255975190805 22.145365381352
8.623800000000001 0.0255960910552 -0.600957405133 0.9996690845207 -79.23341208771 0.9996690845207 -79.23341208771 0.0255970349007 22.144171798385
8.624000000000001 0.0255956049504 -0.603530444605 0.9996690967247 -79.23529547300 0.9996690967247 -79.23529547300 0.0255965489224 22.142978992767
8.624200000000000 0.0255951170404 -0.606104470473 0.9996691089740 -79.23717896313 0.9996691089740 -79.23717896313 0.0255960611395 22.141786967433
8.624400000000001 0.0255946273192 -0.608679486420 0.9996691212690 -79.23906255848 0.9996691212690 -79.23906255848 0.0255955715456 22.140595724964
8.624600000000001 0.0255941357804 -0.611255496055 0.9996691336097 -79.24094625941 0.9996691336097 -79.24094625941 0.0255950801344 22.139405268205
8.624800000000000 0.0255936424196 -0.613832501731 0.9996691459962 -79.24283006618 0.9996691459962 -79.24283006618 0.0255945869015 22.138215599218
8.625000000000000 0.0255931472285 -0.616410508055 0.9996691584288 -79.24471397928 0.9996691584288 -79.24471397928 0.0255940918387 22.137026721755
8.625200000000001 0.0255926502032 -0.618989517485 0.9996691709075 -79.24659799894 0.9996691709075 -79.24659799894 0.0255935949420 22.135838637448
8.625400000000001 0.0255921513364 -0.621569533811 0.9996691834325 -79.24848212559 0.9996691834325 -79.24848212559 0.0255930962042 22.134651349849
8.625600000000000 0.0255916506214 -0.624150561078 0.9996691960040 -79.25036635961 0.9996691960040 -79.25036635961 0.0255925956185 22.133464861584
8.625800000000000 0.0255911480528 -0.626732602209 0.9996692086221 -79.25225070133 0.9996692086221 -79.25225070133 0.0255920931795 22.132279175321
8.626000000000001 0.0255906436242 -0.629315660900 0.9996692212871 -79.25413515113 0.9996692212871 -79.25413515113 0.0255915888808 22.131094293841
8.626200000000001 0.0255901373297 -0.631899740271 0.9996692339988 -79.25601970934 0.9996692339988 -79.25601970934 0.0255910827167 22.129910219959
8.626400000000000 0.0255896291628 -0.634484844190 0.9996692467577 -79.25790437636 0.9996692467577 -79.25790437636 0.0255905746804 22.128726956457
