! Sonnet Data File
! From: emgraph Version : 16.52
! From Project: 171117_Xmon_fullysym
! Data is De-embedded 
! Data File Written: 11/26/2017 21:44:45
!< HDATE 11/26/2017 17:24:49
!< MDATE 11/26/2017 17:24:49
!< PARAMS
!< Lj = 11.0
!< Gap = 1.0
!< Pwid = 2000.0
!< Airgap = 6.0
!< Width = 10.0
!< Lj1 = 8.2
!< END PARAMS
# GHZ S MA R 50.90000
8.600000000000001 0.0256483733490 -0.298343703766 0.9996677699771 -79.00961089698 0.9996677699771 -79.00961089726 0.0256493039210 22.289068473950
!< P1 F=8.6 Eeff=(6.44845572 -2.9799e-5) Z0=(50.9087207 1.17006e-4) R=0.0 C=0.0 
!< P2 F=8.6 Eeff=(6.44845572 -2.9799e-5) Z0=(50.9087207 1.17006e-4) R=0.0 C=0.0 
8.600200000000001 0.0256480662211 -0.300819367183 0.9996677776910 -79.01148390604 0.9996677776910 -79.01148390604 0.0256489969093 22.287798768857
8.600400000000000 0.0256477578726 -0.303295735881 0.9996677854107 -79.01335698785 0.9996677854107 -79.01335698785 0.0256486886566 22.286529584008
8.600600000000000 0.0256474482680 -0.305772782843 0.9996677931622 -79.01523014228 0.9996677931622 -79.01523014228 0.0256483791481 22.285260934205
8.600800000000001 0.0256471374048 -0.308250509415 0.9996678009455 -79.01710336948 0.9996678009455 -79.01710336948 0.0256480683812 22.283992820726
8.601000000000001 0.0256468252788 -0.310728917996 0.9996678087609 -79.01897666970 0.9996678087609 -79.01897666970 0.0256477563517 22.282725245290
8.601200000000000 0.0256465118870 -0.313208010201 0.9996678166082 -79.02085004311 0.9996678166082 -79.02085004311 0.0256474430566 22.281458209336
8.601400000000000 0.0256461972250 -0.315687788379 0.9996678244877 -79.02272348998 0.9996678244877 -79.02272348998 0.0256471284915 22.280191714834
8.601600000000001 0.0256458812890 -0.318168254841 0.9996678323995 -79.02459701051 0.9996678323995 -79.02459701051 0.0256468126526 22.278925763344
8.601800000000001 0.0256455640760 -0.320649411155 0.9996678403435 -79.02647060490 0.9996678403435 -79.02647060490 0.0256464955370 22.277660356193
8.602000000000000 0.0256452455811 -0.323131260044 0.9996678483200 -79.02834427342 0.9996678483200 -79.02834427342 0.0256461771397 22.276395495619
8.602200000000000 0.0256449258022 -0.325613802736 0.9996678563290 -79.03021801620 0.9996678563290 -79.03021801620 0.0256458574586 22.275131182562
8.602400000000001 0.0256446047334 -0.328097042509 0.9996678643707 -79.03209183359 0.9996678643707 -79.03209183359 0.0256455364878 22.273867419498
8.602600000000001 0.0256442823728 -0.330580980416 0.9996678724450 -79.03396572570 0.9996678724450 -79.03396572570 0.0256452142254 22.272604207421
8.602800000000000 0.0256439587156 -0.333065619122 0.9996678805522 -79.03583969281 0.9996678805522 -79.03583969281 0.0256448906666 22.271341548355
8.603000000000000 0.0256436337586 -0.335550960451 0.9996678886922 -79.03771373511 0.9996678886922 -79.03771373511 0.0256445658082 22.270079443744
8.603200000000001 0.0256433074971 -0.338037006964 0.9996678968653 -79.03958785287 0.9996678968653 -79.03958785287 0.0256442396456 22.268817895624
8.603400000000001 0.0256429799278 -0.340523760377 0.9996679050714 -79.04146204629 0.9996679050714 -79.04146204629 0.0256439121754 22.267556905634
8.603600000000000 0.0256426510470 -0.343011222971 0.9996679133107 -79.04333631558 0.9996679133107 -79.04333631558 0.0256435833940 22.266296475241
8.603800000000000 0.0256423208501 -0.345499397327 0.9996679215833 -79.04521066101 0.9996679215833 -79.04521066101 0.0256432532966 22.265036606381
8.604000000000001 0.0256419893340 -0.347988284980 0.9996679298893 -79.04708508278 0.9996679298893 -79.04708508278 0.0256429218802 22.263777300752
8.604200000000001 0.0256416564949 -0.350477888210 0.9996679382287 -79.04895958109 0.9996679382287 -79.04895958109 0.0256425891411 22.262518559761
8.604400000000000 0.0256413223274 -0.352968209931 0.9996679466017 -79.05083415627 0.9996679466017 -79.05083415627 0.0256422550739 22.261260385807
8.604600000000001 0.0256409868297 -0.355459251125 0.9996679550084 -79.05270880842 0.9996679550084 -79.05270880842 0.0256419196767 22.260002779924
8.604800000000001 0.0256406499959 -0.357951015329 0.9996679634489 -79.05458353789 0.9996679634489 -79.05458353789 0.0256415829434 22.258745744422
8.605000000000000 0.0256403118234 -0.360443503746 0.9996679719232 -79.05645834483 0.9996679719232 -79.05645834483 0.0256412448718 22.257489280613
8.605200000000000 0.0256399723073 -0.362936719070 0.9996679804315 -79.05833322953 0.9996679804315 -79.05833322953 0.0256409054569 22.256233390712
8.605400000000001 0.0256396314442 -0.365430663352 0.9996679889739 -79.06020819219 0.9996679889739 -79.06020819219 0.0256405646952 22.254978076113
8.605600000000001 0.0256392892293 -0.367925339291 0.9996679975504 -79.06208323308 0.9996679975504 -79.06208323308 0.0256402225818 22.253723338938
8.605800000000000 0.0256389456600 -0.370420748213 0.9996680061612 -79.06395835237 0.9996680061612 -79.06395835237 0.0256398791143 22.252469180487
8.606000000000000 0.0256386007302 -0.372916893578 0.9996680148064 -79.06583355041 0.9996680148064 -79.06583355041 0.0256395342866 22.251215603263
8.606200000000001 0.0256382544374 -0.375413776833 0.9996680234861 -79.06770882735 0.9996680234861 -79.06770882735 0.0256391880960 22.249962608514
8.606400000000001 0.0256379067771 -0.377911400381 0.9996680322003 -79.06958418344 0.9996680322003 -79.06958418344 0.0256388405383 22.248710198173
8.606600000000000 0.0256375577452 -0.380409766681 0.9996680409492 -79.07145961894 0.9996680409492 -79.07145961894 0.0256384916091 22.247458374064
8.606800000000000 0.0256372073372 -0.382908877984 0.9996680497329 -79.07333513411 0.9996680497329 -79.07333513411 0.0256381413041 22.246207138242
8.607000000000001 0.0256368555493 -0.385408736621 0.9996680585515 -79.07521072916 0.9996680585515 -79.07521072916 0.0256377896194 22.244956492323
8.607200000000001 0.0256365023774 -0.387909344921 0.9996680674051 -79.07708640435 0.9996680674051 -79.07708640435 0.0256374365509 22.243706438091
8.607400000000000 0.0256361478173 -0.390410705041 0.9996680762937 -79.07896215991 0.9996680762937 -79.07896215991 0.0256370820945 22.242456977514
8.607600000000000 0.0256357918647 -0.392912819458 0.9996680852175 -79.08083799609 0.9996680852175 -79.08083799609 0.0256367262458 22.241208112448
8.607800000000001 0.0256354345154 -0.395415690659 0.9996680941767 -79.08271391315 0.9996680941767 -79.08271391315 0.0256363690007 22.239959844660
8.608000000000001 0.0256350757648 -0.397919321003 0.9996681031713 -79.08458991136 0.9996681031713 -79.08458991136 0.0256360103545 22.238712176357
8.608200000000000 0.0256347156094 -0.400423712572 0.9996681122013 -79.08646599092 0.9996681122013 -79.08646599092 0.0256356503037 22.237465108985
8.608400000000001 0.0256343540446 -0.402928867850 0.9996681212670 -79.08834215210 0.9996681212670 -79.08834215210 0.0256352888438 22.236218644668
8.608600000000001 0.0256339910661 -0.405434789389 0.9996681303684 -79.09021839515 0.9996681303684 -79.09021839515 0.0256349259705 22.234972785137
8.608800000000000 0.0256336266692 -0.407941479638 0.9996681395057 -79.09209472035 0.9996681395057 -79.09209472035 0.0256345616789 22.233727532703
8.609000000000000 0.0256332608502 -0.410448940756 0.9996681486788 -79.09397112791 0.9996681486788 -79.09397112791 0.0256341959656 22.232482888855
8.609200000000001 0.0256328936046 -0.412957175314 0.9996681578881 -79.09584761811 0.9996681578881 -79.09584761811 0.0256338288259 22.231238855590
8.609400000000001 0.0256325249277 -0.415466185935 0.9996681671335 -79.09772419121 0.9996681671335 -79.09772419121 0.0256334602550 22.229995435042
8.609600000000000 0.0256321548158 -0.417975974425 0.9996681764151 -79.09960084743 0.9996681764151 -79.09960084743 0.0256330902495 22.228752629004
8.609800000000000 0.0256317832636 -0.420486544091 0.9996681857332 -79.10147758709 0.9996681857332 -79.10147758709 0.0256327188039 22.227510439548
8.610000000000001 0.0256314102675 -0.422997896700 0.9996681950876 -79.10335441039 0.9996681950876 -79.10335441039 0.0256323459147 22.226268868470
8.610200000000001 0.0256310358232 -0.425510034982 0.9996682044787 -79.10523131759 0.9996682044787 -79.10523131759 0.0256319715774 22.225027917546
8.610400000000000 0.0256306599254 -0.428022961477 0.9996682139065 -79.10710830900 0.9996682139065 -79.10710830900 0.0256315957870 22.223787589259
8.610600000000000 0.0256302825702 -0.430536678701 0.9996682233711 -79.10898538485 0.9996682233711 -79.10898538485 0.0256312185393 22.222547885262
8.610800000000001 0.0256299037527 -0.433051189185 0.9996682328727 -79.11086254542 0.9996682328727 -79.11086254542 0.0256308398297 22.221308807697
8.611000000000001 0.0256295234692 -0.435566495090 0.9996682424112 -79.11273979093 0.9996682424112 -79.11273979093 0.0256304596543 22.220070358336
8.611200000000000 0.0256291417140 -0.438082599644 0.9996682519870 -79.11461712172 0.9996682519870 -79.11461712172 0.0256300780075 22.218832539540
8.611400000000000 0.0256287584839 -0.440599504619 0.9996682615999 -79.11649453798 0.9996682615999 -79.11649453798 0.0256296948860 22.217595352881
8.611600000000001 0.0256283737739 -0.443117212748 0.9996682712503 -79.11837203999 0.9996682712503 -79.11837203999 0.0256293102848 22.216358800611
8.611800000000001 0.0256279875786 -0.445635727122 0.9996682809381 -79.12024962808 0.9996682809381 -79.12024962808 0.0256289241987 22.215122884850
8.612000000000000 0.0256275998941 -0.448155049871 0.9996682906636 -79.12212730247 0.9996682906636 -79.12212730247 0.0256285366235 22.213887607686
8.612200000000001 0.0256272107156 -0.450675183641 0.9996683004267 -79.12400506345 0.9996683004267 -79.12400506345 0.0256281475547 22.212652971081
8.612400000000001 0.0256268200385 -0.453196131172 0.9996683102277 -79.12588291129 0.9996683102277 -79.12588291129 0.0256277569875 22.211418977012
8.612600000000000 0.0256264278588 -0.455717894566 0.9996683200667 -79.12776084621 0.9996683200667 -79.12776084621 0.0256273649180 22.210185627399
8.612800000000000 0.0256260341708 -0.458240477080 0.9996683299437 -79.12963886856 0.9996683299437 -79.12963886856 0.0256269713403 22.208952924741
8.613000000000001 0.0256256389708 -0.460763880715 0.9996683398588 -79.13151697855 0.9996683398588 -79.13151697855 0.0256265762511 22.207720870607
8.613200000000001 0.0256252422530 -0.463288108867 0.9996683498123 -79.13339517653 0.9996683498123 -79.13339517653 0.0256261796442 22.206489467642
8.613400000000000 0.0256248440131 -0.465813163820 0.9996683598043 -79.13527346274 0.9996683598043 -79.13527346274 0.0256257815155 22.205258717697
8.613600000000000 0.0256244442469 -0.468339047828 0.9996683698347 -79.13715183743 0.9996683698347 -79.13715183743 0.0256253818609 22.204028622781
8.613800000000001 0.0256240429491 -0.470865764106 0.9996683799037 -79.13903030092 0.9996683799037 -79.13903030092 0.0256249806747 22.202799185189
8.614000000000001 0.0256236401152 -0.473393315020 0.9996683900116 -79.14090885346 0.9996683900116 -79.14090885346 0.0256245779529 22.201570406817
8.614200000000000 0.0256232357400 -0.475921703579 0.9996684001584 -79.14278749536 0.9996684001584 -79.14278749536 0.0256241736900 22.200342290036
8.614400000000000 0.0256228298185 -0.478450932389 0.9996684103441 -79.14466622692 0.9996684103441 -79.14466622692 0.0256237678810 22.199114837206
8.614600000000001 0.0256224223463 -0.480981004199 0.9996684205690 -79.14654504839 0.9996684205690 -79.14654504839 0.0256233605216 22.197888050118
8.614800000000001 0.0256220133189 -0.483511921370 0.9996684308331 -79.14842396004 0.9996684308331 -79.14842396004 0.0256229516073 22.196661930794
8.615000000000000 0.0256216027303 -0.486043687189 0.9996684411366 -79.15030296222 0.9996684411366 -79.15030296222 0.0256225411321 22.195436481965
8.615200000000000 0.0256211905772 -0.488576303664 0.9996684514796 -79.15218205513 0.9996684514796 -79.15218205513 0.0256221290927 22.194211705148
8.615400000000001 0.0256207768529 -0.491109774522 0.9996684618623 -79.15406123915 0.9996684618623 -79.15406123915 0.0256217154823 22.192987603178
8.615600000000001 0.0256203615533 -0.493644102046 0.9996684722846 -79.15594051453 0.9996684722846 -79.15594051453 0.0256213002968 22.191764178015
8.615800000000000 0.0256199446735 -0.496179288861 0.9996684827469 -79.15781988155 0.9996684827469 -79.15781988155 0.0256208835315 22.190541431800
8.616000000000000 0.0256195262084 -0.498715338006 0.9996684932491 -79.15969934053 0.9996684932491 -79.15969934053 0.0256204651811 22.189319366865
8.616200000000001 0.0256191061526 -0.501252252411 0.9996685037914 -79.16157889176 0.9996685037914 -79.16157889176 0.0256200452404 22.188097985451
8.616400000000001 0.0256186845025 -0.503790034221 0.9996685143740 -79.16345853546 0.9996685143740 -79.16345853546 0.0256196237055 22.186877289320
8.616600000000000 0.0256182612504 -0.506328687464 0.9996685249969 -79.16533827209 0.9996685249969 -79.16533827209 0.0256192005691 22.185657281858
8.616800000000001 0.0256178363938 -0.508868213792 0.9996685356603 -79.16721810179 0.9996685356603 -79.16721810179 0.0256187758284 22.184437964201
8.617000000000001 0.0256174099262 -0.511408616877 0.9996685463643 -79.16909802494 0.9996685463643 -79.16909802494 0.0256183494769 22.183219339162
8.617200000000000 0.0256169818430 -0.513949899314 0.9996685571091 -79.17097804182 0.9996685571091 -79.17097804182 0.0256179215101 22.182001408803
8.617400000000000 0.0256165521388 -0.516492063991 0.9996685678948 -79.17285815274 0.9996685678948 -79.17285815274 0.0256174919226 22.180784175608
8.617600000000001 0.0256161208086 -0.519035113603 0.9996685787214 -79.17473835799 0.9996685787214 -79.17473835799 0.0256170607095 22.179567641927
8.617800000000001 0.0256156878468 -0.521579051603 0.9996685895891 -79.17661865791 0.9996685895891 -79.17661865791 0.0256166278649 22.178351810010
8.618000000000000 0.0256152532484 -0.524123880729 0.9996686004982 -79.17849905278 0.9996686004982 -79.17849905278 0.0256161933841 22.177136682122
8.618200000000000 0.0256148170088 -0.526669603267 0.9996686114486 -79.18037954287 0.9996686114486 -79.18037954287 0.0256157572624 22.175922260536
8.618400000000001 0.0256143791220 -0.529216222871 0.9996686224405 -79.18226012855 0.9996686224405 -79.18226012855 0.0256153194937 22.174708547818
8.618600000000001 0.0256139395821 -0.531763742877 0.9996686334741 -79.18414081014 0.9996686334741 -79.18414081014 0.0256148800724 22.173495546335
8.618800000000000 0.0256134983855 -0.534312165211 0.9996686445494 -79.18602158788 0.9996686445494 -79.18602158788 0.0256144389945 22.172283258086
8.619000000000000 0.0256130555255 -0.536861493607 0.9996686556667 -79.18790246215 0.9996686556667 -79.18790246215 0.0256139962535 22.171071685918
8.619200000000001 0.0256126109973 -0.539411730857 0.9996686668260 -79.18978343322 0.9996686668260 -79.18978343322 0.0256135518447 22.169860831865
8.619400000000001 0.0256121647960 -0.541962879632 0.9996686780275 -79.19166450139 0.9996686780275 -79.19166450139 0.0256131057630 22.168650698296
8.619600000000000 0.0256117169155 -0.544514943381 0.9996686892713 -79.19354566702 0.9996686892713 -79.19354566702 0.0256126580024 22.167441287889
8.619800000000000 0.0256112673498 -0.547067925534 0.9996687005575 -79.19542693046 0.9996687005575 -79.19542693046 0.0256122085570 22.166232603146
8.620000000000001 0.0256108160938 -0.549621828858 0.9996687118864 -79.19730829200 0.9996687118864 -79.19730829200 0.0256117574215 22.165024646542
8.620200000000001 0.0256103631431 -0.552176656052 0.9996687232580 -79.19918975192 0.9996687232580 -79.19918975192 0.0256113045916 22.163817419960
8.620400000000000 0.0256099084917 -0.554732410097 0.9996687346724 -79.20107131055 0.9996687346724 -79.20107131055 0.0256108500614 22.162610926176
8.620600000000001 0.0256094521332 -0.557289094935 0.9996687461298 -79.20295296828 0.9996687461298 -79.20295296828 0.0256103938243 22.161405167968
8.620800000000001 0.0256089940632 -0.559846712831 0.9996687576303 -79.20483472536 0.9996687576303 -79.20483472536 0.0256099358761 22.160200147360
8.621000000000000 0.0256085342753 -0.562405267469 0.9996687691740 -79.20671658216 0.9996687691740 -79.20671658216 0.0256094762102 22.158995867192
8.621200000000000 0.0256080727648 -0.564964761630 0.9996687807612 -79.20859853898 0.9996687807612 -79.20859853898 0.0256090148221 22.157792329443
8.621400000000001 0.0256076095253 -0.567525198640 0.9996687923919 -79.21048059617 0.9996687923919 -79.21048059617 0.0256085517052 22.156589537258
8.621600000000001 0.0256071445510 -0.570086581996 0.9996688040664 -79.21236275408 0.9996688040664 -79.21236275408 0.0256080868539 22.155387492882
8.621800000000000 0.0256066778363 -0.572648914672 0.9996688157846 -79.21424501304 0.9996688157846 -79.21424501304 0.0256076202625 22.154186199056
8.622000000000000 0.0256062093769 -0.575212199244 0.9996688275468 -79.21612737330 0.9996688275468 -79.21612737330 0.0256071519267 22.152985657670
8.622200000000001 0.0256057391652 -0.577776439819 0.9996688393531 -79.21800983531 0.9996688393531 -79.21800983531 0.0256066818390 22.151785872103
8.622400000000001 0.0256052671968 -0.580341639003 0.9996688512036 -79.21989239933 0.9996688512036 -79.21989239933 0.0256062099948 22.150586844358
8.622600000000000 0.0256047934649 -0.582907800695 0.9996688630986 -79.22177506575 0.9996688630986 -79.22177506575 0.0256057363874 22.149388577326
8.622800000000000 0.0256043179645 -0.585474927457 0.9996688750381 -79.22365783487 0.9996688750381 -79.22365783487 0.0256052610119 22.148191073538
8.623000000000001 0.0256038406891 -0.588043023258 0.9996688870223 -79.22554070707 0.9996688870223 -79.22554070707 0.0256047838616 22.146994335555
8.623200000000001 0.0256033616338 -0.590612090486 0.9996688990512 -79.22742368264 0.9996688990512 -79.22742368264 0.0256043049319 22.145798365985
8.623400000000000 0.0256028807916 -0.593182133416 0.9996689111251 -79.22930676198 0.9996689111251 -79.22930676198 0.0256038242155 22.144603167540
8.623600000000000 0.0256023981579 -0.595753154560 0.9996689232442 -79.23118994538 0.9996689232442 -79.23118994538 0.0256033417079 22.143408742553
8.623800000000001 0.0256019137252 -0.598325158081 0.9996689354085 -79.23307323326 0.9996689354085 -79.23307323326 0.0256028574017 22.142215094199
8.624000000000001 0.0256014274888 -0.600898146629 0.9996689476182 -79.23495662591 0.9996689476182 -79.23495662591 0.0256023712921 22.141022224731
8.624200000000000 0.0256009394423 -0.603472123686 0.9996689598735 -79.23684012370 0.9996689598735 -79.23684012370 0.0256018833728 22.139830137087
8.624400000000001 0.0256004495796 -0.606047092947 0.9996689721744 -79.23872372699 0.9996689721744 -79.23872372699 0.0256013936375 22.138638833857
8.624600000000001 0.0255999578941 -0.608623058031 0.9996689845213 -79.24060743617 0.9996689845213 -79.24060743617 0.0256009020798 22.137448317893
8.624800000000000 0.0255994643817 -0.611200021294 0.9996689969142 -79.24249125147 0.9996689969142 -79.24249125147 0.0256004086955 22.136258591260
8.625000000000000 0.0255989690339 -0.613777987355 0.9996690093531 -79.24437517340 0.9996690093531 -79.24437517340 0.0255999134761 22.135069657718
8.625200000000001 0.0255984718468 -0.616356958679 0.9996690218385 -79.24625920219 0.9996690218385 -79.24625920219 0.0255994164178 22.133881518905
8.625400000000001 0.0255979728130 -0.618936939066 0.9996690343701 -79.24814333826 0.9996690343701 -79.24814333826 0.0255989175131 22.132694178380
8.625600000000000 0.0255974719259 -0.621517932569 0.9996690469485 -79.25002758201 0.9996690469485 -79.25002758201 0.0255984167555 22.131507638773
8.625800000000000 0.0255969691800 -0.624099942120 0.9996690595736 -79.25191193375 0.9996690595736 -79.25191193375 0.0255979141394 22.130321902764
8.626000000000001 0.0255964645690 -0.626682971423 0.9996690722457 -79.25379639387 0.9996690722457 -79.25379639387 0.0255974096585 22.129136973134
8.626200000000001 0.0255959580869 -0.629267023607 0.9996690849647 -79.25568096271 0.9996690849647 -79.25568096271 0.0255969033068 22.127952852709
8.626400000000000 0.0255954497271 -0.631852102548 0.9996690977310 -79.25756564066 0.9996690977310 -79.25756564066 0.0255963950779 22.126769544276
