! Sonnet Data File
! From: emgraph Version : 16.52
! From Emgraph Data: 170708_mm_squiggleX_Res5G_12
! Data File Written: 11/07/2017 15:11:36
!< HDATE 07/08/2017 18:42:22
!< MDATE 07/08/2017 18:42:22
!< PARAMS
!< Squiggle_length = 16.0
!< dcoup = 76.0
!< dCr = 12.0
!< END PARAMS
# GHZ S MA R 50.00000
4.00000000 0.039489 -117.4 0.999218 -30.70 0.999218 -30.70 0.039489 -124.0
!< P1 F=4.0 Eeff=(6.5397458 -3.016e-5) Z0=(50.7196015 1.16967e-4) R=0.01177901 C=0.01558055 
!< P2 F=4.0 Eeff=(6.5397458 -3.016e-5) Z0=(50.7196015 1.16967e-4) R=0.01177901 C=0.01558055 
4.00100000 0.039627 -117.4 0.999212 -30.71 0.999212 -30.71 0.039627 -124.0
4.00200000 0.039766 -117.4 0.999206 -30.73 0.999206 -30.73 0.039766 -124.0
4.00300000 0.039905 -117.4 0.999200 -30.74 0.999200 -30.74 0.039905 -124.1
4.00400000 0.040045 -117.5 0.999195 -30.76 0.999195 -30.76 0.040045 -124.1
4.00500000 0.040184 -117.5 0.999189 -30.77 0.999189 -30.77 0.040184 -124.1
4.00600000 0.040324 -117.5 0.999183 -30.79 0.999183 -30.79 0.040324 -124.1
4.00700000 0.040464 -117.5 0.999177 -30.80 0.999177 -30.80 0.040464 -124.1
4.00800000 0.040605 -117.5 0.999171 -30.82 0.999171 -30.82 0.040605 -124.1
4.00900000 0.040746 -117.6 0.999165 -30.83 0.999165 -30.83 0.040745 -124.1
4.01000000 0.040887 -117.6 0.999159 -30.85 0.999159 -30.85 0.040886 -124.1
4.01100000 0.041028 -117.6 0.999154 -30.86 0.999154 -30.86 0.041027 -124.1
4.01200000 0.041169 -117.6 0.999147 -30.88 0.999147 -30.88 0.041169 -124.1
4.01300000 0.041311 -117.7 0.999141 -30.89 0.999141 -30.89 0.041311 -124.1
4.01400000 0.041453 -117.7 0.999135 -30.91 0.999135 -30.91 0.041453 -124.2
4.01500000 0.041596 -117.7 0.999129 -30.92 0.999129 -30.92 0.041595 -124.2
4.01600000 0.041738 -117.7 0.999123 -30.94 0.999123 -30.94 0.041738 -124.2
4.01700000 0.041881 -117.7 0.999117 -30.95 0.999117 -30.95 0.041880 -124.2
4.01800000 0.042024 -117.8 0.999111 -30.97 0.999111 -30.97 0.042023 -124.2
4.01900000 0.042168 -117.8 0.999105 -30.98 0.999105 -30.98 0.042167 -124.2
4.02000000 0.042312 -117.8 0.999098 -31.00 0.999098 -31.00 0.042311 -124.2
4.02100000 0.042456 -117.8 0.999092 -31.01 0.999092 -31.01 0.042455 -124.2
4.02200000 0.042600 -117.8 0.999086 -31.03 0.999086 -31.03 0.042599 -124.2
4.02300000 0.042745 -117.9 0.999079 -31.04 0.999079 -31.04 0.042743 -124.2
4.02400000 0.042889 -117.9 0.999073 -31.06 0.999073 -31.06 0.042888 -124.3
4.02500000 0.043035 -117.9 0.999066 -31.07 0.999066 -31.07 0.043033 -124.3
4.02600000 0.043180 -117.9 0.999060 -31.09 0.999060 -31.09 0.043179 -124.3
4.02700000 0.043326 -117.9 0.999053 -31.10 0.999053 -31.10 0.043324 -124.3
4.02800000 0.043472 -118.0 0.999047 -31.12 0.999047 -31.12 0.043470 -124.3
4.02900000 0.043618 -118.0 0.999040 -31.13 0.999040 -31.13 0.043616 -124.3
4.03000000 0.043764 -118.0 0.999034 -31.15 0.999034 -31.15 0.043763 -124.3
4.03100000 0.043911 -118.0 0.999027 -31.17 0.999027 -31.17 0.043910 -124.3
4.03200000 0.044058 -118.1 0.999020 -31.18 0.999020 -31.18 0.044057 -124.3
4.03300000 0.044206 -118.1 0.999014 -31.20 0.999014 -31.20 0.044204 -124.3
4.03400000 0.044354 -118.1 0.999007 -31.21 0.999007 -31.21 0.044352 -124.4
4.03500000 0.044501 -118.1 0.999000 -31.23 0.999000 -31.23 0.044499 -124.4
4.03600000 0.044650 -118.1 0.998993 -31.24 0.998993 -31.24 0.044648 -124.4
4.03700000 0.044798 -118.2 0.998987 -31.26 0.998987 -31.26 0.044796 -124.4
4.03800000 0.044947 -118.2 0.998980 -31.27 0.998980 -31.27 0.044945 -124.4
4.03900000 0.045096 -118.2 0.998973 -31.29 0.998973 -31.29 0.045094 -124.4
4.04000000 0.045246 -118.2 0.998966 -31.30 0.998966 -31.30 0.045243 -124.4
4.04100000 0.045395 -118.2 0.998959 -31.32 0.998959 -31.32 0.045393 -124.4
4.04200000 0.045545 -118.3 0.998952 -31.33 0.998952 -31.33 0.045543 -124.4
4.04300000 0.045696 -118.3 0.998945 -31.35 0.998945 -31.35 0.045693 -124.4
4.04400000 0.045846 -118.3 0.998938 -31.37 0.998938 -31.37 0.045844 -124.5
4.04500000 0.045997 -118.3 0.998930 -31.38 0.998930 -31.38 0.045995 -124.5
4.04600000 0.046148 -118.3 0.998923 -31.40 0.998923 -31.40 0.046146 -124.5
4.04700000 0.046300 -118.4 0.998916 -31.41 0.998916 -31.41 0.046297 -124.5
4.04800000 0.046451 -118.4 0.998909 -31.43 0.998909 -31.43 0.046449 -124.5
4.04900000 0.046604 -118.4 0.998901 -31.44 0.998901 -31.44 0.046601 -124.5
4.05000000 0.046756 -118.4 0.998894 -31.46 0.998894 -31.46 0.046753 -124.5
4.05100000 0.046909 -118.4 0.998887 -31.47 0.998887 -31.47 0.046906 -124.5
4.05200000 0.047061 -118.5 0.998879 -31.49 0.998879 -31.49 0.047058 -124.5
4.05300000 0.047215 -118.5 0.998872 -31.51 0.998872 -31.51 0.047212 -124.6
4.05400000 0.047368 -118.5 0.998864 -31.52 0.998864 -31.52 0.047365 -124.6
4.05500000 0.047522 -118.5 0.998857 -31.54 0.998857 -31.54 0.047519 -124.6
4.05600000 0.047676 -118.5 0.998849 -31.55 0.998849 -31.55 0.047673 -124.6
4.05700000 0.047831 -118.6 0.998842 -31.57 0.998842 -31.57 0.047827 -124.6
4.05800000 0.047985 -118.6 0.998834 -31.58 0.998834 -31.58 0.047982 -124.6
4.05900000 0.048140 -118.6 0.998826 -31.60 0.998826 -31.60 0.048137 -124.6
4.06000000 0.048296 -118.6 0.998819 -31.62 0.998819 -31.62 0.048292 -124.6
4.06100000 0.048451 -118.7 0.998811 -31.63 0.998811 -31.63 0.048448 -124.6
4.06200000 0.048607 -118.7 0.998803 -31.65 0.998803 -31.65 0.048604 -124.7
4.06300000 0.048764 -118.7 0.998795 -31.66 0.998795 -31.66 0.048760 -124.7
4.06400000 0.048920 -118.7 0.998788 -31.68 0.998788 -31.68 0.048917 -124.7
4.06500000 0.049077 -118.7 0.998780 -31.69 0.998780 -31.69 0.049073 -124.7
4.06600000 0.049234 -118.8 0.998772 -31.71 0.998772 -31.71 0.049230 -124.7
4.06700000 0.049392 -118.8 0.998764 -31.73 0.998764 -31.73 0.049388 -124.7
4.06800000 0.049550 -118.8 0.998756 -31.74 0.998756 -31.74 0.049546 -124.7
4.06900000 0.049708 -118.8 0.998748 -31.76 0.998748 -31.76 0.049704 -124.7
4.07000000 0.049866 -118.8 0.998739 -31.77 0.998739 -31.77 0.049862 -124.7
4.07100000 0.050025 -118.9 0.998731 -31.79 0.998731 -31.79 0.050021 -124.8
4.07200000 0.050184 -118.9 0.998723 -31.81 0.998723 -31.81 0.050180 -124.8
4.07300000 0.050343 -118.9 0.998715 -31.82 0.998715 -31.82 0.050339 -124.8
4.07400000 0.050503 -118.9 0.998707 -31.84 0.998707 -31.84 0.050499 -124.8
4.07500000 0.050663 -118.9 0.998698 -31.85 0.998698 -31.85 0.050659 -124.8
4.07600000 0.050823 -119.0 0.998690 -31.87 0.998690 -31.87 0.050819 -124.8
4.07700000 0.050984 -119.0 0.998681 -31.89 0.998681 -31.89 0.050979 -124.8
4.07800000 0.051145 -119.0 0.998673 -31.90 0.998673 -31.90 0.051140 -124.8
4.07900000 0.051306 -119.0 0.998664 -31.92 0.998664 -31.92 0.051301 -124.9
4.08000000 0.051467 -119.0 0.998656 -31.93 0.998656 -31.93 0.051463 -124.9
4.08100000 0.051629 -119.1 0.998647 -31.95 0.998647 -31.95 0.051625 -124.9
4.08200000 0.051791 -119.1 0.998639 -31.97 0.998639 -31.97 0.051787 -124.9
4.08300000 0.051954 -119.1 0.998630 -31.98 0.998630 -31.98 0.051949 -124.9
4.08400000 0.052117 -119.1 0.998621 -32.00 0.998621 -32.00 0.052112 -124.9
4.08500000 0.052280 -119.1 0.998613 -32.02 0.998613 -32.02 0.052275 -124.9
4.08600000 0.052443 -119.2 0.998604 -32.03 0.998604 -32.03 0.052439 -124.9
4.08700000 0.052607 -119.2 0.998595 -32.05 0.998595 -32.05 0.052602 -125.0
4.08800000 0.052771 -119.2 0.998586 -32.06 0.998586 -32.06 0.052766 -125.0
4.08900000 0.052936 -119.2 0.998577 -32.08 0.998577 -32.08 0.052931 -125.0
4.09000000 0.053101 -119.2 0.998568 -32.10 0.998568 -32.10 0.053096 -125.0
4.09100000 0.053266 -119.3 0.998559 -32.11 0.998559 -32.11 0.053261 -125.0
4.09200000 0.053431 -119.3 0.998550 -32.13 0.998550 -32.13 0.053426 -125.0
4.09300000 0.053597 -119.3 0.998541 -32.15 0.998541 -32.15 0.053592 -125.0
4.09400000 0.053763 -119.3 0.998532 -32.16 0.998532 -32.16 0.053758 -125.0
4.09500000 0.053929 -119.4 0.998523 -32.18 0.998523 -32.18 0.053924 -125.1
4.09600000 0.054096 -119.4 0.998513 -32.20 0.998513 -32.20 0.054091 -125.1
4.09700000 0.054263 -119.4 0.998504 -32.21 0.998504 -32.21 0.054258 -125.1
4.09800000 0.054431 -119.4 0.998495 -32.23 0.998495 -32.23 0.054425 -125.1
4.09900000 0.054598 -119.4 0.998485 -32.24 0.998485 -32.24 0.054593 -125.1
4.10000000 0.054766 -119.5 0.998476 -32.26 0.998476 -32.26 0.054761 -125.1
4.10100000 0.054935 -119.5 0.998466 -32.28 0.998466 -32.28 0.054929 -125.1
4.10200000 0.055103 -119.5 0.998457 -32.29 0.998457 -32.29 0.055098 -125.1
4.10300000 0.055273 -119.5 0.998447 -32.31 0.998447 -32.31 0.055267 -125.2
4.10400000 0.055442 -119.5 0.998438 -32.33 0.998438 -32.33 0.055436 -125.2
4.10500000 0.055612 -119.6 0.998428 -32.34 0.998428 -32.34 0.055606 -125.2
4.10600000 0.055782 -119.6 0.998418 -32.36 0.998418 -32.36 0.055776 -125.2
4.10700000 0.055952 -119.6 0.998408 -32.38 0.998408 -32.38 0.055946 -125.2
4.10800000 0.056123 -119.6 0.998399 -32.39 0.998399 -32.39 0.056117 -125.2
4.10900000 0.056294 -119.6 0.998389 -32.41 0.998389 -32.41 0.056288 -125.2
4.11000000 0.056465 -119.7 0.998379 -32.43 0.998379 -32.43 0.056459 -125.2
4.11100000 0.056637 -119.7 0.998369 -32.44 0.998369 -32.44 0.056631 -125.3
4.11200000 0.056809 -119.7 0.998359 -32.46 0.998359 -32.46 0.056803 -125.3
4.11300000 0.056982 -119.7 0.998349 -32.48 0.998349 -32.48 0.056976 -125.3
4.11400000 0.057155 -119.7 0.998339 -32.49 0.998339 -32.49 0.057148 -125.3
4.11500000 0.057328 -119.8 0.998328 -32.51 0.998328 -32.51 0.057322 -125.3
4.11600000 0.057501 -119.8 0.998318 -32.53 0.998318 -32.53 0.057495 -125.3
4.11700000 0.057675 -119.8 0.998308 -32.54 0.998308 -32.54 0.057669 -125.3
4.11800000 0.057849 -119.8 0.998298 -32.56 0.998298 -32.56 0.057843 -125.4
4.11900000 0.058024 -119.8 0.998287 -32.58 0.998287 -32.58 0.058017 -125.4
4.12000000 0.058199 -119.9 0.998277 -32.60 0.998277 -32.60 0.058192 -125.4
4.12100000 0.058374 -119.9 0.998266 -32.61 0.998266 -32.61 0.058367 -125.4
4.12200000 0.058550 -119.9 0.998256 -32.63 0.998256 -32.63 0.058543 -125.4
4.12300000 0.058725 -119.9 0.998245 -32.65 0.998245 -32.65 0.058719 -125.4
4.12400000 0.058902 -119.9 0.998235 -32.66 0.998235 -32.66 0.058895 -125.4
4.12500000 0.059078 -120.0 0.998224 -32.68 0.998224 -32.68 0.059072 -125.4
4.12600000 0.059255 -120.0 0.998213 -32.70 0.998213 -32.70 0.059249 -125.5
4.12700000 0.059433 -120.0 0.998202 -32.71 0.998202 -32.71 0.059426 -125.5
4.12800000 0.059610 -120.0 0.998191 -32.73 0.998191 -32.73 0.059604 -125.5
4.12900000 0.059789 -120.1 0.998181 -32.75 0.998181 -32.75 0.059782 -125.5
4.13000000 0.059967 -120.1 0.998170 -32.77 0.998170 -32.77 0.059960 -125.5
4.13100000 0.060146 -120.1 0.998159 -32.78 0.998159 -32.78 0.060139 -125.5
4.13200000 0.060325 -120.1 0.998148 -32.80 0.998148 -32.80 0.060318 -125.5
4.13300000 0.060504 -120.1 0.998136 -32.82 0.998136 -32.82 0.060497 -125.6
4.13400000 0.060684 -120.2 0.998125 -32.83 0.998125 -32.83 0.060677 -125.6
4.13500000 0.060864 -120.2 0.998114 -32.85 0.998114 -32.85 0.060857 -125.6
4.13600000 0.061045 -120.2 0.998103 -32.87 0.998103 -32.87 0.061038 -125.6
4.13700000 0.061226 -120.2 0.998091 -32.89 0.998091 -32.89 0.061219 -125.6
4.13800000 0.061407 -120.2 0.998080 -32.90 0.998080 -32.90 0.061400 -125.6
4.13900000 0.061589 -120.3 0.998069 -32.92 0.998069 -32.92 0.061582 -125.6
4.14000000 0.061771 -120.3 0.998057 -32.94 0.998057 -32.94 0.061764 -125.7
4.14100000 0.061953 -120.3 0.998045 -32.95 0.998045 -32.95 0.061946 -125.7
4.14200000 0.062136 -120.3 0.998034 -32.97 0.998034 -32.97 0.062129 -125.7
4.14300000 0.062319 -120.3 0.998022 -32.99 0.998022 -32.99 0.062312 -125.7
4.14400000 0.062503 -120.4 0.998010 -33.01 0.998010 -33.01 0.062495 -125.7
4.14500000 0.062687 -120.4 0.997999 -33.02 0.997999 -33.02 0.062679 -125.7
4.14600000 0.062871 -120.4 0.997987 -33.04 0.997987 -33.04 0.062864 -125.7
4.14700000 0.063056 -120.4 0.997975 -33.06 0.997975 -33.06 0.063048 -125.8
4.14800000 0.063241 -120.4 0.997963 -33.08 0.997963 -33.08 0.063233 -125.8
4.14900000 0.063426 -120.5 0.997951 -33.09 0.997951 -33.09 0.063418 -125.8
4.15000000 0.063612 -120.5 0.997939 -33.11 0.997939 -33.11 0.063604 -125.8
4.15100000 0.063798 -120.5 0.997927 -33.13 0.997927 -33.13 0.063790 -125.8
4.15200000 0.063985 -120.5 0.997914 -33.15 0.997914 -33.15 0.063977 -125.8
4.15300000 0.064171 -120.6 0.997902 -33.16 0.997902 -33.16 0.064164 -125.8
4.15400000 0.064359 -120.6 0.997890 -33.18 0.997890 -33.18 0.064351 -125.9
4.15500000 0.064546 -120.6 0.997877 -33.20 0.997877 -33.20 0.064538 -125.9
4.15600000 0.064734 -120.6 0.997865 -33.22 0.997865 -33.22 0.064726 -125.9
4.15700000 0.064923 -120.6 0.997852 -33.23 0.997852 -33.23 0.064915 -125.9
4.15800000 0.065112 -120.7 0.997840 -33.25 0.997840 -33.25 0.065104 -125.9
4.15900000 0.065301 -120.7 0.997827 -33.27 0.997827 -33.27 0.065293 -125.9
4.16000000 0.065490 -120.7 0.997815 -33.29 0.997815 -33.29 0.065482 -125.9
4.16100000 0.065680 -120.7 0.997802 -33.31 0.997802 -33.31 0.065672 -126.0
4.16200000 0.065871 -120.7 0.997789 -33.32 0.997789 -33.32 0.065862 -126.0
4.16300000 0.066061 -120.8 0.997776 -33.34 0.997776 -33.34 0.066053 -126.0
4.16400000 0.066252 -120.8 0.997763 -33.36 0.997763 -33.36 0.066244 -126.0
4.16500000 0.066444 -120.8 0.997750 -33.38 0.997750 -33.38 0.066436 -126.0
4.16600000 0.066636 -120.8 0.997737 -33.39 0.997737 -33.39 0.066628 -126.0
4.16700000 0.066828 -120.8 0.997724 -33.41 0.997724 -33.41 0.066820 -126.0
4.16800000 0.067021 -120.9 0.997711 -33.43 0.997711 -33.43 0.067012 -126.1
4.16900000 0.067214 -120.9 0.997697 -33.45 0.997697 -33.45 0.067206 -126.1
4.17000000 0.067407 -120.9 0.997684 -33.47 0.997684 -33.47 0.067399 -126.1
4.17100000 0.067601 -120.9 0.997671 -33.48 0.997671 -33.48 0.067593 -126.1
4.17200000 0.067795 -121.0 0.997657 -33.50 0.997657 -33.50 0.067787 -126.1
4.17300000 0.067990 -121.0 0.997644 -33.52 0.997644 -33.52 0.067982 -126.1
4.17400000 0.068185 -121.0 0.997630 -33.54 0.997630 -33.54 0.068177 -126.2
4.17500000 0.068381 -121.0 0.997616 -33.56 0.997616 -33.56 0.068372 -126.2
4.17600000 0.068576 -121.0 0.997603 -33.57 0.997603 -33.57 0.068568 -126.2
4.17700000 0.068773 -121.1 0.997589 -33.59 0.997589 -33.59 0.068764 -126.2
4.17800000 0.068969 -121.1 0.997575 -33.61 0.997575 -33.61 0.068961 -126.2
4.17900000 0.069166 -121.1 0.997561 -33.63 0.997561 -33.63 0.069158 -126.2
4.18000000 0.069364 -121.1 0.997547 -33.65 0.997547 -33.65 0.069355 -126.2
4.18100000 0.069562 -121.1 0.997533 -33.67 0.997533 -33.67 0.069553 -126.3
4.18200000 0.069760 -121.2 0.997519 -33.68 0.997519 -33.68 0.069751 -126.3
4.18300000 0.069959 -121.2 0.997505 -33.70 0.997505 -33.70 0.069950 -126.3
4.18400000 0.070158 -121.2 0.997491 -33.72 0.997491 -33.72 0.070149 -126.3
4.18500000 0.070357 -121.2 0.997476 -33.74 0.997476 -33.74 0.070348 -126.3
4.18600000 0.070557 -121.2 0.997462 -33.76 0.997462 -33.76 0.070548 -126.3
4.18700000 0.070758 -121.3 0.997447 -33.78 0.997447 -33.78 0.070749 -126.4
4.18800000 0.070958 -121.3 0.997433 -33.79 0.997433 -33.79 0.070949 -126.4
4.18900000 0.071159 -121.3 0.997418 -33.81 0.997418 -33.81 0.071150 -126.4
4.19000000 0.071361 -121.3 0.997403 -33.83 0.997403 -33.83 0.071352 -126.4
4.19100000 0.071563 -121.4 0.997389 -33.85 0.997389 -33.85 0.071554 -126.4
4.19200000 0.071765 -121.4 0.997374 -33.87 0.997374 -33.87 0.071756 -126.4
4.19300000 0.071968 -121.4 0.997359 -33.89 0.997359 -33.89 0.071959 -126.4
4.19400000 0.072171 -121.4 0.997344 -33.90 0.997344 -33.90 0.072162 -126.5
4.19500000 0.072375 -121.4 0.997329 -33.92 0.997329 -33.92 0.072366 -126.5
4.19600000 0.072579 -121.5 0.997314 -33.94 0.997314 -33.94 0.072570 -126.5
4.19700000 0.072784 -121.5 0.997299 -33.96 0.997299 -33.96 0.072774 -126.5
4.19800000 0.072989 -121.5 0.997283 -33.98 0.997283 -33.98 0.072979 -126.5
4.19900000 0.073194 -121.5 0.997268 -34.00 0.997268 -34.00 0.073185 -126.5
4.20000000 0.073400 -121.5 0.997253 -34.02 0.997253 -34.02 0.073390 -126.6
4.20100000 0.073606 -121.6 0.997237 -34.03 0.997237 -34.03 0.073597 -126.6
4.20200000 0.073813 -121.6 0.997222 -34.05 0.997222 -34.05 0.073803 -126.6
4.20300000 0.074020 -121.6 0.997206 -34.07 0.997206 -34.07 0.074010 -126.6
4.20400000 0.074227 -121.6 0.997190 -34.09 0.997190 -34.09 0.074218 -126.6
4.20500000 0.074435 -121.7 0.997174 -34.11 0.997174 -34.11 0.074426 -126.6
4.20600000 0.074643 -121.7 0.997158 -34.13 0.997158 -34.13 0.074634 -126.7
4.20700000 0.074852 -121.7 0.997143 -34.15 0.997143 -34.15 0.074843 -126.7
4.20800000 0.075061 -121.7 0.997126 -34.17 0.997126 -34.17 0.075052 -126.7
4.20900000 0.075271 -121.7 0.997110 -34.18 0.997110 -34.18 0.075261 -126.7
4.21000000 0.075481 -121.8 0.997094 -34.20 0.997094 -34.20 0.075471 -126.7
4.21100000 0.075692 -121.8 0.997078 -34.22 0.997078 -34.22 0.075682 -126.7
4.21200000 0.075903 -121.8 0.997062 -34.24 0.997062 -34.24 0.075893 -126.8
4.21300000 0.076114 -121.8 0.997045 -34.26 0.997045 -34.26 0.076104 -126.8
4.21400000 0.076326 -121.8 0.997029 -34.28 0.997029 -34.28 0.076316 -126.8
4.21500000 0.076538 -121.9 0.997012 -34.30 0.997012 -34.30 0.076528 -126.8
4.21600000 0.076751 -121.9 0.996995 -34.32 0.996995 -34.32 0.076741 -126.8
4.21700000 0.076964 -121.9 0.996979 -34.34 0.996979 -34.34 0.076954 -126.8
4.21800000 0.077178 -121.9 0.996962 -34.36 0.996962 -34.36 0.077168 -126.9
4.21900000 0.077392 -122.0 0.996945 -34.38 0.996945 -34.38 0.077382 -126.9
4.22000000 0.077606 -122.0 0.996928 -34.39 0.996928 -34.39 0.077596 -126.9
4.22100000 0.077821 -122.0 0.996911 -34.41 0.996911 -34.41 0.077811 -126.9
4.22200000 0.078037 -122.0 0.996894 -34.43 0.996894 -34.43 0.078027 -126.9
4.22300000 0.078253 -122.0 0.996877 -34.45 0.996877 -34.45 0.078243 -126.9
4.22400000 0.078469 -122.1 0.996859 -34.47 0.996859 -34.47 0.078459 -127.0
4.22500000 0.078686 -122.1 0.996842 -34.49 0.996842 -34.49 0.078676 -127.0
4.22600000 0.078903 -122.1 0.996824 -34.51 0.996824 -34.51 0.078893 -127.0
4.22700000 0.079121 -122.1 0.996807 -34.53 0.996807 -34.53 0.079110 -127.0
4.22800000 0.079339 -122.2 0.996789 -34.55 0.996789 -34.55 0.079329 -127.0
4.22900000 0.079557 -122.2 0.996771 -34.57 0.996771 -34.57 0.079547 -127.0
4.23000000 0.079776 -122.2 0.996754 -34.59 0.996754 -34.59 0.079766 -127.1
4.23100000 0.079996 -122.2 0.996736 -34.61 0.996736 -34.61 0.079986 -127.1
4.23200000 0.080216 -122.2 0.996718 -34.63 0.996718 -34.63 0.080206 -127.1
4.23300000 0.080436 -122.3 0.996700 -34.65 0.996700 -34.65 0.080426 -127.1
4.23400000 0.080657 -122.3 0.996681 -34.67 0.996681 -34.67 0.080647 -127.1
4.23500000 0.080879 -122.3 0.996663 -34.68 0.996663 -34.68 0.080868 -127.1
4.23600000 0.081100 -122.3 0.996645 -34.70 0.996645 -34.70 0.081090 -127.2
4.23700000 0.081323 -122.4 0.996626 -34.72 0.996626 -34.72 0.081312 -127.2
4.23800000 0.081546 -122.4 0.996608 -34.74 0.996608 -34.74 0.081535 -127.2
4.23900000 0.081769 -122.4 0.996589 -34.76 0.996589 -34.76 0.081758 -127.2
4.24000000 0.081993 -122.4 0.996571 -34.78 0.996571 -34.78 0.081982 -127.2
4.24100000 0.082217 -122.4 0.996552 -34.80 0.996552 -34.80 0.082206 -127.3
4.24200000 0.082441 -122.5 0.996533 -34.82 0.996533 -34.82 0.082431 -127.3
4.24300000 0.082667 -122.5 0.996514 -34.84 0.996514 -34.84 0.082656 -127.3
4.24400000 0.082892 -122.5 0.996495 -34.86 0.996495 -34.86 0.082882 -127.3
4.24500000 0.083118 -122.5 0.996476 -34.88 0.996476 -34.88 0.083108 -127.3
4.24600000 0.083345 -122.5 0.996457 -34.90 0.996457 -34.90 0.083334 -127.3
4.24700000 0.083572 -122.6 0.996437 -34.92 0.996437 -34.92 0.083561 -127.4
4.24800000 0.083800 -122.6 0.996418 -34.94 0.996418 -34.94 0.083789 -127.4
4.24900000 0.084028 -122.6 0.996398 -34.96 0.996398 -34.96 0.084017 -127.4
4.25000000 0.084256 -122.6 0.996379 -34.98 0.996379 -34.98 0.084245 -127.4
4.25100000 0.084485 -122.7 0.996359 -35.00 0.996359 -35.00 0.084474 -127.4
4.25200000 0.084715 -122.7 0.996339 -35.02 0.996339 -35.02 0.084704 -127.4
4.25300000 0.084945 -122.7 0.996319 -35.04 0.996319 -35.04 0.084934 -127.5
4.25400000 0.085175 -122.7 0.996299 -35.06 0.996299 -35.06 0.085164 -127.5
4.25500000 0.085406 -122.8 0.996279 -35.08 0.996279 -35.08 0.085395 -127.5
4.25600000 0.085637 -122.8 0.996259 -35.10 0.996259 -35.10 0.085627 -127.5
4.25700000 0.085869 -122.8 0.996239 -35.12 0.996239 -35.12 0.085859 -127.5
4.25800000 0.086102 -122.8 0.996218 -35.14 0.996218 -35.14 0.086091 -127.6
4.25900000 0.086335 -122.8 0.996198 -35.16 0.996198 -35.16 0.086324 -127.6
